# HZ S RI R 50
10000000 1.066145776233287 -0.07076932626607235 -0.0014525482488772588 -0.0059962080315055545 0 0 0 0
10000495 1.0920146144565654 0.21269345001892534 0.003777938447936639 0.0026821878559522496 0 0 0 0
10000990 1.033088014446713 0.13191070261537022 -0.005183401850025302 0.00542508548314671 0 0 0 0
10001485 1.0206897742824672 0.08767417379171061 -0.0036242661433067837 -0.0015025177025293271 0 0 0 0
10001980 1.0543705867918958 0.1343311245244679 0.007530504567458576 -0.006461716733746369 0 0 0 0
10002475 1.007974861333328 0.05169750258762535 0.0072801272758268405 0.0035952804271485984 0 0 0 0
10002970 1.0342108439847406 0.10639057826948564 0.010044302508729504 -0.008692229212824885 0 0 0 0
10003465 1.0336251784897827 0.0807706657238182 -0.005787614929513946 -0.004898354078827712 0 0 0 0
10003960 0.9832590028937567 0.1359421259379317 -0.006294648091009495 -0.0003224480799216839 0 0 0 0
10004455 1.0376818635866152 0.09454841704991881 0.0010512687568576648 -0.0027007055219379107 0 0 0 0
10004950 0.9914433382772868 0.13572846412512324 0.00564247835657127 0.0017858258519494244 0 0 0 0
10005445 0.9966393676422157 0.11034620847917818 0.006103499183015759 -0.0038591425771523987 0 0 0 0
10005940 0.9859504232619438 0.11111474813822199 0.00020749647445554372 -0.0015035030696168184 0 0 0 0
10006435 1.0282735417127682 0.07611462825163817 0.0009453962203811064 -0.000372665999341908 0 0 0 0
10006930 0.9997656261802409 0.11881331729555977 -0.0022555082300058475 0.003501091899197674 0 0 0 0
10007425 0.9696454884307728 0.08428739756843645 -0.00027909871136499927 -0.009545475663247514 0 0 0 0
10007920 0.9747932185819992 0.08407879884970412 0.00018352479485570425 -0.0027588263512169932 0 0 0 0
10008415 1.0184805786862645 0.08334524561065787 -0.0009242783194786556 0.010549692169340279 0 0 0 0
10008910 1.0442496681225248 0.1044157848654066 -0.007192228630457945 -0.002624636440206519 0 0 0 0
10009405 1.0004659614334024 0.09918320442079007 -0.006482542007524101 -0.006807691660253101 0 0 0 0
10009900 0.9981367500577168 0.0940387274345639 -0.005722349580395359 -0.006353664630234417 0 0 0 0
10010395 0.9951745265502997 0.10850597067537987 0.003406711357564845 -0.006552077187021257 0 0 0 0
10010890 1.005360729811903 0.12783645103898497 0.011024268340300637 0.0009105266298402229 0 0 0 0
10011385 1.007690271435708 0.10613908916405375 0.010737765711825057 0.014686435860865515 0 0 0 0
10011880 1.002961711885227 0.11417369675632966 -0.0006009796297503071 0.0012975437610828876 0 0 0 0
10012375 1.0089684895997022 0.13235427351335896 -0.0026099570572259666 -0.008774976432641498 0 0 0 0
10012870 1.0027144015272909 0.10729303126070147 0.005317770018878524 -0.005929953426423744 0 0 0 0
10013365 0.9870874167316032 0.10743387846357756 0.00790806525222517 -0.0008382050825888843 0 0 0 0
10013860 1.0162461198218216 0.11332560855817776 -0.0033070377739360854 -0.002991720903153267 0 0 0 0
10014355 1.0192763844977082 0.1145757295276777 -0.010375641646055768 0.0061224934181419825 0 0 0 0
10014850 1.0088828388529512 0.09877025852457422 -0.001021040596167537 0.008059835141021326 0 0 0 0
10015345 1.003880469710356 0.10951957491846069 -0.004176713361835485 -0.004028298943409982 0 0 0 0
10015840 1.0118493313712498 0.11118016289182281 -0.003519609547099924 0.0021097100555107283 0 0 0 0
10016335 1.0155195725113768 0.09143522124357857 -0.001633465815068969 -0.002310248692352843 0 0 0 0
10016830 1.0211344361062118 0.08445860545293483 0.00823171669796941 0.010689074511541571 0 0 0 0
10017325 0.9990509226400707 0.10014978010269616 -0.00749780352711985 -0.010236382000437728 0 0 0 0
10017820 0.9955722156183627 0.10561056664092133 -0.0046668519673102 -0.0068109337940473885 0 0 0 0
10018315 1.0061128344128512 0.08907510221501419 0.0048061115125415796 -0.010078005696140646 0 0 0 0
10018810 1.0146286037773795 0.12985994631662173 -0.0006937806457585463 -0.0027058912769905466 0 0 0 0
10019305 0.989888317510709 0.08378311741944702 0.003521027351209304 0.007144702810060247 0 0 0 0
10019800 1.0246349759428055 0.10516654602982625 0.0033941530624910948 0.0012664901855620418 0 0 0 0
10020295 1.0125874134995867 0.07924738277372217 0.0025203592386562105 0.0028217900669478078 0 0 0 0
10020790 1.001230144653905 0.11594465016439667 -0.006330849483802499 -0.0012682955030073311 0 0 0 0
10021285 0.999342758915638 0.0852340143662457 -0.00033447222800551637 -0.00530351995777339 0 0 0 0
10021780 0.9993230661256457 0.1111583306320986 0.004612772765600111 0.007338724432924001 0 0 0 0
10022275 1.0067702784136012 0.09894438750313674 -0.0018553832635949455 0.003707766012809544 0 0 0 0
10022770 1.029061419560218 0.09534446324881148 -0.017268335441250414 -0.0029052577155472123 0 0 0 0
10023265 0.9892121649909004 0.08329451285772747 -0.005669482399604131 -0.0077723284021298245 0 0 0 0
10023760 1.0316891149074834 0.11219373959920179 0.00902795335902549 0.00584607380613435 0 0 0 0
10024255 0.9785972773103357 0.11573057787423509 0.0037960003283377146 -0.0068813541102516656 0 0 0 0
10024750 1.0028730493070024 0.12338463553638325 0.0024626400089674963 0.004516675202831823 0 0 0 0
10025245 1.000016391162205 0.10724153785991737 0.00789080424189358 0.0008442491351023768 0 0 0 0
10025740 0.997544677507433 0.10251277091493152 -0.005044974463002699 0.003922050841449192 0 0 0 0
10026235 0.9860828008077411 0.1168978718741764 -0.004010694503066423 -0.005804906798594985 0 0 0 0
10026730 1.0081635883085849 0.12525212506825079 -0.002130667344235229 -0.0005250293185683516 0 0 0 0
10027225 1.0063446708595432 0.08174935600933594 -0.00026200488723516135 -0.003166114967127831 0 0 0 0
10027720 1.0194776720059242 0.09608019134380617 0.007478720644859224 0.0023149896525210727 0 0 0 0
10028215 1.0100103057052912 0.12161206288208085 -0.0054508970710912385 0.010465626451763084 0 0 0 0
10028710 1.0103800632783757 0.06604133597513458 -0.01021927519317229 -0.008305385252016967 0 0 0 0
10029205 1.003977306868086 0.1523110505890129 -0.006733653317778296 0.00041088653224125103 0 0 0 0
10029700 0.9843758969922571 -0.009443849426564644 0.002127068481097413 0.0013842952907848832 0 0 0 0
10030195 0.9178534615344462 0.01468520019669541 0.006349890856683168 0.0065155055196713 0 0 0 0
10030690 1.0490834487462126 0.0751169288287448 -0.0009417483944400823 0.004244036498268606 0 0 0 0
10031185 1.0259520502957762 0.10449801065269018 -0.006559088057738837 0.00029391869020033157 0 0 0 0
10031680 0.9746474485575635 0.07894758089218823 0.0030405768701420462 -0.009658846143157906 0 0 0 0
10032175 1.0201686403722823 0.127832342744989 -0.00623284665758754 -0.00854965352323391 0 0 0 0
10032670 1.0192973115137984 0.1166699226775893 0.01198241891026965 0.000997311072121143 0 0 0 0
10033165 0.9804879131323008 0.09609460679635314 0.011546021786358777 0.007205979688468471 0 0 0 0
10033660 1.0272671231602204 0.11539585243947234 -0.0037233973199670045 -0.0018114406428035113 0 0 0 0
10034155 0.9920879412286217 0.11872013099551261 -0.0008647254914462371 0.0019115743606148846 0 0 0 0
10034650 0.994741443983391 0.12996400860177573 0.006220428462726795 0.0010693407357085477 0 0 0 0
10035145 1.0044747785690553 0.09927326906273766 0.0010287261176233156 -0.002036044132853992 0 0 0 0
10035640 1.0174663203407222 0.09982379175315012 0.005529901995629216 0.0010500022401427108 0 0 0 0
10036135 1.0031694042915698 0.09016563884084887 0.003534184588018935 0.0040151337249560975 0 0 0 0
10036630 1.0635577534218226 0.07419694694698367 -0.002467324230540249 -5.346493553260945e-05 0 0 0 0
10037125 1.0173938147868986 0.11977004771023557 -0.00021253491631858412 -0.0014056606504434096 0 0 0 0
10037620 0.9854652322015551 0.08379404906031403 0.005020841467115142 -0.0021288519997301326 0 0 0 0
10038115 1.0310159424708472 0.130881661709632 0.009652942677790434 0.008383456647682641 0 0 0 0
10038610 1.0071834624246514 0.13026176730651967 0.004151179964555417 -0.003373543354640496 0 0 0 0
10039105 1.0107972438218686 0.10911310403881025 -0.006710537780632302 -0.0031135380977860435 0 0 0 0
10039600 0.882708619233744 0.03543975837079118 -0.0019259192046094825 0.006212922398771588 0 0 0 0
10040095 1.0439715792310105 -0.05511263644404186 0.0006775289073671886 -0.0029979947702226885 0 0 0 0
10040590 0.8975118031348512 0.07983483880551524 -0.0066273779788526875 -0.002447640579682128 0 0 0 0
10041085 1.0334888568844032 0.0690673563640829 0.013633715369320254 0.006356254596061132 0 0 0 0
10041580 1.0570617975213306 0.10464418321654216 -0.001836921900306801 0.00047740370799161894 0 0 0 0
10042075 1.0043769047152773 0.1213032795429887 -0.008507589954302596 -0.008468634633851824 0 0 0 0
10042570 0.9892835477663816 0.07839876566276847 -0.00889021775062481 -0.002931145297871241 0 0 0 0
10043065 1.0007172036638 0.14173086108946492 0.0036117827209400876 -0.0035736464843861685 0 0 0 0
10043560 1.00637390299223 0.09480698760963387 0.0032892779918646388 0.006679316927578709 0 0 0 0
10044055 1.0190672175255147 0.09860392036870759 -0.0003050417073003613 -0.0007859972364099526 0 0 0 0
10044550 0.9880051518398418 0.1346203844546891 0.0008870366571053728 0.003326563444821223 0 0 0 0
10045045 0.9972566268532204 0.07550856517750068 -0.004553261645477599 -0.007790595507871124 0 0 0 0
10045540 1.0001833132432847 0.09298589475672935 -0.00026961994715543977 -0.003406565254682122 0 0 0 0
10046035 0.9809523668073525 0.09718498469606911 -0.00044553050100986833 0.0012443702090321814 0 0 0 0
10046530 0.9916196722548167 0.10505207276270126 0.005019716731854581 0.006912581200678596 0 0 0 0
10047025 1.0087333216146357 0.084765482027637 0.000433324311399104 0.008289420149776454 0 0 0 0
10047520 0.9931648175717301 0.09322847815239246 -0.00042869243423709354 0.006241296845296528 0 0 0 0
10048015 1.0006385675149554 0.10731166764038108 -0.0024564018194598953 -0.0029975923632196526 0 0 0 0
10048510 1.0030185166335135 0.1359811493953703 -0.0011784674628750398 -0.0008212030264221339 0 0 0 0
10049005 1.0108981455897075 0.10961283922784286 -0.003162918895950516 0.0059442399861355 0 0 0 0
10049500 1.009730998732038 0.11940971190094377 0.0028966729774367304 -0.0012347073791433424 0 0 0 0
10049995 0.9881321334871138 0.09840669537375636 -0.0004895988614137981 0.006002603159341838 0 0 0 0
10050490 1.0046874910660326 0.10251497624129141 -0.00879312723021601 -0.0038828647012425386 0 0 0 0
10050985 1.055134339674063 0.1188238051421048 0.005200269492561374 -0.005727240629180756 0 0 0 0
10051480 0.9530396241913319 0.0999346531562627 0.0015891022034373438 -0.0029893002160392 0 0 0 0
10051975 0.9869945863963131 0.14584669984825216 0.008011931589263065 0.008667451111404443 0 0 0 0
10052470 1.0362866271834448 0.10710932731819782 -0.005477564158003485 -0.0024073149821923117 0 0 0 0
10052965 0.9806977705059831 0.09506074141860772 -0.010327315687936578 -0.013192604327443621 0 0 0 0
10053460 1.0379250106440763 0.07386815187308596 -0.0030426745319304025 0.002141564374113375 0 0 0 0
10053955 1.0042483031273866 0.1036882645603845 -0.0027391711343205867 -0.008353352611281029 0 0 0 0
10054450 1.00434899447888 0.09794072630252855 0.01582446273940233 -0.0021715264584522996 0 0 0 0
10054945 1.0133608552224984 0.10142699653083141 0.006011955541534943 0.01138729673052621 0 0 0 0
10055440 1.0127526912338312 0.10916796971803693 -0.010787231279825475 0.007121261922570697 0 0 0 0
10055935 1.0088426117525275 0.1020191813764483 -0.007780964381213829 0.0030662771393261306 0 0 0 0
10056430 0.986569722237874 0.12157465724362612 0.0068283692659749365 -0.008626872181058278 0 0 0 0
10056925 1.0062525332062557 0.09050389481744944 0.010861280173694325 -0.003970459692005232 0 0 0 0
10057420 0.9654708234067916 0.09338565233784442 0.005460541492427244 0.006525177055711472 0 0 0 0
10057915 1.0033747546318994 0.1302446097583177 0.0004906144684832131 0.009273804947101748 0 0 0 0
10058410 1.0106999775083079 0.10633829815949553 -0.0016111930662034302 0.000715436895017557 0 0 0 0
10058905 0.9836786342643387 0.11045508702275111 -0.004209126216972429 0.0016348810973166503 0 0 0 0
10059400 0.9791707740325079 0.0941245357977384 0.007061834079116081 0.0021104123429562627 0 0 0 0
10059895 1.0178391432022627 0.08780203599984578 0.004668200599752813 -0.006787506091210276 0 0 0 0
10060390 0.9991692110003645 0.10211764514997007 0.001876240820241154 0.002260098139628407 0 0 0 0
10060885 1.0014207415874465 0.10598094061412315 0.006299301993529788 0.0026078040982658248 0 0 0 0
10061380 1.0087603120814357 0.09185748962506826 0.001055787387164948 -0.011578755464909348 0 0 0 0
10061875 1.014971882757362 0.09301304000963384 0.0006559436171404768 -0.0006179968838654417 0 0 0 0
10062370 1.0272079038849338 0.1264092310594401 0.0029317188694213993 -0.0028939023014764947 0 0 0 0
10062865 1.023243438865338 0.0914075747950781 0.0042034296827878756 -0.004704907974744452 0 0 0 0
10063360 1.0242147407830724 0.12594536694265757 -0.000396411988178343 0.0005345705468744033 0 0 0 0
10063855 1.0147180923985522 0.09729727559879577 -0.006929661061276911 0.007563946744296159 0 0 0 0
10064350 1.00747005705476 0.12415021601930276 -0.009688416138625441 0.005249199545490666 0 0 0 0
10064845 0.9940166691889447 0.09321210171798819 0.0016726261769694506 -0.006910007880681604 0 0 0 0
10065340 0.9737083365181652 0.0851596308532854 0.0019599653272829396 0.0020644566888075714 0 0 0 0
10065835 1.016241441310728 0.09413646704038506 -0.007478840458308385 0.011155439511133625 0 0 0 0
10066330 0.9634365673407679 0.09643186702220176 0.003340090815230013 0.0037864976314589244 0 0 0 0
10066825 1.0146149767854111 0.12348010379173165 -0.0007322247433888857 -0.004801572594488646 0 0 0 0
10067320 1.0082270848371877 0.0913268337116681 -7.503174585654382e-05 -0.006094429378085322 0 0 0 0
10067815 0.9941958063754224 0.10363120569433454 0.005948990431382148 -0.0038167582877345653 0 0 0 0
10068310 0.9640731912824693 0.1286861690424075 0.002479206078455841 0.009420212133595755 0 0 0 0
10068805 0.9968184900929112 0.11098477845895452 0.0055387858803584815 -0.002370994605902756 0 0 0 0
10069300 0.9677055514938792 0.07174103421711792 0.0009633008594044269 0.0013217891135630397 0 0 0 0
10069795 0.9251381717599491 -0.0003239664098417941 0.0012616470934314493 -0.0029259139183196916 0 0 0 0
10070290 1.0898168863902544 0.1992501864093994 -0.00035813608262268897 -0.004748151505828913 0 0 0 0
10070785 1.05177144600597 0.16786763693716672 0.005076129874571239 0.01575419270721516 0 0 0 0
10071280 1.0455974474685348 0.09884607730725642 0.0017911805407141452 0.003667903050096972 0 0 0 0
10071775 1.0272804488686478 0.11972911940562954 -0.006004127297120085 -0.0006010325955969521 0 0 0 0
10072270 0.9974183656509067 0.11333992645990582 0.008595463668370721 -0.000594988541960534 0 0 0 0
10072765 1.037740814173052 0.12345540135380416 0.007963656891935999 -0.00796448602782667 0 0 0 0
10073260 0.9937086179242887 0.11345994423624284 0.0064285068893230705 -6.429239158963741e-05 0 0 0 0
10073755 0.9918947172145551 0.13176558853312803 -0.002139572440635564 0.014848691553656253 0 0 0 0
10074250 1.0223190810733322 0.07346302064548008 0.0024252829029996095 0.00595144604678811 0 0 0 0
10074745 1.009582444760744 0.12251143671560967 -0.0011134788315965644 0.002084092409172738 0 0 0 0
10075240 1.0361542237774781 0.13642766344899515 -0.0082742218814498 -0.013883636986920392 0 0 0 0
10075735 0.9929066059881484 0.10235479778982293 0.005006639467775343 0.00015839424522049077 0 0 0 0
10076230 1.0058080817893233 0.0773380231637978 0.002133894980508222 0.005215346015138436 0 0 0 0
10076725 1.0026496340586049 0.11309185293126368 0.0002618051049245563 0.008359529837714262 0 0 0 0
10077220 0.9778840970688732 0.10096940340246693 0.00769056189704437 0.0014081102767901739 0 0 0 0
10077715 1.0130991565241272 0.10570741461745423 0.0009548752819411401 -0.004530218264485944 0 0 0 0
10078210 1.039720200365055 0.14479124433692286 0.002448546784508523 -0.006075192691938083 0 0 0 0
10078705 1.0084470064802442 0.08948232230541678 0.006879788885529451 -0.011629093508649772 0 0 0 0
10079200 1.06376594125237 0.08584940911319477 0.0023040920382602 0.005754644102106212 0 0 0 0
10079695 1.1212656579681992 0.02501967329289592 -0.0048994787598464476 7.906352078561529e-05 0 0 0 0
10080190 0.8915158344108394 0.17345597430360718 -0.001989698909347917 -0.005783028343257699 0 0 0 0
10080685 1.0527061670049347 0.11746852565996993 0.008778547810790563 -0.007656973470309547 0 0 0 0
10081180 1.0028438372089046 0.09791039695979871 0.0026680579013977574 -0.006659130552220984 0 0 0 0
10081675 0.9580511993925661 0.07582013294408783 0.010480315619547046 -0.0005761368612659188 0 0 0 0
10082170 1.005047559399906 0.0683703638866241 0.006991161098576091 0.006903248318202712 0 0 0 0
10082665 1.007919545485691 0.07775668046467177 -0.011589193655607523 0.00039611715841409795 0 0 0 0
10083160 1.004178824122046 0.11318760764996072 -0.005002396267903036 -0.0037786736566911743 0 0 0 0
10083655 0.9828373873913481 0.10950346618278167 0.004071775188148314 -0.0022747538237846486 0 0 0 0
10084150 1.0096187846486397 0.1027456711214334 0.00597742800462222 -0.007162898706106287 0 0 0 0
10084645 1.0298903839095848 0.08758779159585385 0.005846214814666522 0.0030804551830186386 0 0 0 0
10085140 1.0224965020681116 0.09416003765669102 -0.00792793664428994 0.010059445995845712 0 0 0 0
10085635 0.9919759266808889 0.06954940060196854 -0.002701085107520587 0.001549532538915627 0 0 0 0
10086130 0.9948294085310514 0.11985723846221247 0.006236753078265639 -0.008907828414884356 0 0 0 0
10086625 1.0136361273172028 0.09374621490047555 0.00488911677793052 -0.004683437263899733 0 0 0 0
10087120 1.0042900553821725 0.1195261018957172 0.004060163666052275 -0.0027261642912253825 0 0 0 0
10087615 1.0153803322596677 0.10606986489493207 -0.0050621086701731636 0.005406948578515358 0 0 0 0
10088110 0.9787430178086971 0.0855577418331578 -0.004251302857691445 -0.0011583911481953064 0 0 0 0
10088605 0.9915541600475046 0.0934043446916605 -0.010061329622406644 0.0003778058042004644 0 0 0 0
10089100 0.9813450860682542 0.07472304653453925 0.0003359644199836258 -0.0036663797471760758 0 0 0 0
10089595 1.0118171238354927 0.11291072927486417 0.014094203236433398 -0.007102565137940856 0 0 0 0
10090090 1.0197433542192786 0.11500331644410522 0.0029537730540602908 0.0018126973926612595 0 0 0 0
10090585 1.0270789619537146 0.060928414285204145 -0.01124902411435013 0.009140987468251706 0 0 0 0
10091080 0.9995494207704214 0.0862014281289419 -0.008471400486320436 0.007628578611220768 0 0 0 0
10091575 1.0074737920074146 0.10189166493168464 0.004578551720885797 -0.004703637069099899 0 0 0 0
10092070 0.9919082066499753 0.08836812524760271 -0.002406182628860712 0.0028374029968805292 0 0 0 0
10092565 1.037652896335195 0.0772585448136657 0.004322194552525419 0.010015042618855009 0 0 0 0
10093060 0.9703916879444419 0.04072184526551612 0.009172260145226294 -0.00017468618542838187 0 0 0 0
10093555 1.0272145482726942 0.11771745657448542 -0.003991822874070105 0.003425558635179205 0 0 0 0
10094050 1.0195581913312501 0.1044451271199176 -0.007350479971932539 0.00223397897971559 0 0 0 0
10094545 0.9979331024392076 0.12621829994331665 -0.0021482679682399684 -0.0016989465620551325 0 0 0 0
10095040 1.03292588290342 0.1047560426791979 -0.0013740477982772882 0.0011082483530406085 0 0 0 0
10095535 0.9740906200638575 0.0895957346621718 0.0022676536233190644 0.005907340194440854 0 0 0 0
10096030 0.9680510991437014 0.05441953669279959 -0.01083253393183059 -0.004241248580589368 0 0 0 0
10096525 1.0323774080643155 0.06411329796794268 -0.0002350722864423252 -7.252233724642188e-05 0 0 0 0
10097020 1.0044014414913172 0.10099665052290606 0.0015140022215049326 -0.002456642264562237 0 0 0 0
10097515 0.9955793378275245 0.1640088975505507 0.0011476663967084294 0.00047709075314995077 0 0 0 0
10098010 0.968239025411073 0.09834764989209355 0.013554936842232412 -0.0028775131400455 0 0 0 0
