# HZ S RI R 50
10000000 1.066145776233287 -0.07076932626607235
10000495 1.0920146144565654 0.21269345001892534
10000990 1.033088014446713 0.13191070261537022
10001485 1.0206897742824672 0.08767417379171061
10001980 1.0543705867918958 0.1343311245244679
10002475 1.007974861333328 0.05169750258762535
10002970 1.0342108439847406 0.10639057826948564
10003465 1.0336251784897827 0.0807706657238182
10003960 0.9832590028937567 0.1359421259379317
10004455 1.0376818635866152 0.09454841704991881
10004950 0.9914433382772868 0.13572846412512324
10005445 0.9966393676422157 0.11034620847917818
10005940 0.9859504232619438 0.11111474813822199
10006435 1.0282735417127682 0.07611462825163817
10006930 0.9997656261802409 0.11881331729555977
10007425 0.9696454884307728 0.08428739756843645
10007920 0.9747932185819992 0.08407879884970412
10008415 1.0184805786862645 0.08334524561065787
10008910 1.0442496681225248 0.1044157848654066
10009405 1.0004659614334024 0.09918320442079007
10009900 0.9981367500577168 0.0940387274345639
10010395 0.9951745265502997 0.10850597067537987
10010890 1.005360729811903 0.12783645103898497
10011385 1.007690271435708 0.10613908916405375
10011880 1.002961711885227 0.11417369675632966
10012375 1.0089684895997022 0.13235427351335896
10012870 1.0027144015272909 0.10729303126070147
10013365 0.9870874167316032 0.10743387846357756
10013860 1.0162461198218216 0.11332560855817776
10014355 1.0192763844977082 0.1145757295276777
10014850 1.0088828388529512 0.09877025852457422
10015345 1.003880469710356 0.10951957491846069
10015840 1.0118493313712498 0.11118016289182281
10016335 1.0155195725113768 0.09143522124357857
10016830 1.0211344361062118 0.08445860545293483
10017325 0.9990509226400707 0.10014978010269616
10017820 0.9955722156183627 0.10561056664092133
10018315 1.0061128344128512 0.08907510221501419
10018810 1.0146286037773795 0.12985994631662173
10019305 0.989888317510709 0.08378311741944702
10019800 1.0246349759428055 0.10516654602982625
10020295 1.0125874134995867 0.07924738277372217
10020790 1.001230144653905 0.11594465016439667
10021285 0.999342758915638 0.0852340143662457
10021780 0.9993230661256457 0.1111583306320986
10022275 1.0067702784136012 0.09894438750313674
10022770 1.029061419560218 0.09534446324881148
10023265 0.9892121649909004 0.08329451285772747
10023760 1.0316891149074834 0.11219373959920179
10024255 0.9785972773103357 0.11573057787423509
10024750 1.0028730493070024 0.12338463553638325
10025245 1.000016391162205 0.10724153785991737
10025740 0.997544677507433 0.10251277091493152
10026235 0.9860828008077411 0.1168978718741764
10026730 1.0081635883085849 0.12525212506825079
10027225 1.0063446708595432 0.08174935600933594
10027720 1.0194776720059242 0.09608019134380617
10028215 1.0100103057052912 0.12161206288208085
10028710 1.0103800632783757 0.06604133597513458
10029205 1.003977306868086 0.1523110505890129
10029700 0.9843758969922571 -0.009443849426564644
10030195 0.9178534615344462 0.01468520019669541
10030690 1.0490834487462126 0.0751169288287448
10031185 1.0259520502957762 0.10449801065269018
10031680 0.9746474485575635 0.07894758089218823
10032175 1.0201686403722823 0.127832342744989
10032670 1.0192973115137984 0.1166699226775893
10033165 0.9804879131323008 0.09609460679635314
10033660 1.0272671231602204 0.11539585243947234
10034155 0.9920879412286217 0.11872013099551261
10034650 0.994741443983391 0.12996400860177573
10035145 1.0044747785690553 0.09927326906273766
10035640 1.0174663203407222 0.09982379175315012
10036135 1.0031694042915698 0.09016563884084887
10036630 1.0635577534218226 0.07419694694698367
10037125 1.0173938147868986 0.11977004771023557
10037620 0.9854652322015551 0.08379404906031403
10038115 1.0310159424708472 0.130881661709632
10038610 1.0071834624246514 0.13026176730651967
10039105 1.0107972438218686 0.10911310403881025
10039600 0.882708619233744 0.03543975837079118
10040095 1.0439715792310105 -0.05511263644404186
10040590 0.8975118031348512 0.07983483880551524
10041085 1.0334888568844032 0.0690673563640829
10041580 1.0570617975213306 0.10464418321654216
10042075 1.0043769047152773 0.1213032795429887
10042570 0.9892835477663816 0.07839876566276847
10043065 1.0007172036638 0.14173086108946492
10043560 1.00637390299223 0.09480698760963387
10044055 1.0190672175255147 0.09860392036870759
10044550 0.9880051518398418 0.1346203844546891
10045045 0.9972566268532204 0.07550856517750068
10045540 1.0001833132432847 0.09298589475672935
10046035 0.9809523668073525 0.09718498469606911
10046530 0.9916196722548167 0.10505207276270126
10047025 1.0087333216146357 0.084765482027637
10047520 0.9931648175717301 0.09322847815239246
10048015 1.0006385675149554 0.10731166764038108
10048510 1.0030185166335135 0.1359811493953703
10049005 1.0108981455897075 0.10961283922784286
10049500 1.009730998732038 0.11940971190094377
10049995 0.9881321334871138 0.09840669537375636
10050490 1.0046874910660326 0.10251497624129141
10050985 1.055134339674063 0.1188238051421048
10051480 0.9530396241913319 0.0999346531562627
10051975 0.9869945863963131 0.14584669984825216
10052470 1.0362866271834448 0.10710932731819782
10052965 0.9806977705059831 0.09506074141860772
10053460 1.0379250106440763 0.07386815187308596
10053955 1.0042483031273866 0.1036882645603845
10054450 1.00434899447888 0.09794072630252855
10054945 1.0133608552224984 0.10142699653083141
10055440 1.0127526912338312 0.10916796971803693
10055935 1.0088426117525275 0.1020191813764483
10056430 0.986569722237874 0.12157465724362612
10056925 1.0062525332062557 0.09050389481744944
10057420 0.9654708234067916 0.09338565233784442
10057915 1.0033747546318994 0.1302446097583177
10058410 1.0106999775083079 0.10633829815949553
10058905 0.9836786342643387 0.11045508702275111
10059400 0.9791707740325079 0.0941245357977384
10059895 1.0178391432022627 0.08780203599984578
10060390 0.9991692110003645 0.10211764514997007
10060885 1.0014207415874465 0.10598094061412315
10061380 1.0087603120814357 0.09185748962506826
10061875 1.014971882757362 0.09301304000963384
10062370 1.0272079038849338 0.1264092310594401
10062865 1.023243438865338 0.0914075747950781
10063360 1.0242147407830724 0.12594536694265757
10063855 1.0147180923985522 0.09729727559879577
10064350 1.00747005705476 0.12415021601930276
10064845 0.9940166691889447 0.09321210171798819
10065340 0.9737083365181652 0.0851596308532854
10065835 1.016241441310728 0.09413646704038506
10066330 0.9634365673407679 0.09643186702220176
10066825 1.0146149767854111 0.12348010379173165
10067320 1.0082270848371877 0.0913268337116681
10067815 0.9941958063754224 0.10363120569433454
10068310 0.9640731912824693 0.1286861690424075
10068805 0.9968184900929112 0.11098477845895452
10069300 0.9677055514938792 0.07174103421711792
10069795 0.9251381717599491 -0.0003239664098417941
10070290 1.0898168863902544 0.1992501864093994
10070785 1.05177144600597 0.16786763693716672
10071280 1.0455974474685348 0.09884607730725642
10071775 1.0272804488686478 0.11972911940562954
10072270 0.9974183656509067 0.11333992645990582
10072765 1.037740814173052 0.12345540135380416
10073260 0.9937086179242887 0.11345994423624284
10073755 0.9918947172145551 0.13176558853312803
10074250 1.0223190810733322 0.07346302064548008
10074745 1.009582444760744 0.12251143671560967
10075240 1.0361542237774781 0.13642766344899515
10075735 0.9929066059881484 0.10235479778982293
10076230 1.0058080817893233 0.0773380231637978
10076725 1.0026496340586049 0.11309185293126368
10077220 0.9778840970688732 0.10096940340246693
10077715 1.0130991565241272 0.10570741461745423
10078210 1.039720200365055 0.14479124433692286
10078705 1.0084470064802442 0.08948232230541678
10079200 1.06376594125237 0.08584940911319477
10079695 1.1212656579681992 0.02501967329289592
10080190 0.8915158344108394 0.17345597430360718
10080685 1.0527061670049347 0.11746852565996993
10081180 1.0028438372089046 0.09791039695979871
10081675 0.9580511993925661 0.07582013294408783
10082170 1.005047559399906 0.0683703638866241
10082665 1.007919545485691 0.07775668046467177
10083160 1.004178824122046 0.11318760764996072
10083655 0.9828373873913481 0.10950346618278167
10084150 1.0096187846486397 0.1027456711214334
10084645 1.0298903839095848 0.08758779159585385
10085140 1.0224965020681116 0.09416003765669102
10085635 0.9919759266808889 0.06954940060196854
10086130 0.9948294085310514 0.11985723846221247
10086625 1.0136361273172028 0.09374621490047555
10087120 1.0042900553821725 0.1195261018957172
10087615 1.0153803322596677 0.10606986489493207
10088110 0.9787430178086971 0.0855577418331578
10088605 0.9915541600475046 0.0934043446916605
10089100 0.9813450860682542 0.07472304653453925
10089595 1.0118171238354927 0.11291072927486417
10090090 1.0197433542192786 0.11500331644410522
10090585 1.0270789619537146 0.060928414285204145
10091080 0.9995494207704214 0.0862014281289419
10091575 1.0074737920074146 0.10189166493168464
10092070 0.9919082066499753 0.08836812524760271
10092565 1.037652896335195 0.0772585448136657
10093060 0.9703916879444419 0.04072184526551612
10093555 1.0272145482726942 0.11771745657448542
10094050 1.0195581913312501 0.1044451271199176
10094545 0.9979331024392076 0.12621829994331665
10095040 1.03292588290342 0.1047560426791979
10095535 0.9740906200638575 0.0895957346621718
10096030 0.9680510991437014 0.05441953669279959
10096525 1.0323774080643155 0.06411329796794268
10097020 1.0044014414913172 0.10099665052290606
10097515 0.9955793378275245 0.1640088975505507
10098010 0.968239025411073 0.09834764989209355
10098505 0.9920777437600554 0.04201691839897892
10099000 1.0026447778481227 0.10804170110347847
10099495 1.0170622746606444 0.11438929049798066
10099990 0.9872051672678106 0.10483694773193196
10100485 1.0232427127198502 0.10600017901494507
10100980 0.969782527802627 0.1274436172413229
10101475 1.0077384749231117 0.05933008272634311
10101970 1.0329997737861694 0.10414399023587212
10102465 1.00249709300755 0.09688104117288183
10102960 0.9961029434624387 0.0943163319085759
10103455 0.997477908196521 0.08489491571174747
10103950 1.0139409152451422 0.08574566554851289
10104445 0.9797345883849137 0.09093650520915976
10104940 0.997331771766847 0.11250590430355581
10105435 1.011543301073926 0.06976764330316348
10105930 0.9685701676040762 0.1043756307258599
10106425 1.0089275178401538 0.11043699031964548
10106920 1.0238251042401232 0.10579507239380866
10107415 0.9686631009665218 0.09902602660083804
10107910 0.9897905574294583 0.10660579718620763
10108405 0.9880468412061552 0.11102407383756754
10108900 1.0267607810753079 0.08777341534608471
10109395 1.0442011388381447 0.08426114618328445
10109890 1.0068627936679213 0.19516437004233453
10110385 0.9424572053360637 0.08865918544354047
10110880 0.9442494863837502 0.08638494260662455
10111375 0.9916898312735517 0.116163055961311
10111870 1.009788079981616 0.08068541330542402
10112365 0.9768738173023973 0.10522672067966492
10112860 1.0223306861460038 0.07432273595332568
10113355 1.005639079275046 0.09449644715789068
10113850 0.9923474685504751 0.09829362644982577
10114345 0.9943364577269432 0.09683778601044145
10114840 0.9968418516249713 0.1012185552361509
10115335 0.9775760617961435 0.10612045519983583
10115830 1.0040027655053438 0.12452352554293923
10116325 1.0133283095677477 0.0982423158608788
10116820 0.9894079755678696 0.12028972218966616
10117315 0.9941376442565429 0.11770052493812164
10117810 1.0295607764549626 0.08769300308553787
10118305 0.9915752157933624 0.10254328463258551
10118800 1.0136628023243708 0.10564715827380604
10119295 1.0022599176343017 0.05164094117642725
10119790 1.0433264340386958 0.16449230133752307
10120285 1.0725637582498428 0.18211957394691083
10120780 0.9667282232421224 0.10203476284026994
10121275 0.9584188317236879 0.05040906028622058
10121770 1.0152885999547705 0.07374869525012592
10122265 0.97572787440226 0.1006288074730723
10122760 0.9848011565058282 0.10443210408602138
10123255 1.0125795758510594 0.06804586438540404
10123750 1.0185836730256288 0.11255351607928146
10124245 1.0188600588642562 0.08411328273054022
10124740 1.0018074927802423 0.08044820696931661
10125235 0.994198366006213 0.1092573400005283
10125730 1.0045524275802449 0.07879070493347393
10126225 0.992574140084897 0.08651618574791542
10126720 1.0116779077403488 0.10870629293903761
10127215 1.026698292036923 0.10887649121127904
10127710 1.025009616000977 0.07845691423631125
10128205 0.9793407336432322 0.13519692588382365
10128700 1.033884242938325 0.10139947515573484
10129195 1.0466718685506613 0.11889391309895214
10129690 1.0144525067726136 0.10639657426781082
10130185 1.0118962215826364 0.08273297992449608
10130680 1.0062682825870684 0.10116150298301721
10131175 1.0201019619638567 0.11572010965864024
10131670 0.9994558445464078 0.09498647428273425
10132165 1.0127698670845924 0.08180580625492882
10132660 0.9892769780307725 0.0752010056980592
10133155 0.9785978626074175 0.12672117554081852
10133650 1.0102890970841252 0.08245347699756521
10134145 1.0132148660670963 0.10143586909365401
10134640 1.0057664717796744 0.11256497958720756
10135135 0.9922647547536035 0.09671864459180093
10135630 1.0266220944976117 0.05994990325226476
10136125 0.995463093073679 0.08817427046770733
10136620 1.0004172375544103 0.1165633183959402
10137115 1.0209851247171196 0.08720548256900051
10137610 0.9937291684565794 0.12248287847533486
10138105 1.0067792598586565 0.11602312823690883
10138600 0.9958904480597872 0.10019712734110972
10139095 1.0180157568507506 0.10278205958084147
10139590 1.0302859175031138 0.0755582467513439
10140085 1.0027790616689707 0.1152152730943551
10140580 0.9901605251485543 0.10105282178783097
10141075 0.9812259309877769 0.09992109174026008
10141570 1.006592097375745 0.10100996247734687
10142065 1.0135438824494654 0.08217489371865552
10142560 0.9949059257794908 0.07680898009413396
10143055 0.9987134457377287 0.11430664596327429
10143550 0.976648508988344 0.10263768993954188
10144045 0.9894942725230987 0.12301900756675863
10144540 1.000562593545165 0.09475939022343552
10145035 1.002460573840897 0.09177236699755795
10145530 1.0068191338192185 0.09191970435599793
10146025 1.0003216198387113 0.09834214338210914
10146520 0.9938573482334481 0.0916848460419719
10147015 0.9934986996117051 0.07060989115492115
10147510 0.9966174841551589 0.09721973061649364
10148005 1.0129426008774138 0.11520738627001999
10148500 0.9982707071281276 0.1308840157583488
10148995 1.0330355341428994 0.1263910800783815
10149490 0.950254549529318 0.14779868437855634
10149985 0.92852104581618 0.011779490260148235
10150480 1.0097454796283165 0.15430394748436388
10150975 0.9970405764262458 0.09142185590861408
10151470 1.018786073545389 0.07134838658276209
10151965 0.9827837042305549 0.11251272899158758
10152460 0.9902038443479477 0.10854096168381797
10152955 1.0042288937837718 0.09472558994192197
10153450 1.011335430421991 0.07723939798575186
10153945 1.0402721356270699 0.10364524957321151
10154440 1.0139987482882402 0.06938103193613628
10154935 0.994081342231293 0.0804176393164942
10155430 0.9966190365955118 0.06935518984896934
10155925 0.9837645265565325 0.07264771081948741
10156420 0.9999978323246971 0.1120654446833218
10156915 1.006289512953917 0.08527045969691503
10157410 0.997745928453666 0.09782220545113969
10157905 0.991027458922252 0.07701938583590272
10158400 0.9892177513710327 0.08523436640579077
10158895 1.0032140775706828 0.09095911642213945
10159390 1.001592241465752 0.08607765941931023
10159885 0.9372809260585325 0.11807235868680346
10160380 0.9541467598823461 0.049015666953341336
10160875 0.9877832078710007 0.06352271492028158
10161370 0.9960190014759039 0.09786267931430943
10161865 1.0164564396007274 0.10293418363335265
10162360 1.0152181673344398 0.06627773952774434
10162855 0.9953776916397544 0.07503137941759923
10163350 0.9907653851693583 0.08751524448337047
10163845 0.9987526573339834 0.05355300717980797
10164340 1.0104299012024474 0.10830014579576622
10164835 1.000917494193618 0.08636514912115309
10165330 0.9974861988441455 0.11712374403576715
10165825 0.9864413428041168 0.08140809346885153
10166320 0.991945652880414 0.11812178567669997
10166815 1.021893924405193 0.09669747635354317
10167310 0.9903643560663905 0.08980583954181999
10167805 1.0258907708527447 0.07942538112873979
10168300 1.030570595275839 0.10077872786005405
10168795 0.9793573950722902 0.10253158172127123
10169290 1.0020456195459286 0.0777552364224238
10169785 1.0069435962126017 0.09507845394305359
10170280 1.0065524623578692 0.06882772119561688
10170775 0.9806402367693718 0.08804940682152307
10171270 1.0380180465938686 0.0959462225134253
10171765 0.9994438759668727 0.10613246851849377
10172260 0.9724521809957659 0.10718630109089176
10172755 1.0043569499797513 0.08311647022216109
10173250 1.0255908900688675 0.06848865096685627
10173745 1.0059757422492437 0.0816078400823134
10174240 1.0126653806948855 0.08863529172789164
10174735 0.9887843206181399 0.04932917374381236
10175230 1.0116550543943292 0.0887610492421278
10175725 0.9861907445227238 0.12502807604813582
10176220 0.9874436025235347 0.10289991958566158
10176715 1.0100767476371186 0.07569380592608299
10177210 1.0164302818212942 0.09326848299797698
10177705 0.997251608843746 0.08030199129892696
10178200 1.0234223263594218 0.11729983775195002
10178695 0.9821704794681569 0.10787313461936976
10179190 1.0021873993794048 0.10101681145042896
10179685 1.0037994748588492 0.06495442734995369
10180180 1.001165154183978 0.09437068803623942
10180675 1.0114709449248613 0.0933476973130135
10181170 0.986273901038872 0.08901331905479777
10181665 0.995229403720556 0.07202913900860398
10182160 0.9933959830654733 0.052588846431111586
10182655 1.0003832613439168 0.10102614126323096
10183150 0.99447834429638 0.08618317034511552
10183645 1.0122837933806133 0.09760803600485682
10184140 0.9796413656291817 0.08173575259181486
10184635 1.0042493770910532 0.08086635993530732
10185130 0.9973245289548635 0.09438462037969308
10185625 1.01251846932223 0.09990305550997945
10186120 1.0153324037056228 0.11651804654993789
10186615 0.9864451857846671 0.08665117772426298
10187110 0.9893634226806024 0.06890680814705484
10187605 1.011626189048008 0.08168291846093631
10188100 1.0107281162302744 0.07494137665261025
10188595 0.9972049831085598 0.09435727049421269
10189090 0.9855805931791374 0.11031037870612231
10189585 1.025319883210454 0.07543718255924142
10190080 1.072200338551253 0.06899144231138171
10190575 0.9710816558853029 0.07433222634545132
10191070 1.022879314727887 0.0952648830407527
10191565 1.0076622732276244 0.0973362647433993
10192060 0.996063868996881 0.08061664302924655
10192555 0.9890422085808346 0.09795506812130957
10193050 1.01470297151554 0.10578146134364419
10193545 0.9955234936817781 0.07525241225252405
10194040 0.9919270686312596 0.08443840791983719
10194535 0.9804594416908372 0.08376981502839309
10195030 1.0274216596270276 0.07392306245539021
10195525 0.987704667079483 0.09428382429330315
10196020 1.0224163068614045 0.09619363305619132
10196515 1.0042682322391683 0.08133547575576436
10197010 1.0193196997821972 0.10066738709768693
10197505 1.002442703624261 0.1104347651304798
10198000 0.9984682206951385 0.08938447258338723
10198495 1.0054997135385675 0.07881832375300575
10198990 0.9942391999330886 0.10792785695279054
10199485 0.992309352487632 0.06006803814986256
10199980 0.9417182379894562 0.13978547092500065
10200475 1.021432104172571 0.0484074705058534
10200970 1.0263122990546192 0.09082318700848195
10201465 1.007592451587981 0.07265366335315272
10201960 0.9751271750364667 0.11002663765939835
10202455 0.9798756725297381 0.11474163542403182
10202950 1.0244560653747945 0.07188577623426036
