# HZ S RI R 50
1000000 0.06155644789142862 1.200154596299843 0.007191204952392908 -0.008630260413021767 0 0 0 0
1000446 -0.09409284017079973 1.0727115117436476 -0.00492091448542092 0.011136746666041909 0 0 0 0
1000892 0.04493098164887513 0.9901712636607204 -0.005301588335861059 0.002432383961794459 0 0 0 0
1001338 0.022606575904796818 1.0159234029190722 -0.00048553452000767985 -0.011431734698603932 0 0 0 0
1001784 0.009419932895155093 1.0420063635910193 0.005039429001958617 -0.002595330977676222 0 0 0 0
1002230 0.05009079565601044 1.0367714145816043 0.002054770791404827 0.0006402448033749127 0 0 0 0
1002676 0.008878638631193132 1.0169154441425476 0.0016199809186323297 0.006824569030209974 0 0 0 0
1003122 0.02198166869138795 1.047692979489096 0.0013406788691731261 0.005550447686585822 0 0 0 0
1003568 -0.0235274968333424 1.0100385843485535 -0.001758422752225979 -0.00010827633621271982 0 0 0 0
1004014 0.05054685282064583 1.0281286670259475 -0.0036875514560120062 0.0014492809152313487 0 0 0 0
1004460 0.020559589890506953 1.0237798659523623 -0.005031049592379901 -0.006749537688831437 0 0 0 0
1004906 0.04953721785106946 1.019974323100927 -0.00329832983224177 -0.007180412514884368 0 0 0 0
1005352 0.04490532164148653 1.0522499087909474 0.0012316814752749998 0.0008983913246121535 0 0 0 0
1005798 0.04889904140090752 1.009121893465353 0.0029651826390114044 -0.0019547461179281697 0 0 0 0
1006244 0.017824040730966505 1.0099515890807655 -0.009518618538831899 -0.0005748960170811373 0 0 0 0
1006690 0.06829407891659248 1.0320700127198401 -0.010940369642300739 -0.00022546874329824076 0 0 0 0
1007136 0.027835798019090936 1.008405717370162 0.0033402128511851115 -0.010140585316957702 0 0 0 0
1007582 0.038185040790033986 0.9894579124415289 0.004696383747387914 -0.00651158930700922 0 0 0 0
1008028 0.030597654087745445 1.0298201928397532 0.00949063450498303 0.001128226020716155 0 0 0 0
1008474 0.03895296058215855 1.0077058127127396 0.003084062951164837 0.010039087962776354 0 0 0 0
1008920 0.06260612179809455 1.0315235385453807 -0.0037956856533785622 -0.004421703569306151 0 0 0 0
1009366 0.05521991288067633 0.9718666102947882 0.004906160086119615 -0.0028944782737082924 0 0 0 0
1009812 0.002482939621063124 1.0991678826466904 0.0026219408851390503 -0.01178234720339414 0 0 0 0
1010258 -0.07275856300806655 0.9034675034756279 0.012461172188001517 -0.0016360917713360344 0 0 0 0
1010704 0.12442794836504031 0.9644259765923917 0.010615122856382055 -0.004324679101113775 0 0 0 0
1011150 -0.00956334260516066 1.0270702040635553 0.0030365444460433368 0.008304126597599527 0 0 0 0
1011596 0.022090635201886213 1.020220312963023 0.0028918509550608807 0.0009952531442764887 0 0 0 0
1012042 0.03759842732399744 1.0111390631554382 -0.006713475762295629 0.0024928473609331083 0 0 0 0
1012488 0.024974482521157117 1.0242034152668806 -0.009361772980429657 -0.0030297847516294633 0 0 0 0
1012934 0.061478467201274714 1.0228611933275602 -0.003906475111666685 0.0010637226336231164 0 0 0 0
1013380 0.036583818483437947 1.0545293209479416 0.0012558463844198394 -0.0014609930549439314 0 0 0 0
1013826 0.05550930989529753 1.0243815725123233 -0.00013750955581256716 0.003271386991895094 0 0 0 0
1014272 0.06744837554820433 1.046722764769061 0.0026747514849986727 -0.0026780812486199386 0 0 0 0
1014718 0.027209412413172224 1.0367360166918882 -0.004469524041551231 -0.006535129669765665 0 0 0 0
1015164 0.05247120797841214 1.040799026759397 0.00526087307405666 -0.0018482507196130845 0 0 0 0
1015610 0.05203557852842659 0.9987119210572545 0.0041349391614778404 0.005915216676615363 0 0 0 0
1016056 0.06588529883851349 1.0505457104811216 0.012620824060943007 -0.0029636754592772922 0 0 0 0
1016502 0.057161796060562084 1.0345778257168852 -0.0038011979059768652 0.0002346523660896449 0 0 0 0
1016948 0.06358345207085868 1.0482307901513395 -0.004958052911309861 0.013536984732103989 0 0 0 0
1017394 0.04139244641191236 1.046013233226226 -0.0033678076072953434 0.002744611818218262 0 0 0 0
1017840 0.018332627907331624 1.0283043383376027 0.0041836575185468464 -0.00306789888522159 0 0 0 0
1018286 0.08336523655276952 1.0367528930661263 0.0003987946642143682 -0.007087922285055124 0 0 0 0
1018732 0.06967317243647406 1.045325176650554 -0.005532550874040654 -0.008925730064990816 0 0 0 0
1019178 0.037334872785607286 1.0345322161424275 0.008767469078829759 0.0032234330393245197 0 0 0 0
1019624 0.0534428647729678 0.9938449887367622 0.006143856640025735 0.0068482967014110545 0 0 0 0
1020070 0.02847813585989632 1.0927099854971567 -0.0014709166565966103 0.0023754367990893757 0 0 0 0
1020516 0.07382193709566673 1.0312708680226128 -0.009263527571785042 -0.002971983004093198 0 0 0 0
1020962 0.05766108596624988 1.024880138470944 -0.0005955877152115904 -0.0028051482668179826 0 0 0 0
1021408 0.036402637425848296 1.0430247104211336 0.010514655130569608 0.0015153329992611225 0 0 0 0
1021854 0.04949213941199819 1.02750753173617 -0.0009688884513361195 0.00507150756112717 0 0 0 0
1022300 0.07058991644794212 1.0455125685521733 0.0033260379552998666 0.0030152732116240115 0 0 0 0
1022746 0.045513765990103414 1.0158187507617435 -0.001668778403015428 -0.00010636577978584266 0 0 0 0
1023192 0.029156102796300033 1.0199429232496073 0.0011555662997056234 -0.014629672577477512 0 0 0 0
1023638 0.05792197425288263 1.0245711720966653 -0.0009906127894311184 -0.005210096476286108 0 0 0 0
1024084 0.02816088730585014 1.0249830271558076 0.007834338332536007 0.004201557598098833 0 0 0 0
1024530 0.07826744853163835 1.0405343080074188 0.0002817998426280671 -0.0029575635822370718 0 0 0 0
1024976 0.05675495117879906 1.029203083853647 -0.0009104281792574641 0.0017660174755304394 0 0 0 0
1025422 0.05457942796728746 1.013405118488447 0.001216839412359962 0.0019322568885626345 0 0 0 0
1025868 0.06126451189851956 1.0214953690393793 -0.00037410699366080183 0.0004288796361888936 0 0 0 0
1026314 0.055540383916751694 1.022524254014492 0.0006420981250500436 -0.003619558716271291 0 0 0 0
1026760 0.06748787525339194 1.0279082177104188 0.0048140773568148285 -0.0069727464800914945 0 0 0 0
1027206 0.0642920980665137 1.0271143177703668 0.004283275661501434 0.003382401143915987 0 0 0 0
1027652 0.0555271015255151 1.0174662720895626 -0.0028813743281100542 0.011966027643820997 0 0 0 0
1028098 0.07500660948468033 1.0319566069836386 0.0009001709390035352 0.006256690560183252 0 0 0 0
1028544 0.07369036277181248 1.0354386924421386 -0.006494816796048317 0.0019633134342203567 0 0 0 0
1028990 0.07659185453144018 1.0311112897995458 0.0068923029588663235 -0.0058047825299535494 0 0 0 0
1029436 0.0794638220753169 0.9995586526798222 0.005032336660712929 -0.008004724811572432 0 0 0 0
1029882 0.12842315344003072 0.9997732542796833 0.002137009117953093 0.005138840932955531 0 0 0 0
1030328 0.04952166427917545 1.0001724969057495 -0.002224846083840168 0.0014267507292906908 0 0 0 0
1030774 0.0654294714383617 1.0501182056820049 -0.003812522190564762 0.0008002161090433079 0 0 0 0
1031220 0.058197403863089 1.0181722188130364 -0.010223487936729269 -0.009673982343342206 0 0 0 0
1031666 0.05516026616993307 1.021087438800001 -0.0015900139034936765 -0.004986402458261526 0 0 0 0
1032112 0.05154751551827451 1.021020148224196 0.006228692645332279 -0.0033756715503330983 0 0 0 0
1032558 0.06715488683815263 1.015876593634388 -0.008683070493379396 0.008244942046762186 0 0 0 0
1033004 0.07117806996346027 1.020348631899371 0.0016870161597507798 0.0001723211354165606 0 0 0 0
1033450 0.05974647836095775 1.0428858459077002 4.5853240275905905e-05 0.010523224246659012 0 0 0 0
1033896 0.0807412133076064 1.0286393142063068 -0.0058799256740987614 -0.005298363874849482 0 0 0 0
1034342 0.0771853265846218 1.0376274357963262 0.005945425693093494 -0.004665469632434668 0 0 0 0
1034788 0.07313189367961602 1.0352547451133969 -0.006917259821127144 -0.009631621940301224 0 0 0 0
1035234 0.07315280576627974 1.0338176203941218 -0.0021827466616770102 0.0043426633569291755 0 0 0 0
1035680 0.06687082222934362 1.0168882686871896 0.008059480649572206 0.013056321584405206 0 0 0 0
1036126 0.07357441085414208 1.0285951362719659 0.0032062163759670964 0.0060865695706263274 0 0 0 0
1036572 0.08086321572189867 1.0479618840047917 0.002847630409813426 0.019871088395775442 0 0 0 0
1037018 0.066798689632046 1.032365624570356 0.0004792613028421535 -0.010911576739509574 0 0 0 0
1037464 0.07862629214245802 1.0270183022405113 0.004835945834940871 -0.0009991305395749474 0 0 0 0
1037910 0.08928703495854312 1.0093233070270118 0.002701359915746691 0.001381779339439393 0 0 0 0
1038356 0.09042083381468277 1.0193835228105526 -0.004079256772234729 0.001602609119511878 0 0 0 0
1038802 0.0758226059471012 1.035592353500015 -0.006258958513953194 0.0022773296334930126 0 0 0 0
1039248 0.05343930433336803 1.0434964833853773 -0.0013930692340024169 -0.00886438040039112 0 0 0 0
1039694 0.040607715993036475 1.0866099283710338 -0.0003335011479863654 0.001260309769801908 0 0 0 0
1040140 0.032842125354281736 1.06338496140425 0.0025296102600901394 -0.006164958071756691 0 0 0 0
1040586 0.044084856432341654 1.019153737131254 0.0019213465844124455 -0.004368325181884211 0 0 0 0
1041032 0.07681820168545006 1.0329835103439367 -0.0030951010186367305 -0.003316298944822975 0 0 0 0
1041478 0.10700492856537322 1.0406117478404253 0.0029981745539427694 0.010140946669577731 0 0 0 0
1041924 0.09161007642391113 1.035370673404538 -0.012128067973479793 0.007238634238774226 0 0 0 0
1042370 0.08241911896266706 1.027977026871302 -0.0035170370919704735 -0.006697378514926126 0 0 0 0
1042816 0.07926591322617284 1.021020018535083 0.004754191281432978 -0.002740399405510004 0 0 0 0
1043262 0.04475859468233044 1.0299789763896796 0.0030809902626155166 -0.001962880834232989 0 0 0 0
1043708 0.10489713865019844 1.030174615109574 0.006041962770642854 -0.0020107744909748575 0 0 0 0
1044154 0.0881691017303792 1.0459504878350148 -0.004381095972135238 0.0016102950791452417 0 0 0 0
1044600 0.0789219639675681 1.026615515135845 -0.00259605210443496 -0.001994449421466241 0 0 0 0
1045046 0.07750601665428507 1.0473014424361227 -0.00037901919345667833 -0.007693909484046125 0 0 0 0
1045492 0.07607819770097111 1.0235454911830477 0.004119599130601839 -0.001770328176676413 0 0 0 0
1045938 0.08465705334281927 1.0280416086732447 -5.498441941511583e-05 -0.011529656527510096 0 0 0 0
1046384 0.08980771110453808 1.0023738070205848 0.0054457732033493765 0.003844287877352331 0 0 0 0
1046830 0.07501126541774805 1.0372251757716986 -0.004286433011099049 0.008612658505144425 0 0 0 0
1047276 0.0797150296681857 1.0408142499009145 -0.0030988466569709036 -0.002441958947082485 0 0 0 0
1047722 0.07416697771700377 1.0420772843456154 -0.002644161631413488 0.0024682314737583754 0 0 0 0
1048168 0.08203736498200709 1.0051212497870357 -0.0036157848040830522 -0.001126991092482152 0 0 0 0
1048614 0.08462713272192 1.0148081318572537 -0.0023873575438374973 -0.00823309373237704 0 0 0 0
1049060 0.08968398250691345 1.039650305121283 0.006246882275536045 -0.0012382513868444444 0 0 0 0
1049506 0.052927143153556205 1.031090517639452 0.012600029480572972 -0.004218447012586539 0 0 0 0
1049952 0.09180190713276776 0.9943497258084528 -0.0014097392067940046 0.0009753919439093746 0 0 0 0
1050398 0.07975939567734242 1.0685079770010768 -0.005427352284448036 0.005008419591699265 0 0 0 0
1050844 0.07060532932199882 1.0204316424642654 -0.00227015028156945 -0.009018006387181194 0 0 0 0
1051290 0.09373631249652431 1.0411662834625353 0.002085896783536472 -0.012502004188660926 0 0 0 0
1051736 0.10026182182907858 1.024273225077258 -0.00019265570852259538 -0.001558385087617694 0 0 0 0
1052182 0.07838281814532069 1.0134782210370783 0.011403524040635313 0.001819335751001647 0 0 0 0
1052628 0.09519115033460235 1.0244007705691587 -0.0008375836158102461 -0.002358815030977697 0 0 0 0
1053074 0.09284045502810509 1.027056781919367 -0.0018310253827012492 -0.0006574327784557917 0 0 0 0
1053520 0.0873149667070261 1.0280789409557445 -0.01162454461402227 -0.005062677597413622 0 0 0 0
1053966 0.09967741962553496 1.034343368754539 -0.001657596290880429 -0.004479768621316188 0 0 0 0
1054412 0.08812624685771207 1.0297854526452894 0.0021142373705079387 0.0034904955824143187 0 0 0 0
1054858 0.09682946189361441 1.0309376316669436 0.003750401490170844 -0.002727687628778569 0 0 0 0
1055304 0.11168870303887295 1.0124058965596547 -0.0005077529857504883 0.0036661863399930703 0 0 0 0
1055750 0.08743082565499892 1.0348688350171817 0.0033792402712416003 0.001151790355495964 0 0 0 0
1056196 0.09013700795128818 1.0479354186842145 -0.00858510102992603 -0.006767114130869953 0 0 0 0
1056642 0.07120078948634555 1.0522679154630585 0.002089754093759773 -0.006026749275405253 0 0 0 0
1057088 0.09618700041718217 1.0348430632230003 0.005802957130044473 -0.008002617799442877 0 0 0 0
1057534 0.08650589837357606 1.0238423860307917 0.0009238261801276964 -0.001710800771238146 0 0 0 0
1057980 0.10419354429415936 1.0409471489788247 0.002813802732040685 0.003769601338469007 0 0 0 0
1058426 0.07724702179789335 1.0387875991834776 -0.0026993880281359255 0.007140965549577557 0 0 0 0
1058872 0.08656262050787501 1.0221191953906237 -0.006939177561426203 -0.006352002902412265 0 0 0 0
1059318 0.06549588466560098 1.0040769393763287 -0.010844992101139404 -0.0008195686070423214 0 0 0 0
1059764 0.08958877977870576 1.0106269896799016 -0.009899193813086283 0.001545427932520229 0 0 0 0
1060210 0.1023845465387071 1.0259466474452206 0.00014265577294393541 0.006946288820768153 0 0 0 0
1060656 0.09593115429569418 1.0104583237376425 0.0018271520539937132 0.009562061282694137 0 0 0 0
1061102 0.08621427315614 1.0534620869700195 -0.005408333011271494 0.006804574541033983 0 0 0 0
1061548 0.07172854474239597 1.036078568286077 -0.006378930075338765 -0.00761660242649403 0 0 0 0
1061994 0.07706935990083887 1.030938110912852 -0.005329489267062825 0.00023556170433992822 0 0 0 0
1062440 0.09077229949458104 1.0043635873648316 -0.005583414442762 -0.0025404057353807566 0 0 0 0
1062886 0.10331275859595786 1.008471233750851 0.0032638668113763735 0.007087186155328578 0 0 0 0
1063332 0.10875510425216231 1.0254859102317446 -0.0022493891780468564 0.00349845015145642 0 0 0 0
1063778 0.10082544288437789 1.037481557620117 0.0005338249291488762 0.0039089656821403185 0 0 0 0
1064224 0.09652232319990439 1.0390580690771198 -0.007640938624206105 -0.0057770818791407705 0 0 0 0
1064670 0.10206188480292717 1.028379832974615 -0.003063166441918346 -0.009416912130679763 0 0 0 0
1065116 0.10512001947230426 1.0225889788545053 0.009906806629239914 0.0009469092985861057 0 0 0 0
1065562 0.11643645469476244 1.0257560407641049 0.002130088429938006 0.008153947686909559 0 0 0 0
1066008 0.11394817606408283 1.037654471048028 -0.000718357671399192 0.0030312656224178672 0 0 0 0
1066454 0.10365754613808659 1.0179375126430366 0.0005419118678007984 -0.0023389293112643776 0 0 0 0
1066900 0.09723771459179008 1.0265630827711167 -0.0019778693428965932 0.005858506100959274 0 0 0 0
1067346 0.07733151469185896 1.0392901623068709 -0.00035014580132321037 -0.001574946191152059 0 0 0 0
1067792 0.1163047149659937 1.017096217926162 -0.004959304200878341 -0.0018401753458343942 0 0 0 0
1068238 0.0897914814520575 1.0252013205208221 0.0030830340624193315 0.0026213956303792582 0 0 0 0
1068684 0.12011891230080678 1.0207491426253796 0.004530586989002731 0.0024666386824251556 0 0 0 0
1069130 0.09085386618394098 1.0219413711819603 0.0022565556132026405 0.011158445806293231 0 0 0 0
1069576 0.11810751059210099 1.0222992099371073 0.007829112819290752 -0.0016471591122945019 0 0 0 0
1070022 0.11662051045813099 1.0572642254757898 -0.001292185786135948 -0.0008175667892393396 0 0 0 0
1070468 0.10319908932983343 0.98379205637874 -0.0008445284224983416 -0.005690424517374571 0 0 0 0
1070914 0.06668411603022657 1.0149652912143634 0.008613985133736903 0.0024991931101173803 0 0 0 0
1071360 0.10256560589178013 0.9959264367306222 -0.001483777423998085 0.0045226472440665026 0 0 0 0
1071806 0.11441337131729347 1.0411044342548075 0.002214465735276 0.00609128801608983 0 0 0 0
1072252 0.08646392324713097 1.0273391828154805 -0.0050688230309454746 -0.007360045661206784 0 0 0 0
1072698 0.10426343406651556 1.0262650622720135 -0.002375611151707364 -0.007044985256960419 0 0 0 0
1073144 0.09148160196652277 1.0359361502620945 0.0012266450151283293 -0.008062198962728197 0 0 0 0
1073590 0.10131481872707863 1.0168381603700014 -0.0008758385663002774 0.0035144297945365575 0 0 0 0
1074036 0.1123844076101117 1.0087689029815605 -0.001889346379345063 0.004623858119489525 0 0 0 0
1074482 0.09218985070252805 1.0113501783914174 0.002934058601667756 0.006597192283097431 0 0 0 0
1074928 0.0976259827054001 1.0511238772048839 -0.0018676253314146504 -0.004764393797390945 0 0 0 0
1075374 0.1236882458029216 1.029306760803113 -0.0075810793521907715 0.009257720802623463 0 0 0 0
1075820 0.10850005958120867 1.0100905646786775 -0.001550160320461904 -0.007029565375594873 0 0 0 0
1076266 0.12386435912628556 1.0346258529302996 0.002842543550280097 -0.0017105301920778242 0 0 0 0
1076712 0.11901071570220166 1.0179787081009861 0.005793723172217417 0.0030109592477858623 0 0 0 0
1077158 0.10965159305598528 1.0344886533328308 0.0031738115996442075 2.1463945528248316e-05 0 0 0 0
1077604 0.11396221452638029 1.0213212695399008 -0.005821957404766806 0.004132106679029637 0 0 0 0
1078050 0.09191886011464218 1.023424731277361 -0.008501640715561627 0.00016387438122588498 0 0 0 0
1078496 0.1245003021949349 1.0047759822936857 0.00017376800218863844 0.00820138088423133 0 0 0 0
1078942 0.08283123341975865 1.0312545990935473 0.013790118293225658 -0.003705796269696932 0 0 0 0
1079388 0.07229987452971061 1.0335797502960475 0.007405987607402885 0.003332281181518262 0 0 0 0
1079834 0.13073663014063608 0.9862592709015897 -0.004687804904666104 0.005653496716315516 0 0 0 0
1080280 0.1428824082587889 1.0115146209209873 -0.00694288548479898 0.003607179408511897 0 0 0 0
1080726 0.10902565776114553 1.0203430207062796 -0.001021340146582768 -0.0022984514166118587 0 0 0 0
1081172 0.10129026981481636 1.0078445321973293 -0.005500896279134493 -0.004477233150649968 0 0 0 0
1081618 0.09845359142164417 1.0135584128840274 0.006324299828152082 -0.003656127519647657 0 0 0 0
1082064 0.104917646873495 1.016160822967064 0.005296031485252525 0.007911031292801856 0 0 0 0
1082510 0.13788720239264018 1.0294569743736797 -0.000781893179954705 0.004371258681857851 0 0 0 0
1082956 0.10632399097075891 1.0418210512840256 -0.0006724599156623972 -0.00034082854321709457 0 0 0 0
1083402 0.11052106856317342 1.0373546482606588 -0.003958066157084381 0.004184907711368983 0 0 0 0
1083848 0.1197894694515044 1.0531200555235323 -0.008112031736169045 -0.013493418402575294 0 0 0 0
1084294 0.12349031317782201 1.025513014979396 0.016445199075135343 -0.009123888879247902 0 0 0 0
1084740 0.10879422865262453 1.0270968071936262 0.0034445148077362426 -0.001278084478478016 0 0 0 0
1085186 0.09520029874976552 1.0387365855296635 0.002905446217112677 0.0010219082189176418 0 0 0 0
1085632 0.11921928168102588 1.033901750297963 -0.0022056363583775945 -0.000788805075154036 0 0 0 0
1086078 0.12189738652943198 1.0247634565181016 -0.005817819663027533 -0.002363508117090292 0 0 0 0
1086524 0.10595141688071885 1.0348003748546504 -0.0017673389396803969 -0.013216583818197325 0 0 0 0
1086970 0.09843468432041176 1.0300804415260114 -0.0014851080066771982 -0.0029980954491797738 0 0 0 0
1087416 0.1256657736558758 1.0213613670771506 -0.0008844359766602355 -0.0010242298807868924 0 0 0 0
1087862 0.12623901299826423 1.0241701012699633 0.007744685415079647 0.00022951785575327824 0 0 0 0
1088308 0.12808523486666173 1.0557354244769797 0.0008509531088235602 0.004049018923951599 0 0 0 0
1088754 0.09422910061553631 1.0161505783019236 -0.002837746040107545 0.0004649083160837817 0 0 0 0
