# HZ S RI R 50
1000000 0.06155644789142862 1.200154596299843
1000446 -0.09409284017079973 1.0727115117436476
1000892 0.04493098164887513 0.9901712636607204
1001338 0.022606575904796818 1.0159234029190722
1001784 0.009419932895155093 1.0420063635910193
1002230 0.05009079565601044 1.0367714145816043
1002676 0.008878638631193132 1.0169154441425476
1003122 0.02198166869138795 1.047692979489096
1003568 -0.0235274968333424 1.0100385843485535
1004014 0.05054685282064583 1.0281286670259475
1004460 0.020559589890506953 1.0237798659523623
1004906 0.04953721785106946 1.019974323100927
1005352 0.04490532164148653 1.0522499087909474
1005798 0.04889904140090752 1.009121893465353
1006244 0.017824040730966505 1.0099515890807655
1006690 0.06829407891659248 1.0320700127198401
1007136 0.027835798019090936 1.008405717370162
1007582 0.038185040790033986 0.9894579124415289
1008028 0.030597654087745445 1.0298201928397532
1008474 0.03895296058215855 1.0077058127127396
1008920 0.06260612179809455 1.0315235385453807
1009366 0.05521991288067633 0.9718666102947882
1009812 0.002482939621063124 1.0991678826466904
1010258 -0.07275856300806655 0.9034675034756279
1010704 0.12442794836504031 0.9644259765923917
1011150 -0.00956334260516066 1.0270702040635553
1011596 0.022090635201886213 1.020220312963023
1012042 0.03759842732399744 1.0111390631554382
1012488 0.024974482521157117 1.0242034152668806
1012934 0.061478467201274714 1.0228611933275602
1013380 0.036583818483437947 1.0545293209479416
1013826 0.05550930989529753 1.0243815725123233
1014272 0.06744837554820433 1.046722764769061
1014718 0.027209412413172224 1.0367360166918882
1015164 0.05247120797841214 1.040799026759397
1015610 0.05203557852842659 0.9987119210572545
1016056 0.06588529883851349 1.0505457104811216
1016502 0.057161796060562084 1.0345778257168852
1016948 0.06358345207085868 1.0482307901513395
1017394 0.04139244641191236 1.046013233226226
1017840 0.018332627907331624 1.0283043383376027
1018286 0.08336523655276952 1.0367528930661263
1018732 0.06967317243647406 1.045325176650554
1019178 0.037334872785607286 1.0345322161424275
1019624 0.0534428647729678 0.9938449887367622
1020070 0.02847813585989632 1.0927099854971567
1020516 0.07382193709566673 1.0312708680226128
1020962 0.05766108596624988 1.024880138470944
1021408 0.036402637425848296 1.0430247104211336
1021854 0.04949213941199819 1.02750753173617
1022300 0.07058991644794212 1.0455125685521733
1022746 0.045513765990103414 1.0158187507617435
1023192 0.029156102796300033 1.0199429232496073
1023638 0.05792197425288263 1.0245711720966653
1024084 0.02816088730585014 1.0249830271558076
1024530 0.07826744853163835 1.0405343080074188
1024976 0.05675495117879906 1.029203083853647
1025422 0.05457942796728746 1.013405118488447
1025868 0.06126451189851956 1.0214953690393793
1026314 0.055540383916751694 1.022524254014492
1026760 0.06748787525339194 1.0279082177104188
1027206 0.0642920980665137 1.0271143177703668
1027652 0.0555271015255151 1.0174662720895626
1028098 0.07500660948468033 1.0319566069836386
1028544 0.07369036277181248 1.0354386924421386
1028990 0.07659185453144018 1.0311112897995458
1029436 0.0794638220753169 0.9995586526798222
1029882 0.12842315344003072 0.9997732542796833
1030328 0.04952166427917545 1.0001724969057495
1030774 0.0654294714383617 1.0501182056820049
1031220 0.058197403863089 1.0181722188130364
1031666 0.05516026616993307 1.021087438800001
1032112 0.05154751551827451 1.021020148224196
1032558 0.06715488683815263 1.015876593634388
1033004 0.07117806996346027 1.020348631899371
1033450 0.05974647836095775 1.0428858459077002
1033896 0.0807412133076064 1.0286393142063068
1034342 0.0771853265846218 1.0376274357963262
1034788 0.07313189367961602 1.0352547451133969
1035234 0.07315280576627974 1.0338176203941218
1035680 0.06687082222934362 1.0168882686871896
1036126 0.07357441085414208 1.0285951362719659
1036572 0.08086321572189867 1.0479618840047917
1037018 0.066798689632046 1.032365624570356
1037464 0.07862629214245802 1.0270183022405113
1037910 0.08928703495854312 1.0093233070270118
1038356 0.09042083381468277 1.0193835228105526
1038802 0.0758226059471012 1.035592353500015
1039248 0.05343930433336803 1.0434964833853773
1039694 0.040607715993036475 1.0866099283710338
1040140 0.032842125354281736 1.06338496140425
1040586 0.044084856432341654 1.019153737131254
1041032 0.07681820168545006 1.0329835103439367
1041478 0.10700492856537322 1.0406117478404253
1041924 0.09161007642391113 1.035370673404538
1042370 0.08241911896266706 1.027977026871302
1042816 0.07926591322617284 1.021020018535083
1043262 0.04475859468233044 1.0299789763896796
1043708 0.10489713865019844 1.030174615109574
1044154 0.0881691017303792 1.0459504878350148
1044600 0.0789219639675681 1.026615515135845
1045046 0.07750601665428507 1.0473014424361227
1045492 0.07607819770097111 1.0235454911830477
1045938 0.08465705334281927 1.0280416086732447
1046384 0.08980771110453808 1.0023738070205848
1046830 0.07501126541774805 1.0372251757716986
1047276 0.0797150296681857 1.0408142499009145
1047722 0.07416697771700377 1.0420772843456154
1048168 0.08203736498200709 1.0051212497870357
1048614 0.08462713272192 1.0148081318572537
1049060 0.08968398250691345 1.039650305121283
1049506 0.052927143153556205 1.031090517639452
1049952 0.09180190713276776 0.9943497258084528
1050398 0.07975939567734242 1.0685079770010768
1050844 0.07060532932199882 1.0204316424642654
1051290 0.09373631249652431 1.0411662834625353
1051736 0.10026182182907858 1.024273225077258
1052182 0.07838281814532069 1.0134782210370783
1052628 0.09519115033460235 1.0244007705691587
1053074 0.09284045502810509 1.027056781919367
1053520 0.0873149667070261 1.0280789409557445
1053966 0.09967741962553496 1.034343368754539
1054412 0.08812624685771207 1.0297854526452894
1054858 0.09682946189361441 1.0309376316669436
1055304 0.11168870303887295 1.0124058965596547
1055750 0.08743082565499892 1.0348688350171817
1056196 0.09013700795128818 1.0479354186842145
1056642 0.07120078948634555 1.0522679154630585
1057088 0.09618700041718217 1.0348430632230003
1057534 0.08650589837357606 1.0238423860307917
1057980 0.10419354429415936 1.0409471489788247
1058426 0.07724702179789335 1.0387875991834776
1058872 0.08656262050787501 1.0221191953906237
1059318 0.06549588466560098 1.0040769393763287
1059764 0.08958877977870576 1.0106269896799016
1060210 0.1023845465387071 1.0259466474452206
1060656 0.09593115429569418 1.0104583237376425
1061102 0.08621427315614 1.0534620869700195
1061548 0.07172854474239597 1.036078568286077
1061994 0.07706935990083887 1.030938110912852
1062440 0.09077229949458104 1.0043635873648316
1062886 0.10331275859595786 1.008471233750851
1063332 0.10875510425216231 1.0254859102317446
1063778 0.10082544288437789 1.037481557620117
1064224 0.09652232319990439 1.0390580690771198
1064670 0.10206188480292717 1.028379832974615
1065116 0.10512001947230426 1.0225889788545053
1065562 0.11643645469476244 1.0257560407641049
1066008 0.11394817606408283 1.037654471048028
1066454 0.10365754613808659 1.0179375126430366
1066900 0.09723771459179008 1.0265630827711167
1067346 0.07733151469185896 1.0392901623068709
1067792 0.1163047149659937 1.017096217926162
1068238 0.0897914814520575 1.0252013205208221
1068684 0.12011891230080678 1.0207491426253796
1069130 0.09085386618394098 1.0219413711819603
1069576 0.11810751059210099 1.0222992099371073
1070022 0.11662051045813099 1.0572642254757898
1070468 0.10319908932983343 0.98379205637874
1070914 0.06668411603022657 1.0149652912143634
1071360 0.10256560589178013 0.9959264367306222
1071806 0.11441337131729347 1.0411044342548075
1072252 0.08646392324713097 1.0273391828154805
1072698 0.10426343406651556 1.0262650622720135
1073144 0.09148160196652277 1.0359361502620945
1073590 0.10131481872707863 1.0168381603700014
1074036 0.1123844076101117 1.0087689029815605
1074482 0.09218985070252805 1.0113501783914174
1074928 0.0976259827054001 1.0511238772048839
1075374 0.1236882458029216 1.029306760803113
1075820 0.10850005958120867 1.0100905646786775
1076266 0.12386435912628556 1.0346258529302996
1076712 0.11901071570220166 1.0179787081009861
1077158 0.10965159305598528 1.0344886533328308
1077604 0.11396221452638029 1.0213212695399008
1078050 0.09191886011464218 1.023424731277361
1078496 0.1245003021949349 1.0047759822936857
1078942 0.08283123341975865 1.0312545990935473
1079388 0.07229987452971061 1.0335797502960475
1079834 0.13073663014063608 0.9862592709015897
1080280 0.1428824082587889 1.0115146209209873
1080726 0.10902565776114553 1.0203430207062796
1081172 0.10129026981481636 1.0078445321973293
1081618 0.09845359142164417 1.0135584128840274
1082064 0.104917646873495 1.016160822967064
1082510 0.13788720239264018 1.0294569743736797
1082956 0.10632399097075891 1.0418210512840256
1083402 0.11052106856317342 1.0373546482606588
1083848 0.1197894694515044 1.0531200555235323
1084294 0.12349031317782201 1.025513014979396
1084740 0.10879422865262453 1.0270968071936262
1085186 0.09520029874976552 1.0387365855296635
1085632 0.11921928168102588 1.033901750297963
1086078 0.12189738652943198 1.0247634565181016
1086524 0.10595141688071885 1.0348003748546504
1086970 0.09843468432041176 1.0300804415260114
1087416 0.1256657736558758 1.0213613670771506
1087862 0.12623901299826423 1.0241701012699633
1088308 0.12808523486666173 1.0557354244769797
1088754 0.09422910061553631 1.0161505783019236
1089200 0.10224085763484793 1.0417140037871833
1089646 0.12025428951587912 1.0488548087978742
1090092 0.09366394241071084 1.0087205782612385
1090538 0.1207238425220766 1.028038689124113
1090984 0.13124476336503227 1.0251779623830446
1091430 0.1251321831334772 1.0185030364648688
1091876 0.13032777887264602 1.0278453745774685
1092322 0.1169550217130329 1.0240674026253884
1092768 0.10848700995785153 1.0123682347957363
1093214 0.12847305556564098 1.0082973727077724
1093660 0.15420832504183724 0.9849497471654919
1094106 0.1135628116274486 1.0173342512299501
1094552 0.11053488076027071 1.0133800830294413
1094998 0.11683470382708788 1.0159330329260392
1095444 0.11559818664068022 1.0359099677450785
1095890 0.139425268547544 1.03761599064644
1096336 0.12539629966036372 1.0350482491676294
1096782 0.136979145799136 1.0269357110374107
1097228 0.12189314932369656 1.0231383770400044
1097674 0.11856982909613095 1.020114540162775
1098120 0.13067820428253565 1.0445254738679592
1098566 0.1258577112687652 1.0109890803262616
1099012 0.14590607149890297 1.0152762636817008
1099458 0.10861387231321228 1.0271876355309737
1099904 0.1441557092791497 1.0315081006436462
1100350 0.13683371858909274 1.0077119082328028
1100796 0.12294666951053525 1.0528083338872931
1101242 0.1474906596133751 1.0382665031142857
1101688 0.1350867408258561 1.013316601400345
1102134 0.12492138374498761 1.019042146501697
1102580 0.14248357221276142 1.0192995763667994
1103026 0.15219384165725502 1.0270603931386673
1103472 0.11740660563024712 1.010823447208001
1103918 0.15020982009712186 1.021312282869571
1104364 0.15525296948575223 1.0129280291031115
1104810 0.15704286097310197 1.0314662758243758
1105256 0.17789350343720622 1.0228935389344131
1105702 0.11966407290125301 1.0402504342502639
1106148 0.11916821065360576 1.0191730869065332
1106594 0.14058275769359677 1.0251298834026628
1107040 0.13885122542246675 1.0259896458332978
1107486 0.14544311688618486 1.0325269123762886
1107932 0.13696955771976085 1.009717983121139
1108378 0.13934987810101646 1.0345699208261145
1108824 0.144468661995551 1.0273654907821015
1109270 0.15287474706176482 1.0317783195521804
1109716 0.13806029348521417 1.0206309864861156
1110162 0.16113287592510508 1.0570183839277865
1110608 0.12218784913275559 1.047269227019374
1111054 0.12364559053130614 1.0217741905782853
1111500 0.1485211634960684 1.0320074310504364
1111946 0.13633820685835568 1.0240934681387808
1112392 0.14074283048326056 1.0195916604618545
1112838 0.15767516561542697 1.0233210670381443
1113284 0.14323579655719013 1.022377712033092
1113730 0.12879147989836096 1.0396156693578644
1114176 0.13636393646727973 1.015209003367782
1114622 0.13350440420406876 1.0314469579523347
1115068 0.1428824068288239 1.0190974803421013
1115514 0.12837157776240424 1.0444190484017208
1115960 0.12413553745975793 1.0247433690097285
1116406 0.1405189237477906 1.0018123063208886
1116852 0.14795367222183037 1.0289858719008496
1117298 0.1421725414702362 1.0215396222967355
1117744 0.15715174717083646 1.022039769835047
1118190 0.181861884926129 1.0164137519965075
1118636 0.13877044409399147 0.9946463120650294
1119082 0.1564364982570862 1.0318315185087312
1119528 0.11701087131622293 1.0070468172404612
1119974 0.17062398768526654 0.9775417894088928
1120420 0.19457156281712235 1.0024926527344171
1120866 0.14290462626175376 1.0170596224547162
1121312 0.16356104663635387 1.017175555539854
1121758 0.14225419734441627 1.0146439358257333
1122204 0.15159442611476978 1.0360597047231122
1122650 0.14357160426991644 1.0214113359546646
1123096 0.1486260822692526 1.0194984862414431
1123542 0.17192424563279216 1.012937010326368
1123988 0.1596390124679675 1.0160607336310195
1124434 0.15970455676343745 1.022573514648928
1124880 0.1501075811809069 1.0274203404904958
1125326 0.14909074132890057 1.0076181803370774
1125772 0.15946729687576455 1.0205663945812624
1126218 0.15554594649456607 1.0228449580196843
1126664 0.14297549481741448 1.0345609113974112
1127110 0.17202850043258747 1.0198396923210717
1127556 0.14775133981084412 1.0107479358641602
1128002 0.13809938774422997 1.0217315746894728
1128448 0.1556707925854607 1.005749613535887
1128894 0.1664299857742123 1.0494391814412607
1129340 0.15325256202807802 1.0531101379646775
1129786 0.1705257226433806 1.045702111058152
1130232 0.13886743404430701 1.011559822326327
1130678 0.16434597292081546 1.0442273536800208
1131124 0.14838672725046506 1.0191769005979505
1131570 0.1556078287811107 1.0335321536329511
1132016 0.1771039561859715 1.0047559683691685
1132462 0.15899028890728562 1.0264771488661386
1132908 0.16005613474924354 1.0094904095309216
1133354 0.152975760677283 1.0171342988727805
1133800 0.17373428021254167 1.003027005252673
1134246 0.1705071957268926 1.027193914118356
1134692 0.1788002532551157 1.0119900982093264
1135138 0.16799576503095204 1.0099652382896998
1135584 0.1608012075229609 1.0210342327557584
1136030 0.1352773424579764 1.0169653420291134
1136476 0.15898846163758276 1.0081431525664888
1136922 0.15947756616902167 1.0252441331184863
1137368 0.1572941840945642 1.0409453028045623
1137814 0.16157100585867942 1.0072897834104098
1138260 0.1571846239526193 1.0316834947561615
1138706 0.14810760780624008 1.0341499282071402
1139152 0.1491538552910224 1.0158124912099147
1139598 0.17142250531089565 1.0138344824475192
1140044 0.1532950561460671 0.9921539003450719
1140490 0.16542352322079323 1.0274537129658747
1140936 0.1833513519141167 0.9883361186575067
1141382 0.1737924840601115 1.032434750340316
1141828 0.1637668993345344 1.0116933049263397
1142274 0.17731334129806645 1.0200006561914003
1142720 0.17879012337285452 1.0132777936169206
1143166 0.17213181167977315 1.0131778555953839
1143612 0.1699910169715397 1.0194001905742094
1144058 0.16753585030431087 1.0082305431427574
1144504 0.17018038295789834 1.0193995186500997
1144950 0.17127494303597526 1.0043136117639986
1145396 0.19920276034162246 1.0049640378414433
1145842 0.17082355899895918 1.0240511348040582
1146288 0.18768484055253157 1.0282839037675904
1146734 0.16769159103222223 1.0201545394966243
1147180 0.1732338186307637 1.027494432416303
1147626 0.17130008674998967 1.0285493064048479
1148072 0.1739649834878499 1.0063844311220456
1148518 0.15565931806644182 1.0198966289978368
1148964 0.16897149291237074 1.0107409753740768
1149410 0.1797431740452817 1.0233665541907455
1149856 0.17400860998496748 1.0237330899651962
1150302 0.15444140300391648 1.0236503743140737
1150748 0.1519968441643743 0.9868453357317551
1151194 0.1906354740031855 1.0067938909720329
1151640 0.18200565974269078 1.0356880991980186
1152086 0.16384390864195625 1.0301779634470332
1152532 0.171353584186282 1.0372261550381774
1152978 0.16831896020284404 1.021446448621049
1153424 0.19480810628494816 1.0040037887069286
1153870 0.17946728296031295 0.9971692742975867
1154316 0.17542549431188215 1.0488294523527204
1154762 0.175774740260324 1.0219106432828051
1155208 0.16226277196350852 1.022158726258589
1155654 0.187754295767678 1.0243627135723952
1156100 0.18696150376465123 1.001449780779665
1156546 0.1730767667678289 1.0097897006997476
1156992 0.16938823681468387 1.0078384704103869
1157438 0.1971744758524097 1.019499749389013
1157884 0.19572311317877392 1.008496798188085
1158330 0.17997082107766216 1.01911442195054
1158776 0.17499206576488316 1.0258378741436427
1159222 0.17804933400025316 1.0159020126016436
1159668 0.20494449667700929 1.0005822506621571
1160114 0.18811267058936676 1.0148282458270352
1160560 0.17614510840091438 1.0227154675078716
1161006 0.18597981478665762 1.001706807082394
1161452 0.1751660016016157 1.0139774490544433
1161898 0.18957246742837777 1.0173575528071372
1162344 0.1800899287835786 1.018582226282845
1162790 0.19040423997397546 1.0422342418171548
1163236 0.19573698746394813 1.0330133426974415
1163682 0.16083061092431808 1.0128236935308081
1164128 0.20269001046189256 1.0159940845767137
1164574 0.19525100004959084 1.02324596430831
1165020 0.1767955168293624 1.0112326080211778
1165466 0.184962889025729 1.0053398923995613
1165912 0.18414929602905253 1.0266641712107019
1166358 0.17993393192355905 1.021695906230162
1166804 0.19213331330854994 1.0127732702969743
1167250 0.1896367687152987 0.9952526880103377
1167696 0.21413814137063533 1.01509406038219
1168142 0.18726465754728222 1.0103503818665598
1168588 0.18648971929782004 1.010391021787466
1169034 0.18646190951359576 1.0248663987382942
1169480 0.19125939846867115 1.0022626242053805
1169926 0.205357814450584 1.0239171195415429
1170372 0.2133022069558682 1.0090610328602483
1170818 0.18914144829381815 0.9962864898394564
1171264 0.1880606749392476 1.0178424837591482
1171710 0.18938687659444234 1.0035400349002794
1172156 0.18148893978954236 1.023228945872724
1172602 0.19745422244035876 1.0105973000881778
1173048 0.19543842648903842 1.0300053651440157
1173494 0.19611366739562436 1.0211076065450753
1173940 0.20261582290950453 1.0186840260601409
1174386 0.18973093029224053 1.0168613823285289
1174832 0.19550415296247228 1.001624761785717
1175278 0.19637352166964736 1.014502499997082
1175724 0.19491983281757516 0.9999861586697083
1176170 0.20789754970123617 1.0138738748299536
1176616 0.17927218416341842 1.031546632446927
1177062 0.21644169768296645 1.0225362402167968
1177508 0.21106568838764928 1.0102136079264195
1177954 0.21287403818897424 0.9962305262024898
1178400 0.21054508047747997 1.0109829180695027
1178846 0.2037236901898283 1.0233496115454126
1179292 0.21840875022715706 1.0291784711747438
1179738 0.19672103356470094 0.9926170551656193
1180184 0.19294707298804584 1.0131283805916973
1180630 0.19126029044360376 1.0139382994591803
1181076 0.177146282455617 1.0290365439554576
1181522 0.2236912062989662 1.0180115329725614
1181968 0.20441778881801337 1.0089985339433816
1182414 0.19304971810421373 1.023989179482611
1182860 0.2027902707909343 1.0110240583580277
1183306 0.19360854849477485 1.0072258998299177
1183752 0.21278098727855554 1.012885369321885
1184198 0.20402908402544778 1.0409871496637553
1184644 0.20792640725330575 1.0208221737270389
1185090 0.21418923901505518 1.0134986473133534
1185536 0.19520676924215535 1.011981799776638
1185982 0.19845880423438356 1.010012604491239
1186428 0.21287267748032318 1.0188888324665408
