# HZ S RI R 50
20000000 0.976352881351724 0.1726874241100903 0.0044311476566359686 0.0022098001661559467 0 0 0 0
20000495 0.9812702100872507 0.1941546347716641 0.003538787975218337 0.006656617194228766 0 0 0 0
20000990 0.993427556016948 0.17882035697247448 -0.0021949595649258984 0.007843051979689005 0 0 0 0
20001485 1.011941754708235 0.17561917384066875 -0.0035365658690316103 0.010385210861090115 0 0 0 0
20001980 0.9828998740093515 0.18108729991956485 0.004607783840087138 -0.00011748235763867425 0 0 0 0
20002475 1.006506165952879 0.18297158929384433 0.0022931626545918842 -0.0060855277134756565 0 0 0 0
20002970 0.9903846432733774 0.1775422096732869 0.0009290894142574155 0.010784050251766179 0 0 0 0
20003465 0.9998762765254409 0.1766033216782387 0.009672149693715432 -0.003508381053501434 0 0 0 0
20003960 0.9892857088887798 0.1881328360848306 0.003866184416799855 0.007737227839160608 0 0 0 0
20004455 0.9927637129390755 0.17067341202800634 -0.0068896205171753285 0.005251556169255221 0 0 0 0
20004950 0.9877771319422785 0.1767656615018236 0.0010316174415520454 -0.015615105824173674 0 0 0 0
20005445 0.994255305284555 0.17432940860520202 0.0009717695147794237 -0.00776497095918513 0 0 0 0
20005940 0.9933825761822569 0.17057240031640214 0.007506006110613085 -2.5810133117713496e-05 0 0 0 0
20006435 1.0002774109993562 0.19382620724844274 -0.0029401307586048096 0.012298289372250299 0 0 0 0
20006930 0.9814493615759301 0.18535886710495197 -0.007661370561783822 0.007350781942704374 0 0 0 0
20007425 0.9830917665998652 0.16165131726091816 -0.0008734437985032746 -0.003869112682149066 0 0 0 0
20007920 0.9911512412587794 0.18077404315362003 0.00943467693293058 -0.003999805885885728 0 0 0 0
20008415 0.9980032895284594 0.1812782959412005 -0.0008152340934350998 -0.0006640776923337362 0 0 0 0
20008910 0.9891386570821442 0.1772309891545919 0.0095622949690639 0.005748882693755148 0 0 0 0
20009405 0.9996101239763241 0.16442430198971042 -0.003129030783630414 0.006782014547605108 0 0 0 0
20009900 1.0023535070955496 0.18821317030803994 -0.006800408305070891 0.004869944982961391 0 0 0 0
20010395 0.9912470632209273 0.19135345903854276 -0.0021160382845017414 -0.0009095745668884877 0 0 0 0
20010890 0.9693968862834651 0.1683623023909108 -0.011599288732813693 -0.006896140225360982 0 0 0 0
20011385 1.0000697352547823 0.18969846042698724 -0.003067000061663151 0.0042066450485431705 0 0 0 0
20011880 1.003059879444038 0.18347389407858594 0.00501776845075446 0.006272591839091498 0 0 0 0
20012375 1.008784211864159 0.186389226142012 -0.01362774344943307 -0.0008656779319011119 0 0 0 0
20012870 0.9973047224972875 0.1799219135658257 -0.0018673132333902917 -0.0008636237228403953 0 0 0 0
20013365 0.978263121079991 0.17588522243162735 5.50292090691863e-05 -0.008420658104895453 0 0 0 0
20013860 0.9765713011431767 0.17943658015088618 0.00811700327547712 0.002534884503357104 0 0 0 0
20014355 0.9869627881148245 0.1720386619862172 -0.0026698001263773504 0.004576636137259617 0 0 0 0
20014850 0.9796683261359737 0.20635722457664948 0.0042427725211954285 -0.004025013412163447 0 0 0 0
20015345 0.9913131339152322 0.18377016211271552 -0.005565074854787669 -0.00022020149731907598 0 0 0 0
20015840 0.9879020302322337 0.1965963762997149 -0.0011917726733768693 -0.004229064634480484 0 0 0 0
20016335 0.9815863755496049 0.18266575754358386 0.007954669059481067 0.000711041346024599 0 0 0 0
20016830 0.9977890250351472 0.1780535914143497 0.009448224339993963 -0.002795890428215915 0 0 0 0
20017325 0.9899845856557075 0.16948732665598668 0.0021202825290036567 0.0062262047313010995 0 0 0 0
20017820 0.9725905019919739 0.18548639992614227 0.007433948815890584 0.00477276228595527 0 0 0 0
20018315 0.9959707733189939 0.17175877268627487 0.006020303449808957 -0.00018596009159327438 0 0 0 0
20018810 0.9832839582064747 0.17596689839029048 -0.002008321992167608 -0.004459627963276509 0 0 0 0
20019305 0.9934599953765868 0.18879434636613499 0.0066542262340120156 0.011019634263263696 0 0 0 0
20019800 1.0028944761481093 0.18303909488761197 0.00934541626755407 0.003599277256748096 0 0 0 0
20020295 0.9851428446339608 0.18309746813649877 0.004088957262075568 0.010317241324758 0 0 0 0
20020790 0.9867965826855774 0.18383318892946454 -0.0036752397423955624 0.000797214245779718 0 0 0 0
20021285 0.9823939860521692 0.1836069110228198 0.006662266643097945 -0.003555740400743346 0 0 0 0
20021780 0.9887726243862536 0.19497171766075713 0.0026920093894397695 0.0062869044583136816 0 0 0 0
20022275 0.9925692709936028 0.1853321884695273 0.012660465473261032 -0.0025874121933703678 0 0 0 0
20022770 0.9899024629373231 0.1825384200536081 -0.008179303597131826 -0.007810221626984094 0 0 0 0
20023265 0.9762412480455053 0.16646507691852813 -0.015281222281982946 0.0004842382177497348 0 0 0 0
20023760 1.0000463918913631 0.19748154378214197 -0.015755220345421858 0.001971819314409978 0 0 0 0
20024255 0.9928226741986179 0.1786625814215728 0.005698682695558265 -0.009499265939509706 0 0 0 0
20024750 0.9870126976567953 0.17466428997778988 0.006117003104485019 0.00012698803077129488 0 0 0 0
20025245 0.9942094905610948 0.17754534990800913 -0.0045934538730204285 0.005964287218324798 0 0 0 0
20025740 1.030080597561471 0.18372322299143398 -0.0018944703649406212 -0.007073613179874951 0 0 0 0
20026235 0.9825837450643528 0.1761084398409167 -0.00506506122445936 -0.0035594559563158646 0 0 0 0
20026730 0.9815776809595312 0.1687604560429751 -0.006308747338851447 -0.007298173898848296 0 0 0 0
20027225 1.017645067476279 0.17669477606692716 0.007605322219096983 0.004264232354815781 0 0 0 0
20027720 0.9912284158144196 0.17373045853912802 0.006852791009478215 -0.0038792493798996187 0 0 0 0
20028215 1.007218453675596 0.18220827923239544 -0.002484935958449831 0.013926285677422037 0 0 0 0
20028710 0.9803133958606369 0.1793837851079926 -0.005411722825467396 0.0006803670225795751 0 0 0 0
20029205 1.001048231550485 0.15673155810616987 -0.004494153646523124 -0.01310049539204556 0 0 0 0
20029700 0.9835495199006692 0.17092868777216724 0.002417902899989647 -0.0023937309493311672 0 0 0 0
20030195 0.9973058390957396 0.13940441979309942 0.007706773796466965 0.007252028098530598 0 0 0 0
20030690 0.9896425192200172 0.17322255130398032 -0.0018421349637560724 0.008207542085601588 0 0 0 0
20031185 0.9971652461551497 0.18250504669820516 -0.0013592282190062856 -0.000321524710827531 0 0 0 0
20031680 1.0061471339627135 0.19622309016637138 -0.013646760706388759 -0.001647756886368294 0 0 0 0
20032175 0.9925414703250467 0.17738833013721722 -0.003122322363692999 -0.001724106744990496 0 0 0 0
20032670 0.9660827001856269 0.1641496462594627 7.732194348144374e-05 0.0003513871620205047 0 0 0 0
20033165 1.0036381060886232 0.17792256270207754 -0.005627219099836456 -0.001107006497649481 0 0 0 0
20033660 1.007571127458958 0.1925892880679773 0.005707836172639011 -0.0014784313321397115 0 0 0 0
20034155 1.0016184062316693 0.18091792815911295 -0.01281346400617599 0.00817968894021095 0 0 0 0
20034650 0.9756256078244272 0.16490285384393882 -0.011609212170089643 -0.003771303737938478 0 0 0 0
20035145 0.9871117172692737 0.18310426421574558 0.008703863866051478 -0.00671475621350667 0 0 0 0
20035640 1.0022267856503986 0.16886952558335142 -0.0031036019372592096 -0.011495277826777579 0 0 0 0
20036135 0.9781034871234343 0.14905894615597018 -0.004724271228701178 0.01044072740350463 0 0 0 0
20036630 0.985624478911194 0.16449639737425817 -0.00044832081110538527 0.007198883189523061 0 0 0 0
20037125 0.9985688731501812 0.18828331883830196 -0.007687362305666664 -0.002212323290432333 0 0 0 0
20037620 0.9934480418484262 0.16117464089052516 0.009737629857536458 0.004606974958888545 0 0 0 0
20038115 0.9978122641905512 0.1617826087175924 0.010274527302632794 -0.001569942752864994 0 0 0 0
20038610 1.0000254278992622 0.1798166055475525 -0.001480087946321296 -0.0017110406623378044 0 0 0 0
20039105 1.0055478374180866 0.1553501118806848 0.005520329649960007 0.003209018891908577 0 0 0 0
20039600 0.9808015863916576 0.2278917753814003 -0.000965145603888459 0.005088945585768185 0 0 0 0
20040095 1.0105571928379466 0.20141150947399242 -0.00819038970695932 -0.0014935003878237972 0 0 0 0
20040590 0.9858194817744118 0.17304145404177346 -0.0030919096347639488 0.002360239758688863 0 0 0 0
20041085 0.9748654236293502 0.17660548170953463 0.006682922568537425 0.0018423276008468442 0 0 0 0
20041580 0.9842592923706861 0.15951129513020493 0.0068304151159931875 0.003206069970418575 0 0 0 0
20042075 0.9876218142948704 0.19564431725009612 -0.009061142672262244 0.000973732070964527 0 0 0 0
20042570 0.9938382858321394 0.19497723234581607 -0.004788013751654672 -0.006206164322943069 0 0 0 0
20043065 1.0023606516540713 0.18198292846307912 0.007870954770363937 -0.004153178077009395 0 0 0 0
20043560 0.9687118443093077 0.17356181925249556 0.0010978406689878726 -0.0038074768683529036 0 0 0 0
20044055 0.9867071015835213 0.1952667276061484 -0.000641025467970896 0.009522212697465065 0 0 0 0
20044550 0.990431841633154 0.1823961871352729 -0.0007617508505523793 0.007119785994704137 0 0 0 0
20045045 1.0016149117006896 0.1617848004080144 -0.007777070614937203 -0.008347092866003878 0 0 0 0
20045540 0.9816379912223925 0.16977319388330148 0.0012905095975164278 -0.00019714388391122104 0 0 0 0
20046035 0.9998846547963234 0.17513103540877054 -0.003714598480243401 -0.006906814729396226 0 0 0 0
20046530 1.0031851093486746 0.1730356807565216 0.006429584475383141 -0.005900354067960475 0 0 0 0
20047025 0.9923615677369602 0.1866340429556166 0.0024788116698786947 0.0040656953513462084 0 0 0 0
20047520 1.002738417763529 0.18667096703976635 0.010325062876085044 0.004070277500393969 0 0 0 0
20048015 0.9999218922276973 0.18985774210163608 0.0038919432177070643 -0.011607174327025576 0 0 0 0
20048510 0.9908519290721186 0.1826496285180725 0.009093321840674424 -0.000942415077622342 0 0 0 0
20049005 0.9933614514755845 0.18008279250392722 0.003521690855514702 -0.0052291571424107055 0 0 0 0
20049500 1.0008671143519627 0.1722925893595091 -0.0008387891297026806 0.008234799878288911 0 0 0 0
20049995 1.003423653307918 0.166734840178935 -0.0016154883386556309 0.004939002565172006 0 0 0 0
20050490 0.9790915387880484 0.17551737842500234 -0.013753460103506974 -0.0025099075636954354 0 0 0 0
20050985 0.9945085187486227 0.18324200760710735 -0.008706805823358544 -0.003365112692457745 0 0 0 0
20051480 0.9942998159681009 0.1626537039777216 0.0002464842664219137 -0.008402046492990447 0 0 0 0
20051975 0.9863583236317146 0.17706674312323548 0.0036210869691789887 -0.002674527746754738 0 0 0 0
20052470 0.9918198837366855 0.18719896692751206 0.0017546745728922058 0.016227170217760434 0 0 0 0
20052965 0.9980924681128795 0.16763843036583947 -0.001700188189814309 0.008595506214210765 0 0 0 0
20053460 1.0021393907497431 0.17448360192438542 -0.0009963045739158757 0.0005458546086848628 0 0 0 0
20053955 0.9770583166365763 0.1680288745708157 0.003856485167117837 -0.003296837143779301 0 0 0 0
20054450 0.9985095309886697 0.1849743091582605 -0.004498451596873095 -0.0007833944089732901 0 0 0 0
20054945 0.9815935778371224 0.17797791635722554 0.0013500208199509842 -0.00045189746038005535 0 0 0 0
20055440 0.9824592706342852 0.1777023315826109 -0.005864100941139575 0.008309293340365932 0 0 0 0
20055935 0.9759236463059301 0.18390291820192117 -0.009011717640594951 0.001533544633952767 0 0 0 0
20056430 1.0045450427352558 0.19458332150361482 -0.0045774606466088665 -0.01949049296083575 0 0 0 0
20056925 0.9738258145542247 0.18050986370327354 0.01131654929960569 -0.012705918371666111 0 0 0 0
20057420 1.0016562217148257 0.16822368526213125 0.006479260070518918 -0.005580271405731919 0 0 0 0
20057915 0.9899985797463402 0.18817489840054424 0.0021416990474561835 -0.0029261315478388127 0 0 0 0
20058410 0.9742745725054669 0.18919561258770287 -0.0054509120444123735 0.009206027939205984 0 0 0 0
20058905 1.0064042283731314 0.1751648238835255 -0.0003083023739691715 0.003750726242535645 0 0 0 0
20059400 0.9923125711661904 0.20107233026612595 -0.006408568688169497 -0.00910826721392342 0 0 0 0
20059895 0.9894914353085524 0.181566477119865 0.0037957659455655018 -0.0023070007792093655 0 0 0 0
20060390 0.9807661789498714 0.173855902926791 0.0024772754498173996 0.006871200354660166 0 0 0 0
20060885 1.0004401732207757 0.18583661853114297 -0.004490059888010513 0.000990731993745009 0 0 0 0
20061380 1.0232426857965429 0.18563185890785774 -0.00950323331140044 0.0015996420588807643 0 0 0 0
20061875 1.0041946556981487 0.18992748366404963 -0.005914578935905817 0.0019166460716669477 0 0 0 0
20062370 0.9796503012944487 0.16888574201582093 0.002023073590611739 -3.0192501137250958e-05 0 0 0 0
20062865 1.0046810642427335 0.1763957743973023 0.006627839398569718 -0.004167796610645568 0 0 0 0
20063360 0.9727807833177186 0.171269138147413 0.006633302969021573 0.007372879001496211 0 0 0 0
20063855 0.9809353822470693 0.19078483099492657 -0.0012898159899492818 0.0004914555876689587 0 0 0 0
20064350 0.9869137952420954 0.17973802330058788 -0.0034754548732084593 0.005674787320947986 0 0 0 0
20064845 0.9872739168878902 0.19735942787459346 -0.005192698522618851 -0.0035434915448367987 0 0 0 0
20065340 0.9764730952865067 0.17193185338239966 0.01392183639942877 -0.007873203551422268 0 0 0 0
20065835 1.0047893762442381 0.1656160431089775 0.0038882591615752764 0.002472047411770106 0 0 0 0
20066330 1.0063532285742425 0.1688673700303647 0.004874472920506883 0.0018431348318386509 0 0 0 0
20066825 0.9949837212475863 0.174662211128141 -0.011631440345052806 0.0014734445907335113 0 0 0 0
20067320 1.0029194567233592 0.18090690885809432 -0.0030068029545688955 -0.003441140794622742 0 0 0 0
20067815 0.9987545602698189 0.18216745141521143 0.0046845888139971465 -0.000869361711345505 0 0 0 0
20068310 0.9805629234400438 0.16973152552042536 0.008828851266455301 0.004472044316852868 0 0 0 0
20068805 1.0014425374956142 0.18770286238436953 -0.0009316108421976798 -0.00320433591226917 0 0 0 0
20069300 0.9786845845612876 0.1919490571699696 -0.009499830315140673 0.0015082853803221855 0 0 0 0
20069795 0.967337610764748 0.20117774517584816 -0.010765827086791503 -0.0016782539488550544 0 0 0 0
20070290 0.9501751526188154 0.19079234456622987 0.007033815052272795 -0.005463972317053157 0 0 0 0
20070785 1.0035767909480129 0.1452809731234289 -0.0027853679118294674 0.002830744174859 0 0 0 0
20071280 0.9980228283886444 0.20075050235602135 0.010613926422311504 -0.004301402100111877 0 0 0 0
20071775 1.0025885349635233 0.16567465467929274 0.003072876754598701 0.0039873211610853155 0 0 0 0
20072270 0.9790898073225167 0.20419648563937629 0.004407446108484141 0.012602586276101772 0 0 0 0
20072765 0.9802163125429729 0.19110817911513445 0.00046506785201499127 0.003976704965708857 0 0 0 0
20073260 1.0072885187920217 0.1768677058018039 0.010650710823546794 -0.01493322801957691 0 0 0 0
20073755 0.9735146108165744 0.17352284338040902 0.012411777132393399 0.006515935909400229 0 0 0 0
20074250 1.0004802811279585 0.16288801968042713 -0.0029290318901467258 0.0075638273693078035 0 0 0 0
20074745 1.0106047354084968 0.2025675966324626 -0.011654328460112554 0.004067315668993054 0 0 0 0
20075240 1.016354022273361 0.1803087615689802 -0.0025842614253181475 -0.0004712342840636694 0 0 0 0
20075735 0.9921859532236742 0.17388962048072193 -0.002169101179824721 -0.004267279558376659 0 0 0 0
20076230 0.9878204055489387 0.1777998068981024 0.0027411024817164224 -0.0019978900937683976 0 0 0 0
20076725 0.9928359624796975 0.20077500569335865 0.008059583538225112 -0.0016972404856125016 0 0 0 0
20077220 0.9949737125768032 0.18115295092185532 0.004576806786676448 0.0012663456539459376 0 0 0 0
20077715 1.0240237982725429 0.15103316356773672 -0.005916603581503635 0.006862083506749562 0 0 0 0
20078210 0.9640450911512771 0.1809413738270886 -0.012064216288664976 -0.0018588801690758545 0 0 0 0
20078705 0.9851471545469044 0.19236541280452482 0.0022608934179381515 -0.003916779909242105 0 0 0 0
20079200 0.9521917880104785 0.18557812044734626 0.0029405569992496192 0.0018218610572207417 0 0 0 0
20079695 1.0141022420792545 0.15706305469702186 0.005667146265490428 0.00351019951435718 0 0 0 0
20080190 1.011502777381193 0.1851791473631211 -0.010965324631445835 0.007085831062114412 0 0 0 0
20080685 1.019213946600181 0.19678837350434475 -0.00376977034500652 -0.0012895490593879074 0 0 0 0
20081180 0.9750664772810825 0.1836727454489834 0.0076445918994108575 -0.0002830479777471092 0 0 0 0
20081675 0.9912835511022866 0.16206961107548185 -0.014082337641146246 -0.00048067982225186346 0 0 0 0
20082170 0.9695457416582066 0.16341392127224041 0.007351092741383163 0.00791239234098797 0 0 0 0
20082665 1.0109949464754897 0.15615983075131015 0.006460805795215514 0.008107168995203277 0 0 0 0
20083160 0.9878888655834792 0.19577021398192798 -0.000509477225720031 -0.0014976009550147482 0 0 0 0
20083655 0.9791601956916081 0.1841657609588216 -0.0029525025205396193 0.0002780745738084603 0 0 0 0
20084150 0.9848921801437427 0.18950837374622162 0.008461921012378902 0.0015661613119885092 0 0 0 0
20084645 0.9780354194349428 0.18545803976736722 -0.0029924204538133072 -0.010150979192963025 0 0 0 0
20085140 1.0041419849082862 0.16642449617538155 -0.004517751370887323 0.0033680570149994325 0 0 0 0
20085635 0.9903860337014821 0.18094825008957804 -0.002205036759323037 0.009920256795252632 0 0 0 0
20086130 0.9993387706805202 0.18870583527323836 0.0020562249019268914 -0.003530827655190638 0 0 0 0
20086625 0.9959460535318343 0.1849182938012559 -0.01570268578015372 -0.006893927801256041 0 0 0 0
20087120 0.9734951110821018 0.17438849775251644 0.00345637277323346 0.0006109750097134254 0 0 0 0
20087615 0.9974707943461941 0.17271298431127746 0.0046030507772212 0.001978169858113244 0 0 0 0
20088110 0.9856195571738267 0.16794686262508524 0.0029820796938614053 0.010073591576376656 0 0 0 0
20088605 1.008346547742198 0.18516156835435718 -0.011457076658217005 0.004673453779665941 0 0 0 0
20089100 0.9806467773439606 0.17767957912065407 -0.012103494804900264 -0.0077133651916623126 0 0 0 0
20089595 0.9846055808104621 0.19158917951907337 -0.001734361512282457 -0.00264533219637389 0 0 0 0
20090090 0.9856402823957207 0.17823808006392755 0.009937784566091384 0.00936268277370303 0 0 0 0
20090585 1.0006978051888233 0.17368342341445836 -0.0015819432392041308 0.007320775082578232 0 0 0 0
20091080 1.0034079593080507 0.1734974247697928 0.0012057671863331138 0.004664193489706832 0 0 0 0
20091575 0.9888107435583691 0.17814610464778216 -0.014830486787851154 0.01177001564803742 0 0 0 0
20092070 0.9714082504684096 0.17475653724211576 -0.012571538198104748 -0.0010318206331200396 0 0 0 0
20092565 0.9924133505542585 0.17714473671986725 0.004670184455896408 -0.004533672459232737 0 0 0 0
20093060 0.9965455480958306 0.17296233137165345 -0.0004381518698875385 0.01645805902640355 0 0 0 0
20093555 1.0093307775479519 0.18234748572473797 -0.0035788962138046942 0.00261319957609213 0 0 0 0
20094050 1.009246001977261 0.19843601608576264 -0.005585263182291611 0.005068006611476114 0 0 0 0
20094545 0.9859429315351191 0.19393631814080162 -0.005670944204643778 0.0007761239215123244 0 0 0 0
20095040 0.9944368151147703 0.17965209644019317 0.012966033055107353 -0.009892443376867701 0 0 0 0
20095535 0.9838278893456007 0.169628074094166 -0.004115196491515831 -0.0072414297630170625 0 0 0 0
20096030 0.9983661571001508 0.16541366250785472 0.007911118819457129 0.0059275664258368966 0 0 0 0
20096525 1.000215076562921 0.17896209027428323 -0.0072568489077123365 0.0013712059198947642 0 0 0 0
20097020 0.9812640339167769 0.19251788001410525 0.0022460529794172835 -0.009159467645454923 0 0 0 0
20097515 0.9964250344691806 0.21180043712011914 0.0024955373147966466 -0.008527575318358873 0 0 0 0
20098010 0.9829769772644499 0.17752303957373922 0.002253799150678112 -0.00028016172894312875 0 0 0 0
