# HZ S RI R 50
20000000 0.976352881351724 0.1726874241100903
20000495 0.9812702100872507 0.1941546347716641
20000990 0.993427556016948 0.17882035697247448
20001485 1.011941754708235 0.17561917384066875
20001980 0.9828998740093515 0.18108729991956485
20002475 1.006506165952879 0.18297158929384433
20002970 0.9903846432733774 0.1775422096732869
20003465 0.9998762765254409 0.1766033216782387
20003960 0.9892857088887798 0.1881328360848306
20004455 0.9927637129390755 0.17067341202800634
20004950 0.9877771319422785 0.1767656615018236
20005445 0.994255305284555 0.17432940860520202
20005940 0.9933825761822569 0.17057240031640214
20006435 1.0002774109993562 0.19382620724844274
20006930 0.9814493615759301 0.18535886710495197
20007425 0.9830917665998652 0.16165131726091816
20007920 0.9911512412587794 0.18077404315362003
20008415 0.9980032895284594 0.1812782959412005
20008910 0.9891386570821442 0.1772309891545919
20009405 0.9996101239763241 0.16442430198971042
20009900 1.0023535070955496 0.18821317030803994
20010395 0.9912470632209273 0.19135345903854276
20010890 0.9693968862834651 0.1683623023909108
20011385 1.0000697352547823 0.18969846042698724
20011880 1.003059879444038 0.18347389407858594
20012375 1.008784211864159 0.186389226142012
20012870 0.9973047224972875 0.1799219135658257
20013365 0.978263121079991 0.17588522243162735
20013860 0.9765713011431767 0.17943658015088618
20014355 0.9869627881148245 0.1720386619862172
20014850 0.9796683261359737 0.20635722457664948
20015345 0.9913131339152322 0.18377016211271552
20015840 0.9879020302322337 0.1965963762997149
20016335 0.9815863755496049 0.18266575754358386
20016830 0.9977890250351472 0.1780535914143497
20017325 0.9899845856557075 0.16948732665598668
20017820 0.9725905019919739 0.18548639992614227
20018315 0.9959707733189939 0.17175877268627487
20018810 0.9832839582064747 0.17596689839029048
20019305 0.9934599953765868 0.18879434636613499
20019800 1.0028944761481093 0.18303909488761197
20020295 0.9851428446339608 0.18309746813649877
20020790 0.9867965826855774 0.18383318892946454
20021285 0.9823939860521692 0.1836069110228198
20021780 0.9887726243862536 0.19497171766075713
20022275 0.9925692709936028 0.1853321884695273
20022770 0.9899024629373231 0.1825384200536081
20023265 0.9762412480455053 0.16646507691852813
20023760 1.0000463918913631 0.19748154378214197
20024255 0.9928226741986179 0.1786625814215728
20024750 0.9870126976567953 0.17466428997778988
20025245 0.9942094905610948 0.17754534990800913
20025740 1.030080597561471 0.18372322299143398
20026235 0.9825837450643528 0.1761084398409167
20026730 0.9815776809595312 0.1687604560429751
20027225 1.017645067476279 0.17669477606692716
20027720 0.9912284158144196 0.17373045853912802
20028215 1.007218453675596 0.18220827923239544
20028710 0.9803133958606369 0.1793837851079926
20029205 1.001048231550485 0.15673155810616987
20029700 0.9835495199006692 0.17092868777216724
20030195 0.9973058390957396 0.13940441979309942
20030690 0.9896425192200172 0.17322255130398032
20031185 0.9971652461551497 0.18250504669820516
20031680 1.0061471339627135 0.19622309016637138
20032175 0.9925414703250467 0.17738833013721722
20032670 0.9660827001856269 0.1641496462594627
20033165 1.0036381060886232 0.17792256270207754
20033660 1.007571127458958 0.1925892880679773
20034155 1.0016184062316693 0.18091792815911295
20034650 0.9756256078244272 0.16490285384393882
20035145 0.9871117172692737 0.18310426421574558
20035640 1.0022267856503986 0.16886952558335142
20036135 0.9781034871234343 0.14905894615597018
20036630 0.985624478911194 0.16449639737425817
20037125 0.9985688731501812 0.18828331883830196
20037620 0.9934480418484262 0.16117464089052516
20038115 0.9978122641905512 0.1617826087175924
20038610 1.0000254278992622 0.1798166055475525
20039105 1.0055478374180866 0.1553501118806848
20039600 0.9808015863916576 0.2278917753814003
20040095 1.0105571928379466 0.20141150947399242
20040590 0.9858194817744118 0.17304145404177346
20041085 0.9748654236293502 0.17660548170953463
20041580 0.9842592923706861 0.15951129513020493
20042075 0.9876218142948704 0.19564431725009612
20042570 0.9938382858321394 0.19497723234581607
20043065 1.0023606516540713 0.18198292846307912
20043560 0.9687118443093077 0.17356181925249556
20044055 0.9867071015835213 0.1952667276061484
20044550 0.990431841633154 0.1823961871352729
20045045 1.0016149117006896 0.1617848004080144
20045540 0.9816379912223925 0.16977319388330148
20046035 0.9998846547963234 0.17513103540877054
20046530 1.0031851093486746 0.1730356807565216
20047025 0.9923615677369602 0.1866340429556166
20047520 1.002738417763529 0.18667096703976635
20048015 0.9999218922276973 0.18985774210163608
20048510 0.9908519290721186 0.1826496285180725
20049005 0.9933614514755845 0.18008279250392722
20049500 1.0008671143519627 0.1722925893595091
20049995 1.003423653307918 0.166734840178935
20050490 0.9790915387880484 0.17551737842500234
20050985 0.9945085187486227 0.18324200760710735
20051480 0.9942998159681009 0.1626537039777216
20051975 0.9863583236317146 0.17706674312323548
20052470 0.9918198837366855 0.18719896692751206
20052965 0.9980924681128795 0.16763843036583947
20053460 1.0021393907497431 0.17448360192438542
20053955 0.9770583166365763 0.1680288745708157
20054450 0.9985095309886697 0.1849743091582605
20054945 0.9815935778371224 0.17797791635722554
20055440 0.9824592706342852 0.1777023315826109
20055935 0.9759236463059301 0.18390291820192117
20056430 1.0045450427352558 0.19458332150361482
20056925 0.9738258145542247 0.18050986370327354
20057420 1.0016562217148257 0.16822368526213125
20057915 0.9899985797463402 0.18817489840054424
20058410 0.9742745725054669 0.18919561258770287
20058905 1.0064042283731314 0.1751648238835255
20059400 0.9923125711661904 0.20107233026612595
20059895 0.9894914353085524 0.181566477119865
20060390 0.9807661789498714 0.173855902926791
20060885 1.0004401732207757 0.18583661853114297
20061380 1.0232426857965429 0.18563185890785774
20061875 1.0041946556981487 0.18992748366404963
20062370 0.9796503012944487 0.16888574201582093
20062865 1.0046810642427335 0.1763957743973023
20063360 0.9727807833177186 0.171269138147413
20063855 0.9809353822470693 0.19078483099492657
20064350 0.9869137952420954 0.17973802330058788
20064845 0.9872739168878902 0.19735942787459346
20065340 0.9764730952865067 0.17193185338239966
20065835 1.0047893762442381 0.1656160431089775
20066330 1.0063532285742425 0.1688673700303647
20066825 0.9949837212475863 0.174662211128141
20067320 1.0029194567233592 0.18090690885809432
20067815 0.9987545602698189 0.18216745141521143
20068310 0.9805629234400438 0.16973152552042536
20068805 1.0014425374956142 0.18770286238436953
20069300 0.9786845845612876 0.1919490571699696
20069795 0.967337610764748 0.20117774517584816
20070290 0.9501751526188154 0.19079234456622987
20070785 1.0035767909480129 0.1452809731234289
20071280 0.9980228283886444 0.20075050235602135
20071775 1.0025885349635233 0.16567465467929274
20072270 0.9790898073225167 0.20419648563937629
20072765 0.9802163125429729 0.19110817911513445
20073260 1.0072885187920217 0.1768677058018039
20073755 0.9735146108165744 0.17352284338040902
20074250 1.0004802811279585 0.16288801968042713
20074745 1.0106047354084968 0.2025675966324626
20075240 1.016354022273361 0.1803087615689802
20075735 0.9921859532236742 0.17388962048072193
20076230 0.9878204055489387 0.1777998068981024
20076725 0.9928359624796975 0.20077500569335865
20077220 0.9949737125768032 0.18115295092185532
20077715 1.0240237982725429 0.15103316356773672
20078210 0.9640450911512771 0.1809413738270886
20078705 0.9851471545469044 0.19236541280452482
20079200 0.9521917880104785 0.18557812044734626
20079695 1.0141022420792545 0.15706305469702186
20080190 1.011502777381193 0.1851791473631211
20080685 1.019213946600181 0.19678837350434475
20081180 0.9750664772810825 0.1836727454489834
20081675 0.9912835511022866 0.16206961107548185
20082170 0.9695457416582066 0.16341392127224041
20082665 1.0109949464754897 0.15615983075131015
20083160 0.9878888655834792 0.19577021398192798
20083655 0.9791601956916081 0.1841657609588216
20084150 0.9848921801437427 0.18950837374622162
20084645 0.9780354194349428 0.18545803976736722
20085140 1.0041419849082862 0.16642449617538155
20085635 0.9903860337014821 0.18094825008957804
20086130 0.9993387706805202 0.18870583527323836
20086625 0.9959460535318343 0.1849182938012559
20087120 0.9734951110821018 0.17438849775251644
20087615 0.9974707943461941 0.17271298431127746
20088110 0.9856195571738267 0.16794686262508524
20088605 1.008346547742198 0.18516156835435718
20089100 0.9806467773439606 0.17767957912065407
20089595 0.9846055808104621 0.19158917951907337
20090090 0.9856402823957207 0.17823808006392755
20090585 1.0006978051888233 0.17368342341445836
20091080 1.0034079593080507 0.1734974247697928
20091575 0.9888107435583691 0.17814610464778216
20092070 0.9714082504684096 0.17475653724211576
20092565 0.9924133505542585 0.17714473671986725
20093060 0.9965455480958306 0.17296233137165345
20093555 1.0093307775479519 0.18234748572473797
20094050 1.009246001977261 0.19843601608576264
20094545 0.9859429315351191 0.19393631814080162
20095040 0.9944368151147703 0.17965209644019317
20095535 0.9838278893456007 0.169628074094166
20096030 0.9983661571001508 0.16541366250785472
20096525 1.000215076562921 0.17896209027428323
20097020 0.9812640339167769 0.19251788001410525
20097515 0.9964250344691806 0.21180043712011914
20098010 0.9829769772644499 0.17752303957373922
20098505 1.000502373755383 0.17895907795873553
20099000 0.9948731213539548 0.17005732176579166
20099495 0.9922911857408965 0.2080352279764013
20099990 1.0017035044114853 0.18395312736696445
20100485 0.9715413876362442 0.20353459936020193
20100980 0.9983208612811346 0.18150939805966784
20101475 0.9869215036402117 0.18620635989361137
20101970 0.9779730141785264 0.18577749755591952
20102465 0.9797630843279422 0.17159791208307795
20102960 0.9901986704219317 0.1704502011926886
20103455 0.9801329695416368 0.1631033140042863
20103950 0.9708766502024819 0.1764313512643054
20104445 1.0174326446523978 0.1648525119662777
20104940 0.9831670055804869 0.1620296963831611
20105435 1.0068575080981967 0.19485887283254635
20105930 0.9781318215014642 0.18837541273791053
20106425 0.970153394167386 0.18319479775191655
20106920 0.9734554078347926 0.16895860597496554
20107415 0.9948235713182666 0.17407951376369116
20107910 0.9982336906797238 0.2102505585342188
20108405 0.9765020765752167 0.18592885551411997
20108900 0.9893236657256883 0.13677326045403154
20109395 1.0027580968947243 0.17959809944014282
20109890 0.9941391996016657 0.20467216851518485
20110385 0.9957941834410714 0.20655939507564186
20110880 0.988024084400449 0.1874834099377381
20111375 0.9752496026426875 0.17012792294805343
20111870 0.9781145754079977 0.1735036436619608
20112365 1.00320809742329 0.1683117663700451
20112860 0.9978945567973007 0.17559496235107563
20113355 0.9726259969561036 0.1951402090079784
20113850 0.98352832433245 0.16893237019734936
20114345 0.984463303189363 0.19533495604570675
20114840 0.9982761262008576 0.1597863486716237
20115335 0.9965134988950874 0.18018481137679968
20115830 0.9981988912870333 0.19732545827943987
20116325 0.9944245401260927 0.18606246429807463
20116820 0.9840812631253988 0.1967205716598548
20117315 0.9935640374691639 0.1887146520568269
20117810 0.9841656652150379 0.16559217364564335
20118305 1.0005475363306022 0.1724186869816285
20118800 0.991988135204908 0.20782152656791916
20119295 1.0051205929824454 0.217234945563874
20119790 0.971633033638402 0.15931753164787443
20120285 1.0163402531778813 0.20937762218189382
20120780 1.016114955473333 0.2041774124232071
20121275 1.0017962214950171 0.20605060919066026
20121770 0.9979181971789212 0.18320520323916129
20122265 1.0106451026205263 0.2082291179964747
20122760 0.9746713969779708 0.17637502269839705
20123255 0.9924424429416331 0.19326942245410508
20123750 1.007384471169729 0.16695752217432913
20124245 1.0028812830752039 0.17101509479531465
20124740 0.9817329204173391 0.1757623207064798
20125235 0.9926769717400075 0.1736275510010185
20125730 0.9721175583352307 0.17748108990894224
20126225 1.0132729919782864 0.18426210233146886
20126720 0.9933820446903385 0.16500812542515095
20127215 1.0029653800970473 0.18813479147604595
20127710 0.9816388386203143 0.16531839456019273
20128205 0.9872511275526343 0.18039608613165029
20128700 0.9908991197971573 0.17704259044076287
20129195 0.9892648771380593 0.17985457662695284
20129690 0.9918456789366648 0.19279716488031454
20130185 0.9970779646901552 0.17504019632261278
20130680 0.9726737530496836 0.17724269897326622
20131175 0.9767160174644722 0.14489573137446693
20131670 1.007660707618473 0.17107036043496143
20132165 1.0014612120656494 0.17657837863315085
20132660 0.998988607216204 0.18579109429637086
20133155 0.9947451439717978 0.16976226114474935
20133650 0.9848594309906454 0.16587935057971287
20134145 1.0028459026572447 0.1640466697904862
20134640 0.9852153437578578 0.17664689585014334
20135135 1.0001491822295374 0.17096692753760062
20135630 0.9919143976601112 0.1590054962199175
20136125 0.9809480963974437 0.17668219038985045
20136620 0.9873968544245609 0.16987996898536145
20137115 1.002236396405389 0.18574420941644254
20137610 1.0213799897578066 0.18765189773479923
20138105 0.993956256906494 0.18864023269539748
20138600 1.0034996651034147 0.18435591502959034
20139095 0.9787491026232372 0.1888791809266718
20139590 0.9950194870060391 0.17542845598319642
20140085 1.009264333133314 0.17545032698007182
20140580 1.005021505302479 0.16386774412073757
20141075 0.9800521943581452 0.18092467195305237
20141570 0.9819530198830285 0.16949034613985178
20142065 0.980999888934967 0.1694739138713058
20142560 1.0005246074682128 0.15167170009969907
20143055 1.004040650471883 0.18248999874492683
20143550 0.9798074594718923 0.17630422584538963
20144045 1.0073579078281776 0.15923451658077936
20144540 0.9759753702870516 0.18000917530618657
20145035 0.986247606364109 0.1890126705283205
20145530 1.0011690239875557 0.16356925350384213
20146025 0.9931209043351491 0.16641273684975846
20146520 1.0099221347005929 0.16817417061355966
20147015 0.9883559580755761 0.17120219583344642
20147510 0.9907216189633362 0.17105834642471807
20148005 1.010937328806958 0.1746806169943242
20148500 0.9851329721725187 0.15650990798586104
20148995 0.991035448409229 0.17953740645328192
20149490 1.0136157074941292 0.17446059502018058
20149985 0.9362845079978966 0.12904214740446027
20150480 1.0137755677098825 0.15204183543007352
20150975 0.9778411357891873 0.14986843580411002
20151470 0.988185799739952 0.1814396860692972
20151965 1.0015023058495445 0.17582320956403164
20152460 0.9764070685784169 0.18947915142778785
20152955 0.993943041827375 0.1575153116575361
20153450 0.9918237467910455 0.1868184403444187
20153945 0.9898114967093731 0.19078379103734172
20154440 1.0023329560277445 0.18516750382837285
20154935 0.9886978000385713 0.18589085421848717
20155430 0.9879756861255389 0.14889642104467965
20155925 0.9973329883532376 0.1572722103455528
20156420 0.9845402775424688 0.17684035177864604
20156915 1.0264848432987812 0.1772244541917369
20157410 0.9691849079600837 0.19863787384509857
20157905 0.9833043432430778 0.18138832249407816
20158400 0.9962470646287693 0.1945283645995247
20158895 1.0016400534044008 0.19417072418740647
20159390 0.9855010169223625 0.1671558959724902
20159885 1.014809915919381 0.1589447302061361
20160380 0.922884124917927 0.15874798180479682
20160875 0.9748263766906261 0.12381424713510318
20161370 1.036627278032459 0.1679859620690894
20161865 1.013192064704759 0.19114594143221644
20162360 1.0190036083066236 0.15898529089651847
20162855 1.0159028354079749 0.17499858221374945
20163350 0.9943807861249196 0.16928542736949176
20163845 1.0018732617741113 0.18059868358919892
20164340 0.993499149307889 0.20492015303151606
20164835 1.0078003505537296 0.20921942485314507
20165330 0.9910269885202376 0.17056193509090523
20165825 1.0038023044128361 0.23000433847039173
20166320 0.9922931760684977 0.1883773767638775
20166815 1.0515755050625268 0.1728284023393919
20167310 0.9919285942547753 0.1702739273615002
20167805 0.9792021748347612 0.1850125953023792
20168300 1.0166201370993087 0.1538030065281428
20168795 1.0012653316356508 0.1338085486474226
20169290 0.9460127107751903 0.1578944248484347
20169785 0.9908853127517584 0.19200922276233362
20170280 0.9804192811955129 0.1986107719412373
20170775 0.9881942877525715 0.17754611485683702
20171270 1.0189010907143996 0.166935025019281
20171765 1.0111107481942851 0.14994612435385715
20172260 1.0046424063919699 0.11148162370277025
20172755 0.9850384653802924 0.16417126026716453
20173250 1.009449594741655 0.18194658978509032
20173745 0.9837381008411284 0.20273166156693606
20174240 0.9771682805967808 0.1787176262589861
20174735 0.9685377816639779 0.1872126910061376
20175230 0.9771110877687308 0.1738925890661911
20175725 1.0195245203604935 0.18526870453527788
20176220 0.9835522440207627 0.1396588145371357
20176715 0.997239073331806 0.14926995567594337
20177210 0.9912861175403667 0.21401939839943424
20177705 1.026472344095762 0.16625136700808849
20178200 0.9940728824114515 0.17700312287993603
20178695 0.9577182223220441 0.1634599406446586
20179190 1.0004703169561648 0.18661281293986096
20179685 0.9632320381641923 0.18788664828433813
20180180 1.0097746422666132 0.16928221706615532
20180675 0.9901038089013995 0.1695904959873013
20181170 1.0033243802439433 0.1737821244712003
20181665 0.9773426413047112 0.1700519957914799
20182160 1.0033010244407612 0.16998161299670245
20182655 0.9686523767613514 0.1274662448003631
20183150 1.0015355069758214 0.14074615168500618
20183645 0.965208222753067 0.16913904151321585
20184140 1.000671343569181 0.1679790343962577
20184635 0.9775604757086794 0.17862458386457977
20185130 0.9885704988640589 0.1737793606100793
20185625 1.0220201412238539 0.16060323597661108
20186120 0.9850612918509096 0.1933796044059324
20186615 0.9933835907899945 0.17176826692377423
20187110 0.9584945958090725 0.1467389994723696
20187605 0.9931967657438218 0.1707290600794083
20188100 0.9652537386196537 0.17122564643641291
20188595 0.9655784741943311 0.16606311106581007
20189090 1.0121792634166995 0.1615244056215568
20189585 0.9696085335978002 0.15192610348062083
20190080 1.0066158921400152 0.22142937469298124
20190575 1.0151760749940466 0.20741923404966006
20191070 0.9979351294571622 0.17581978579220278
20191565 0.9967962112042278 0.1756411007998711
20192060 0.9820435348816264 0.16025400275280627
20192555 1.000595751594055 0.15826181922553098
20193050 1.0055079794953345 0.17751478238365917
20193545 0.988063429268462 0.16088084274085274
20194040 0.9682012152386164 0.1649439172489372
20194535 0.9882176746990564 0.1980931823061639
20195030 0.9826950721391833 0.17602133196534686
20195525 0.9643197233514765 0.20491481388203628
20196020 0.9715261234294911 0.16447717125416114
20196515 0.9869876625612222 0.17155311479047577
20197010 0.9982871010609939 0.16650885551380318
20197505 1.004960344349499 0.19456655928815922
20198000 0.9955573134677427 0.17574964676672103
20198495 0.9851277869923385 0.1809041283178219
20198990 0.981141697780836 0.16965483122135835
20199485 1.0079209882264508 0.1948066454160988
20199980 1.0363689461882 0.10616210767098345
20200475 1.032633170573928 0.19191688631113435
20200970 0.9817789561917308 0.1615852393114908
20201465 0.9929309580054657 0.1730975200841908
20201960 0.9688650249351883 0.1747157356101575
20202455 0.9880286550362726 0.1680254598959419
20202950 0.9921491305353969 0.19383554961233462
20203445 0.9913747805006022 0.18904507575506324
