# HZ S RI R 50
30000000 0.9024617606340793 -0.10585039823169373
30000495 0.8819533355940097 -0.10424027419821719
30000990 0.8821379477803379 -0.10134583154956732
30001485 0.8809940560353702 -0.10964055706288581
30001980 0.8802688059435043 -0.0963711075657534
30002475 0.8757349267438017 -0.09961371981184351
30002970 0.879652805494584 -0.0786345042837825
30003465 0.8690777503633693 -0.0860185371106953
30003960 0.8893688429123321 -0.11396326829604718
30004455 0.8790594815341013 -0.10554006496386124
30004950 0.8854146382753568 -0.1024692316992065
30005445 0.8880845466666759 -0.09754664713701504
30005940 0.8822068186319981 -0.09400885503831186
30006435 0.8983403121495231 -0.114128592469811
30006930 0.88029789754089 -0.10358493043019167
30007425 0.889524337233894 -0.09074573481798563
30007920 0.8824720010815384 -0.10519154375509551
30008415 0.8885882616611891 -0.10144233324400165
30008910 0.8786145511700287 -0.09483066472015696
30009405 0.8647875830773911 -0.097830160748081
30009900 0.889090126030076 -0.10883101902719844
30010395 0.8832765695335743 -0.10536382127557058
30010890 0.8847559775322591 -0.10369882155403118
30011385 0.8789256245051641 -0.09377333579493075
30011880 0.8854968260400231 -0.10379846456382773
30012375 0.8822842402891753 -0.09588806134221955
30012870 0.8840517745443435 -0.10646775641246888
30013365 0.8890369584385683 -0.10287251322770893
30013860 0.8884001036066592 -0.09825251517980395
30014355 0.8869622317439987 -0.08648050345683128
30014850 0.882249374230639 -0.10204673697695975
30015345 0.8840634700231844 -0.10783534318088457
30015840 0.8707404819034071 -0.0975193245326959
30016335 0.8809495800398556 -0.10048421184459097
30016830 0.888771436074473 -0.10757776550368531
30017325 0.8828899572701343 -0.09229377810080774
30017820 0.8774811839660881 -0.10306017969447899
30018315 0.8831702836127469 -0.09618904128280258
30018810 0.8837349933720567 -0.09771623593544572
30019305 0.879167278808458 -0.08848983774353975
30019800 0.882591319287122 -0.09638422864331384
30020295 0.8933579693568847 -0.10438312465057464
30020790 0.8899148290512919 -0.10178277902186239
30021285 0.8911475289535996 -0.11108563088011122
30021780 0.888975176355089 -0.09726465614813878
30022275 0.8748830345194414 -0.08632924981685347
30022770 0.8718178778437469 -0.0955348667756852
30023265 0.8881713544199795 -0.104207891092328
30023760 0.8892583702446615 -0.10610779894635723
30024255 0.8826187956626956 -0.11259324263217291
30024750 0.8646485471781614 -0.10767331977034109
30025245 0.8857134378933047 -0.09884398688195638
30025740 0.8764048632811428 -0.10703733123839891
30026235 0.8790322408317273 -0.09492682370964607
30026730 0.8915958916729809 -0.08809759640121213
30027225 0.883985739485216 -0.09641248612049871
30027720 0.8832992172087372 -0.09009374135849642
30028215 0.8740893389616954 -0.10038000169105063
30028710 0.8760295421176848 -0.10766808276746778
30029205 0.8802143937588538 -0.11012085943122049
30029700 0.8840525259260534 -0.09240836119052111
30030195 0.8914318988224237 -0.09700748455576312
30030690 0.8843078897137274 -0.11462649636578286
30031185 0.8740958084925734 -0.09985993830211588
30031680 0.8835730979423517 -0.1150521089162251
30032175 0.89095849081696 -0.09716835457134163
30032670 0.8722857745059263 -0.10983057727558156
30033165 0.8902233242978944 -0.09539140537903344
30033660 0.8841243855336223 -0.09769217744259946
30034155 0.8724385343175767 -0.09681473547957367
30034650 0.8998798457739261 -0.1092293166867808
30035145 0.874036627641709 -0.10720261171626931
30035640 0.8851160384915339 -0.08444000299990237
30036135 0.8841730841564057 -0.08637577839850098
30036630 0.8829627544787132 -0.11004143016209457
30037125 0.8921190980517778 -0.09580741215629694
30037620 0.8845556437415135 -0.09822799774235431
30038115 0.875846809009975 -0.10082035416955526
30038610 0.884470188405173 -0.09063565180819753
30039105 0.8680482854738067 -0.08970733663094657
30039600 0.8885471719886501 -0.10544839365905247
30040095 0.8806353370415105 -0.09635142743665326
30040590 0.8749756468942662 -0.09485356617232474
30041085 0.8735382070534526 -0.10092628356645991
30041580 0.8727071938493232 -0.10572729821578379
30042075 0.8946558169771055 -0.11078790556802304
30042570 0.882794416781959 -0.11275042273322344
30043065 0.8859631788642982 -0.08423751738638499
30043560 0.8799587949560461 -0.09311480670183082
30044055 0.8786832212508707 -0.09970173269248642
30044550 0.8824390207665586 -0.11371390581577413
30045045 0.8888836292704713 -0.11099177435873096
30045540 0.8973488088759818 -0.09972611457445761
30046035 0.8923066028695457 -0.08253804648144308
30046530 0.8797987926200593 -0.09296785487023151
30047025 0.8681644501807481 -0.10328640819200222
30047520 0.8890210011575648 -0.112005884939318
30048015 0.8852900421660684 -0.10517423313741796
30048510 0.8871671390515949 -0.09676813739250491
30049005 0.8913713683858504 -0.09335788659582947
30049500 0.882626669316787 -0.0966784468188992
30049995 0.874912946139524 -0.0936393950551023
30050490 0.8892853920116777 -0.11005486617362094
30050985 0.8913615966434995 -0.10162344191660541
30051480 0.897399486065215 -0.09236549126447258
30051975 0.8966713002575893 -0.09464246188956582
30052470 0.883640581879547 -0.09289743313895567
30052965 0.8876702264616417 -0.1048203417882014
30053460 0.8804621598219273 -0.10077213336035473
30053955 0.8826950160518308 -0.1026454813839149
30054450 0.8898817429555744 -0.09360232134820833
30054945 0.8771460356261324 -0.09747905338408683
30055440 0.8816902152167478 -0.09765315633276979
30055935 0.8885703022338652 -0.10388292170794693
30056430 0.8813607221351001 -0.09481322326135348
30056925 0.8837809397068014 -0.09199942575410447
30057420 0.8828788671023116 -0.10012967091030787
30057915 0.8899237201572751 -0.09572873691073579
30058410 0.8893061706817957 -0.09927227029018536
30058905 0.8861722936726458 -0.10413876876564614
30059400 0.8944427202155387 -0.0977401614591103
30059895 0.8854436625307359 -0.08673972407235955
30060390 0.8835449470211705 -0.10210884134651782
30060885 0.8834191553863032 -0.10768705526133045
30061380 0.8806584580446096 -0.09750302391002202
30061875 0.8952057226276575 -0.07761531362919007
30062370 0.897487855938125 -0.10103329383842863
30062865 0.8846509649505899 -0.08516832528247006
30063360 0.8861327065422113 -0.10172823856462528
30063855 0.8844054720783524 -0.11067183885969185
30064350 0.8881957522425473 -0.10692254095443218
30064845 0.8879348473560029 -0.08537551571134383
30065340 0.8912431817794131 -0.08526654470514244
30065835 0.8907543064763539 -0.1016801772050277
30066330 0.8848448599866493 -0.09280939379323633
30066825 0.9041042230839567 -0.10499518122979208
30067320 0.8855063978413622 -0.09677653368824593
30067815 0.8828630841952815 -0.09111658930069244
30068310 0.882322024592401 -0.08354362372474158
30068805 0.8794848647739166 -0.08466386520272867
30069300 0.8825689142136235 -0.102589761378478
30069795 0.8931750485194943 -0.08607135255643648
30070290 0.8967763283095813 -0.11679300582607581
30070785 0.9025540251606209 -0.0954892550402506
30071280 0.883022864373175 -0.09436106354344888
30071775 0.8866589844348086 -0.09906030636649236
30072270 0.8953799946530923 -0.10523951184486127
30072765 0.8909027615162874 -0.09439922452800013
30073260 0.8811762638390587 -0.09220627701563981
30073755 0.8867930124346637 -0.09753163393970714
30074250 0.888114358799335 -0.0891230745655614
30074745 0.8939576698504613 -0.09904737391388323
30075240 0.9117275170190519 -0.09925399983783433
30075735 0.8996702944699086 -0.09839439060296394
30076230 0.8883533986606852 -0.08570823206714698
30076725 0.886566900577632 -0.09314606307841805
30077220 0.8850330651838447 -0.08577119793566176
30077715 0.8877989608817635 -0.09567845035721273
30078210 0.8998346478095595 -0.09920854714639081
30078705 0.8906883881329869 -0.09832404464856603
30079200 0.8973592516270492 -0.08611209390749902
30079695 0.8884421324972347 -0.10395121128020236
30080190 0.893460724471263 -0.09654142242809971
30080685 0.8909566495974868 -0.10798403190457975
30081180 0.8848077252363492 -0.09170470867173106
30081675 0.8925173221388831 -0.10167570109905816
30082170 0.889505638036886 -0.09807742725447023
30082665 0.892036633216255 -0.0994629357309812
30083160 0.8853006138431995 -0.09601434900092048
30083655 0.8843268895679882 -0.09298529204809344
30084150 0.8979283658179208 -0.09956696583370969
30084645 0.8937620797847587 -0.08953194995961128
30085140 0.8934862199289854 -0.09748486741274809
30085635 0.8913482972889356 -0.08506418147663056
30086130 0.8906013468177151 -0.1003358158270243
30086625 0.8880266778807626 -0.09987117497764057
30087120 0.8936449062988604 -0.10826862781619873
30087615 0.8944504966704537 -0.08277491627674208
30088110 0.8927336576627335 -0.08924721625657828
30088605 0.8859012540285471 -0.09604203851179141
30089100 0.9084473762093788 -0.09084362468244327
30089595 0.8814910469553551 -0.08543371760349823
30090090 0.8856854123571745 -0.0884254348591488
30090585 0.8936071565247857 -0.09571756691924257
30091080 0.8969327842527319 -0.11210338242614097
30091575 0.8705895798819473 -0.0994598038899447
30092070 0.8905289242211447 -0.09875835966947226
30092565 0.8734545128486467 -0.08804794427789547
30093060 0.8920580662481444 -0.1045985173472849
30093555 0.8855268531925086 -0.10266522380828069
30094050 0.8943050873619667 -0.0914592446966415
30094545 0.8750500695399699 -0.09960404779833097
30095040 0.9024207114157823 -0.10439945049778684
30095535 0.8889555463978965 -0.09602990154494245
30096030 0.8821041674565828 -0.09318999009545419
30096525 0.8862543645400193 -0.10211481261543019
30097020 0.884821679357704 -0.09501276623002587
30097515 0.8784984152216039 -0.10668989577559708
30098010 0.8677130151691236 -0.10805346680537155
30098505 0.8846177127933481 -0.09247332154629376
30099000 0.8888385218674903 -0.09644584716221051
30099495 0.8953410445475907 -0.09861075990440989
30099990 0.8978001432605826 -0.09577439513424484
30100485 0.8899237524786449 -0.10214911052812528
30100980 0.8813490909793703 -0.09924129683931243
30101475 0.8777530110035109 -0.10931947783006456
30101970 0.8835067833252046 -0.09832995195179262
30102465 0.8942660552079605 -0.09989192201223643
30102960 0.8963762580290404 -0.08863601658947119
30103455 0.8862530898385699 -0.10152536421553361
30103950 0.8807398648024173 -0.09115826904453599
30104445 0.8902861492509159 -0.10283316976212205
30104940 0.8825340832633908 -0.09897329767907108
30105435 0.8953308475960019 -0.10328737577889133
30105930 0.8895544490371428 -0.09366711381712753
30106425 0.8898007875450809 -0.10496943401150564
30106920 0.8778559164844454 -0.09922012549242244
30107415 0.9028585879975549 -0.11648629816841774
30107910 0.9005881460362368 -0.10163404218855443
30108405 0.8813390262464708 -0.10229897805888324
30108900 0.8851408653450049 -0.09839917808315096
30109395 0.8786573420311059 -0.10741210880934902
30109890 0.8674300697817936 -0.1071477789267158
30110385 0.8830517015895057 -0.10509789664223577
30110880 0.897700740432647 -0.11318730157507059
30111375 0.8850066133037858 -0.0978914156769349
30111870 0.8789386084884068 -0.09708596879769292
30112365 0.8791574031088185 -0.10124505720175256
30112860 0.8820908875886571 -0.11479378236810013
30113355 0.8840440932034408 -0.11415532101707208
30113850 0.8814708543115555 -0.11036205600642254
30114345 0.8786203268661285 -0.10215647692982274
30114840 0.884453544216763 -0.10882867638983945
30115335 0.8849131873519708 -0.10629508099622144
30115830 0.8891721953266679 -0.10035387790627498
30116325 0.8732467973592465 -0.11574658351437697
30116820 0.8826420286763859 -0.1035480729133343
30117315 0.8772805597302965 -0.09285708519274495
30117810 0.8831109540487498 -0.09417080945028634
30118305 0.8793331777344938 -0.10090558597168268
30118800 0.8819469503626314 -0.10922973138827617
30119295 0.8715234515358944 -0.11690383093201216
30119790 0.8873972557196088 -0.10278479560652871
30120285 0.8848131587083158 -0.11458292375810171
30120780 0.8717482347016987 -0.11917982905137899
30121275 0.885523750583523 -0.1142580131647612
30121770 0.8781006395282774 -0.11550512791348296
30122265 0.8659841231014997 -0.10830846085747352
30122760 0.8687127616665663 -0.10563996039840899
30123255 0.8661324809093723 -0.10327516939469472
30123750 0.8701041657825934 -0.11418656425825725
30124245 0.8789789303166299 -0.10374092477212618
30124740 0.8817346174116543 -0.1009647152744922
30125235 0.8630245269918059 -0.09947542433587546
30125730 0.8651620979477191 -0.11034179101828546
30126225 0.883616494086387 -0.0975380867203507
30126720 0.8826351232999097 -0.10146658403301775
30127215 0.8801497697149918 -0.10137282423078302
30127710 0.8878178821805377 -0.10948519030076892
30128205 0.8821301773935083 -0.10042915888106148
30128700 0.873212836695243 -0.11142153071696585
30129195 0.8933542398217211 -0.11096392694639218
30129690 0.8752044082257914 -0.11813614665491051
30130185 0.8818655866992633 -0.09828924414327002
30130680 0.8757025331262966 -0.12011027895182838
30131175 0.8795026219511556 -0.11774026246992111
30131670 0.8677306660338622 -0.09888024337385531
30132165 0.8679868784854986 -0.11795524027342354
30132660 0.8702794926851999 -0.10767594238742437
30133155 0.8764649186655357 -0.10525135766413066
30133650 0.8727012398054135 -0.10768415425003748
30134145 0.8700158703067482 -0.1152294304705969
30134640 0.8761330186222139 -0.11457419381444936
30135135 0.8717325839588633 -0.11605735666054064
30135630 0.8738951811945713 -0.11968729898476616
30136125 0.8714677406856892 -0.10255244752257393
30136620 0.8773024376390817 -0.11281395145772624
30137115 0.8849309494644235 -0.10243935475434189
30137610 0.8740019035849592 -0.1211661570538451
30138105 0.870987203725536 -0.09330270753670854
30138600 0.8833572187933543 -0.10419633330767099
30139095 0.8802661156441787 -0.11712603810894553
30139590 0.887185117051598 -0.11139215534771385
30140085 0.8844601928931862 -0.11525299083285966
30140580 0.8679201244903552 -0.10910580719160294
30141075 0.866600139795938 -0.11269973679675016
30141570 0.8648369703022406 -0.10842888737004171
30142065 0.874148208056696 -0.11762116953302053
30142560 0.8631244489945179 -0.1160061069744048
30143055 0.8719919315883272 -0.11870785529697238
30143550 0.8790880775327891 -0.1141217682676108
30144045 0.8710452947958436 -0.10357103037925319
30144540 0.87197281661431 -0.12149460248431095
30145035 0.8765505975919918 -0.11137319939293323
30145530 0.8749373991768428 -0.0965254975616299
30146025 0.8846771404129813 -0.11712550324797152
30146520 0.876896432227189 -0.12127568967231556
30147015 0.8907373563138774 -0.11026186798933875
30147510 0.865570073874206 -0.10869672319468246
30148005 0.8669295578014944 -0.13030845143357025
30148500 0.8850691540613205 -0.12112766437521508
30148995 0.8747968989024314 -0.11077575199812903
30149490 0.8777225381715055 -0.10454996685411322
30149985 0.8791597501193607 -0.09837897306486236
30150480 0.8692652808725051 -0.1156722633910169
30150975 0.8786420057011115 -0.11861419073309173
30151470 0.8766842088791608 -0.11348294905028404
30151965 0.8632093767097173 -0.10646062685681236
30152460 0.8704392722682827 -0.11085378858766558
30152955 0.869960023354872 -0.10592328211638333
30153450 0.8734254377619296 -0.11537822620025692
30153945 0.8749248082920205 -0.1072362512250142
30154440 0.8632165021475011 -0.11442848835821048
30154935 0.868333174420181 -0.11326146075044047
30155430 0.8888902870597242 -0.10031034506542127
30155925 0.8705570905925764 -0.09768479796975837
30156420 0.8770932396504307 -0.10548102604353919
30156915 0.8878420516119669 -0.10357291179945402
30157410 0.8680618782096471 -0.11985304077055121
30157905 0.8714521815061078 -0.11754408371475353
30158400 0.8606378315394587 -0.11189345173825471
30158895 0.8773145370706584 -0.11269881681122879
30159390 0.8616049744613905 -0.09897980783369997
30159885 0.8731668205226631 -0.12069619189097472
30160380 0.88037815889954 -0.12152585537922105
30160875 0.8734964661641721 -0.11571036821386115
30161370 0.8875094839130595 -0.10497417601875848
30161865 0.877410970670747 -0.1149154521107394
30162360 0.8700948470792084 -0.11493385044336552
30162855 0.8714585000303835 -0.10096424244283568
30163350 0.8826802787287948 -0.1143637115864447
30163845 0.8607123255569287 -0.10676640180965362
30164340 0.890076665666979 -0.11908509645520614
30164835 0.8691843379657994 -0.1202090564245794
30165330 0.8759842919937177 -0.10163717986502337
30165825 0.8662149173742467 -0.11436803350210438
30166320 0.8831374393813435 -0.10531740344357293
30166815 0.867567005880058 -0.10190692174112043
30167310 0.8622562901976786 -0.12245630288547546
30167805 0.8738632012600775 -0.0953480301212921
30168300 0.8839147841128269 -0.10356089389802567
30168795 0.8627462100563048 -0.10642223846899854
30169290 0.8784215357535161 -0.12159150949652907
30169785 0.869077772308684 -0.12153816698424609
30170280 0.8731428427014446 -0.10443883485075457
30170775 0.8724902633659183 -0.11819845979874001
30171270 0.8776993076040273 -0.1282548515829578
30171765 0.8766755960632592 -0.11857410238326123
30172260 0.8718349943354493 -0.11825421582243015
30172755 0.8773130725271969 -0.11791321639052375
30173250 0.8746219366353409 -0.10065007549135331
30173745 0.8677061371302942 -0.11448406112978261
30174240 0.870560140819387 -0.10245371217618818
30174735 0.8688974689930843 -0.11116389285161984
30175230 0.8825189112667287 -0.11108425713367821
30175725 0.8663234648228971 -0.10458916762856206
30176220 0.8677754680016367 -0.1102855295248482
30176715 0.8768594177043164 -0.10895363969206569
30177210 0.8657018661280693 -0.11364319629805737
30177705 0.8811449934732022 -0.10618753862921651
30178200 0.8835989198291722 -0.11013743162049093
30178695 0.8730756557955485 -0.10600926598350083
30179190 0.8827065698769789 -0.11120308498812959
30179685 0.8652096961447454 -0.1200507934571368
30180180 0.8872276412576092 -0.12680290332785485
30180675 0.8632476649411347 -0.11052306402177814
30181170 0.8767310951885069 -0.10741830307378465
30181665 0.8645335453470396 -0.10229506200614291
30182160 0.858015774173763 -0.11526132307718996
30182655 0.8655315369072991 -0.09769793741697083
30183150 0.8764182397028103 -0.10043036878627146
30183645 0.8784598933236191 -0.11256736585832376
30184140 0.8723733456708425 -0.09128495724459668
30184635 0.8706389941427585 -0.10548479575353913
30185130 0.8725559899555299 -0.11839311409072725
30185625 0.8707288542678274 -0.11496259929292145
30186120 0.8760556507684814 -0.10809901544451865
30186615 0.8811841137567558 -0.109650737261536
30187110 0.8809890184527321 -0.1021188391786531
30187605 0.8646153795170035 -0.10395524372672622
30188100 0.8722291714180125 -0.10435260101753643
30188595 0.873429808973678 -0.10253732372356421
30189090 0.8798700109007415 -0.11165001964182143
30189585 0.8751366966787282 -0.10387046313075603
30190080 0.8727198123805775 -0.10070541303463924
30190575 0.8702704276849221 -0.11119511939107922
30191070 0.8699838486188448 -0.11544745768522363
30191565 0.8669512375092157 -0.11744848832269754
30192060 0.8653857984929801 -0.11599622865530261
30192555 0.8733451310796506 -0.1122715869952186
30193050 0.8724211668611053 -0.09867637931207676
30193545 0.8683446749365004 -0.10356136728793557
30194040 0.8680810678559434 -0.10595725169299598
30194535 0.87251268677749 -0.09320638405193289
30195030 0.8757855227967679 -0.1088268368282246
30195525 0.8730982113431259 -0.10972194978863929
30196020 0.8628375351271655 -0.10291591043819473
30196515 0.8638263507151074 -0.10649600943666179
30197010 0.8669082453155599 -0.10614094201308827
30197505 0.8790341667147187 -0.10810063574758612
30198000 0.8854194957989392 -0.10174038817700122
