# HZ S RI R 50
30000000 0.9024617606340793 -0.10585039823169373 0.004868894 -0.001172874 0 0 0 0
30000495 0.8819533355940097 -0.10424027419821719 -0.003143007 0.001445819 0 0 0 0
30000990 0.8821379477803379 -0.10134583154956732 0.001975448 0.003402295 0 0 0 0
30001485 0.8809940560353702 -0.10964055706288581 0.005675152 -0.005102142 0 0 0 0
30001980 0.8802688059435043 -0.0963711075657534 -0.003901734 0.001636187 0 0 0 0
30002475 0.8757349267438017 -0.09961371981184351 -0.007087839 -0.014434434 0 0 0 0
30002970 0.879652805494584 -0.0786345042837825 -0.006967421 -0.00395088 0 0 0 0
30003465 0.8690777503633693 -0.0860185371106953 -0.00117589 -0.004326534 0 0 0 0
30003960 0.8893688429123321 -0.11396326829604718 0.002463423 -0.001079463 0 0 0 0
30004455 0.8790594815341013 -0.10554006496386124 -0.006907609 0.004101331 0 0 0 0
30004950 0.8854146382753568 -0.1024692316992065 0.001518557 0.002735298 0 0 0 0
30005445 0.8880845466666759 -0.09754664713701504 -0.005505193 -0.000311335 0 0 0 0
30005940 0.8822068186319981 -0.09400885503831186 0.006012546 -0.003698412 0 0 0 0
30006435 0.8983403121495231 -0.114128592469811 0.006113894 0.005068042 0 0 0 0
30006930 0.88029789754089 -0.10358493043019167 -0.010748897 0.003934277 0 0 0 0
30007425 0.889524337233894 -0.09074573481798563 0.000817089 0.007649291 0 0 0 0
30007920 0.8824720010815384 -0.10519154375509551 -0.004963305 -0.004176573 0 0 0 0
30008415 0.8885882616611891 -0.10144233324400165 -0.010518796 -0.0023077 0 0 0 0
30008910 0.8786145511700287 -0.09483066472015696 -0.000356699 -0.006811931 0 0 0 0
30009405 0.8647875830773911 -0.097830160748081 0.004720828 -0.002560413 0 0 0 0
30009900 0.889090126030076 -0.10883101902719844 -0.001035594 -0.002546227 0 0 0 0
30010395 0.8832765695335743 -0.10536382127557058 -0.003277671 -0.003409823 0 0 0 0
30010890 0.8847559775322591 -0.10369882155403118 0.001733854 0.004679718 0 0 0 0
30011385 0.8789256245051641 -0.09377333579493075 0.010477099 -0.002373468 0 0 0 0
30011880 0.8854968260400231 -0.10379846456382773 0.001616095 -0.004231464 0 0 0 0
30012375 0.8822842402891753 -0.09588806134221955 5.182e-06 -0.000114954 0 0 0 0
30012870 0.8840517745443435 -0.10646775641246888 0.004445348 0.007694199 0 0 0 0
30013365 0.8890369584385683 -0.10287251322770893 0.001003346 0.006014843 0 0 0 0
30013860 0.8884001036066592 -0.09825251517980395 0.000335638 -0.007022796 0 0 0 0
30014355 0.8869622317439987 -0.08648050345683128 -0.002735308 -0.005589926 0 0 0 0
30014850 0.882249374230639 -0.10204673697695975 0.000958354 -0.001054873 0 0 0 0
30015345 0.8840634700231844 -0.10783534318088457 0.006978596 -0.001373915 0 0 0 0
30015840 0.8707404819034071 -0.0975193245326959 0.003535124 0.003739025 0 0 0 0
30016335 0.8809495800398556 -0.10048421184459097 -0.004392481 0.007437248 0 0 0 0
30016830 0.888771436074473 -0.10757776550368531 0.004069625 -0.004165686 0 0 0 0
30017325 0.8828899572701343 -0.09229377810080774 -0.001209052 -0.01085479 0 0 0 0
30017820 0.8774811839660881 -0.10306017969447899 0.010207616 -0.004839805 0 0 0 0
30018315 0.8831702836127469 -0.09618904128280258 -0.000237524 -0.00167907 0 0 0 0
30018810 0.8837349933720567 -0.09771623593544572 -0.003635624 0.005249845 0 0 0 0
30019305 0.879167278808458 -0.08848983774353975 -0.001840824 0.002301998 0 0 0 0
30019800 0.882591319287122 -0.09638422864331384 -0.007544399 -0.002668869 0 0 0 0
30020295 0.8933579693568847 -0.10438312465057464 0.013303434 -0.000192377 0 0 0 0
30020790 0.8899148290512919 -0.10178277902186239 0.006094934 0.002492265 0 0 0 0
30021285 0.8911475289535996 -0.11108563088011122 0.003068374 0.00895609 0 0 0 0
30021780 0.888975176355089 -0.09726465614813878 0.003099926 0.004190439 0 0 0 0
30022275 0.8748830345194414 -0.08632924981685347 -0.016117881 -0.001435695 0 0 0 0
30022770 0.8718178778437469 -0.0955348667756852 0.004424499 -0.005179379 0 0 0 0
30023265 0.8881713544199795 -0.104207891092328 0.009459594 -0.007703223 0 0 0 0
30023760 0.8892583702446615 -0.10610779894635723 4.4836e-05 -0.001650033 0 0 0 0
30024255 0.8826187956626956 -0.11259324263217291 -0.00674179 0.008137269 0 0 0 0
30024750 0.8646485471781614 -0.10767331977034109 0.004189198 0.000291498 0 0 0 0
30025245 0.8857134378933047 -0.09884398688195638 -0.000557849 -0.00023409 0 0 0 0
30025740 0.8764048632811428 -0.10703733123839891 0.003642225 0.00086254 0 0 0 0
30026235 0.8790322408317273 -0.09492682370964607 -0.004118419 0.003150665 0 0 0 0
30026730 0.8915958916729809 -0.08809759640121213 -0.007618892 -0.004185153 0 0 0 0
30027225 0.883985739485216 -0.09641248612049871 -0.001592276 0.000228624 0 0 0 0
30027720 0.8832992172087372 -0.09009374135849642 -0.005548024 -0.004504532 0 0 0 0
30028215 0.8740893389616954 -0.10038000169105063 0.005523372 -0.004970452 0 0 0 0
30028710 0.8760295421176848 -0.10766808276746778 0.004070953 -0.005842966 0 0 0 0
30029205 0.8802143937588538 -0.11012085943122049 0.000704758 0.008362672 0 0 0 0
30029700 0.8840525259260534 -0.09240836119052111 -0.004065795 0.008605093 0 0 0 0
30030195 0.8914318988224237 -0.09700748455576312 -0.00182477 0.000467342 0 0 0 0
30030690 0.8843078897137274 -0.11462649636578286 -0.004464261 -0.002928304 0 0 0 0
30031185 0.8740958084925734 -0.09985993830211588 -7.9251e-05 -0.002663674 0 0 0 0
30031680 0.8835730979423517 -0.1150521089162251 0.003532219 0.003438787 0 0 0 0
30032175 0.89095849081696 -0.09716835457134163 -0.004692777 0.001435958 0 0 0 0
30032670 0.8722857745059263 -0.10983057727558156 -0.001583584 -0.000149241 0 0 0 0
30033165 0.8902233242978944 -0.09539140537903344 -0.000829361 -2.2294e-05 0 0 0 0
30033660 0.8841243855336223 -0.09769217744259946 0.00054845 -0.003351565 0 0 0 0
30034155 0.8724385343175767 -0.09681473547957367 0.000662662 0.000611105 0 0 0 0
30034650 0.8998798457739261 -0.1092293166867808 0.004220479 0.001222073 0 0 0 0
30035145 0.874036627641709 -0.10720261171626931 -0.005424519 -0.004990345 0 0 0 0
30035640 0.8851160384915339 -0.08444000299990237 0.004321902 -0.00477139 0 0 0 0
30036135 0.8841730841564057 -0.08637577839850098 -0.006160353 0.0058231 0 0 0 0
30036630 0.8829627544787132 -0.11004143016209457 0.002724461 -0.006147782 0 0 0 0
30037125 0.8921190980517778 -0.09580741215629694 -0.008816001 0.00392394 0 0 0 0
30037620 0.8845556437415135 -0.09822799774235431 0.002207374 -0.00402351 0 0 0 0
30038115 0.875846809009975 -0.10082035416955526 -0.003556744 0.002695149 0 0 0 0
30038610 0.884470188405173 -0.09063565180819753 -0.005375135 0.003467566 0 0 0 0
30039105 0.8680482854738067 -0.08970733663094657 0.005701298 0.001038823 0 0 0 0
30039600 0.8885471719886501 -0.10544839365905247 0.009951584 0.003489536 0 0 0 0
30040095 0.8806353370415105 -0.09635142743665326 0.007163949 0.005239618 0 0 0 0
30040590 0.8749756468942662 -0.09485356617232474 -0.000812156 0.001713256 0 0 0 0
30041085 0.8735382070534526 -0.10092628356645991 -0.00813982 0.002073041 0 0 0 0
30041580 0.8727071938493232 -0.10572729821578379 0.002023155 -0.001091987 0 0 0 0
30042075 0.8946558169771055 -0.11078790556802304 0.005164648 0.00213984 0 0 0 0
30042570 0.882794416781959 -0.11275042273322344 0.002139375 0.007020894 0 0 0 0
30043065 0.8859631788642982 -0.08423751738638499 9.5147e-05 0.007040844 0 0 0 0
30043560 0.8799587949560461 -0.09311480670183082 0.000401381 0.000277785 0 0 0 0
30044055 0.8786832212508707 -0.09970173269248642 -0.004137265 -0.002948619 0 0 0 0
30044550 0.8824390207665586 -0.11371390581577413 0.004571915 0.00213581 0 0 0 0
30045045 0.8888836292704713 -0.11099177435873096 -0.003073756 0.003624293 0 0 0 0
30045540 0.8973488088759818 -0.09972611457445761 -0.005755997 0.006386283 0 0 0 0
30046035 0.8923066028695457 -0.08253804648144308 -0.004479998 0.009742361 0 0 0 0
30046530 0.8797987926200593 -0.09296785487023151 0.001546622 -0.002212241 0 0 0 0
30047025 0.8681644501807481 -0.10328640819200222 0.006254283 -0.005793732 0 0 0 0
30047520 0.8890210011575648 -0.112005884939318 -0.006822407 0.004702954 0 0 0 0
30048015 0.8852900421660684 -0.10517423313741796 0.003764248 0.004593209 0 0 0 0
30048510 0.8871671390515949 -0.09676813739250491 -0.008893709 -0.003425402 0 0 0 0
30049005 0.8913713683858504 -0.09335788659582947 0.002116425 0.001396851 0 0 0 0
30049500 0.882626669316787 -0.0966784468188992 -0.002889872 -0.005210906 0 0 0 0
30049995 0.874912946139524 -0.0936393950551023 0.003336448 -0.001760083 0 0 0 0
30050490 0.8892853920116777 -0.11005486617362094 0.004519163 0.003902822 0 0 0 0
30050985 0.8913615966434995 -0.10162344191660541 0.000695469 -0.00052239 0 0 0 0
30051480 0.897399486065215 -0.09236549126447258 -0.006084368 0.005957485 0 0 0 0
30051975 0.8966713002575893 -0.09464246188956582 0.005124727 -0.000837431 0 0 0 0
30052470 0.883640581879547 -0.09289743313895567 -0.006604054 -0.001894594 0 0 0 0
30052965 0.8876702264616417 -0.1048203417882014 0.006534456 -0.005903575 0 0 0 0
30053460 0.8804621598219273 -0.10077213336035473 0.003977427 0.002165947 0 0 0 0
30053955 0.8826950160518308 -0.1026454813839149 -0.000205396 0.003610019 0 0 0 0
30054450 0.8898817429555744 -0.09360232134820833 -0.003181072 0.001280593 0 0 0 0
30054945 0.8771460356261324 -0.09747905338408683 -0.004127075 -0.005922498 0 0 0 0
30055440 0.8816902152167478 -0.09765315633276979 0.002120255 -0.000477118 0 0 0 0
30055935 0.8885703022338652 -0.10388292170794693 0.010454736 -0.002413444 0 0 0 0
30056430 0.8813607221351001 -0.09481322326135348 -0.008254435 0.003109463 0 0 0 0
30056925 0.8837809397068014 -0.09199942575410447 0.00058114 0.005454702 0 0 0 0
30057420 0.8828788671023116 -0.10012967091030787 -0.002459459 -0.003658347 0 0 0 0
30057915 0.8899237201572751 -0.09572873691073579 -0.009499428 -0.008968677 0 0 0 0
30058410 0.8893061706817957 -0.09927227029018536 0.008907457 0.001014204 0 0 0 0
30058905 0.8861722936726458 -0.10413876876564614 -0.00429764 -0.001884607 0 0 0 0
30059400 0.8944427202155387 -0.0977401614591103 0.002420435 -0.00218878 0 0 0 0
30059895 0.8854436625307359 -0.08673972407235955 -0.000539551 -0.005633674 0 0 0 0
30060390 0.8835449470211705 -0.10210884134651782 0.002007973 -0.002651806 0 0 0 0
30060885 0.8834191553863032 -0.10768705526133045 0.000441779 0.008557055 0 0 0 0
30061380 0.8806584580446096 -0.09750302391002202 -0.000422137 0.000657667 0 0 0 0
30061875 0.8952057226276575 -0.07761531362919007 -0.008401878 -0.001115263 0 0 0 0
30062370 0.897487855938125 -0.10103329383842863 0.006778667 -0.004289501 0 0 0 0
30062865 0.8846509649505899 -0.08516832528247006 -0.002010051 -0.008040377 0 0 0 0
30063360 0.8861327065422113 -0.10172823856462528 -0.002298426 -0.007348792 0 0 0 0
30063855 0.8844054720783524 -0.11067183885969185 0.002999688 -0.001271337 0 0 0 0
30064350 0.8881957522425473 -0.10692254095443218 -0.00229346 -0.000451674 0 0 0 0
30064845 0.8879348473560029 -0.08537551571134383 -0.006465799 0.00358201 0 0 0 0
30065340 0.8912431817794131 -0.08526654470514244 0.004139823 -0.007261575 0 0 0 0
30065835 0.8907543064763539 -0.1016801772050277 -0.003648277 -0.013522259 0 0 0 0
30066330 0.8848448599866493 -0.09280939379323633 0.004316361 -0.008216306 0 0 0 0
30066825 0.9041042230839567 -0.10499518122979208 0.005423869 0.001216917 0 0 0 0
30067320 0.8855063978413622 -0.09677653368824593 0.007105822 0.011262636 0 0 0 0
30067815 0.8828630841952815 -0.09111658930069244 -0.003832662 0.002449707 0 0 0 0
30068310 0.882322024592401 -0.08354362372474158 0.000431498 -0.002536437 0 0 0 0
30068805 0.8794848647739166 -0.08466386520272867 0.00717082 0.001428663 0 0 0 0
30069300 0.8825689142136235 -0.102589761378478 0.001406679 0.000198847 0 0 0 0
30069795 0.8931750485194943 -0.08607135255643648 0.0025398 0.001472243 0 0 0 0
30070290 0.8967763283095813 -0.11679300582607581 0.002664722 -0.001132214 0 0 0 0
30070785 0.9025540251606209 -0.0954892550402506 -0.006315914 0.000745357 0 0 0 0
30071280 0.883022864373175 -0.09436106354344888 -0.010019016 -0.006490818 0 0 0 0
30071775 0.8866589844348086 -0.09906030636649236 0.007427171 -0.011604389 0 0 0 0
30072270 0.8953799946530923 -0.10523951184486127 0.006095785 -0.002161945 0 0 0 0
30072765 0.8909027615162874 -0.09439922452800013 -0.002190193 0.006147334 0 0 0 0
30073260 0.8811762638390587 -0.09220627701563981 -0.003607891 -0.00033356 0 0 0 0
30073755 0.8867930124346637 -0.09753163393970714 0.001887366 0.001723364 0 0 0 0
30074250 0.888114358799335 -0.0891230745655614 -0.003232637 -0.002493161 0 0 0 0
30074745 0.8939576698504613 -0.09904737391388323 0.006468304 -0.006204974 0 0 0 0
30075240 0.9117275170190519 -0.09925399983783433 0.000522889 -0.001114372 0 0 0 0
30075735 0.8996702944699086 -0.09839439060296394 0.000539138 -0.002410667 0 0 0 0
30076230 0.8883533986606852 -0.08570823206714698 -0.010799961 -0.000343901 0 0 0 0
30076725 0.886566900577632 -0.09314606307841805 0.005666672 -0.006379244 0 0 0 0
30077220 0.8850330651838447 -0.08577119793566176 -0.002655477 -0.003695763 0 0 0 0
30077715 0.8877989608817635 -0.09567845035721273 -0.002616504 -0.000672164 0 0 0 0
30078210 0.8998346478095595 -0.09920854714639081 -0.001580959 -0.002440678 0 0 0 0
30078705 0.8906883881329869 -0.09832404464856603 0.000653976 -0.001634629 0 0 0 0
30079200 0.8973592516270492 -0.08611209390749902 -0.003603884 -0.006416168 0 0 0 0
30079695 0.8884421324972347 -0.10395121128020236 0.000610465 4.9354e-05 0 0 0 0
30080190 0.893460724471263 -0.09654142242809971 0.00449902 -0.00442482 0 0 0 0
30080685 0.8909566495974868 -0.10798403190457975 -0.002987539 0.002829946 0 0 0 0
30081180 0.8848077252363492 -0.09170470867173106 0.004108406 0.004943082 0 0 0 0
30081675 0.8925173221388831 -0.10167570109905816 -0.0001404 0.008005721 0 0 0 0
30082170 0.889505638036886 -0.09807742725447023 0.00310753 0.002659851 0 0 0 0
30082665 0.892036633216255 -0.0994629357309812 -0.003406995 -0.001444839 0 0 0 0
30083160 0.8853006138431995 -0.09601434900092048 0.002405175 -0.004832932 0 0 0 0
30083655 0.8843268895679882 -0.09298529204809344 -0.00523731 0.001439679 0 0 0 0
30084150 0.8979283658179208 -0.09956696583370969 -0.000796431 0.00043704 0 0 0 0
30084645 0.8937620797847587 -0.08953194995961128 0.004011397 0.005079118 0 0 0 0
30085140 0.8934862199289854 -0.09748486741274809 0.002060226 -0.008637784 0 0 0 0
30085635 0.8913482972889356 -0.08506418147663056 -0.003317427 0.001179988 0 0 0 0
30086130 0.8906013468177151 -0.1003358158270243 0.007434753 0.000453099 0 0 0 0
30086625 0.8880266778807626 -0.09987117497764057 -0.002403148 0.004474018 0 0 0 0
30087120 0.8936449062988604 -0.10826862781619873 -0.001543727 0.004880758 0 0 0 0
30087615 0.8944504966704537 -0.08277491627674208 -0.000925872 -0.001376914 0 0 0 0
30088110 0.8927336576627335 -0.08924721625657828 -0.002645767 0.001229922 0 0 0 0
30088605 0.8859012540285471 -0.09604203851179141 0.009759735 -0.000805178 0 0 0 0
30089100 0.9084473762093788 -0.09084362468244327 0.001464215 0.002502097 0 0 0 0
30089595 0.8814910469553551 -0.08543371760349823 -0.003871603 0.001806464 0 0 0 0
30090090 0.8856854123571745 -0.0884254348591488 -0.009279769 -0.003158446 0 0 0 0
30090585 0.8936071565247857 -0.09571756691924257 0.011471331 -0.005272747 0 0 0 0
30091080 0.8969327842527319 -0.11210338242614097 0.005076882 -0.009741891 0 0 0 0
30091575 0.8705895798819473 -0.0994598038899447 0.007664915 0.002091808 0 0 0 0
30092070 0.8905289242211447 -0.09875835966947226 0.008721054 0.004090512 0 0 0 0
30092565 0.8734545128486467 -0.08804794427789547 -0.00157394 -0.006363876 0 0 0 0
30093060 0.8920580662481444 -0.1045985173472849 0.002238089 -0.00573503 0 0 0 0
30093555 0.8855268531925086 -0.10266522380828069 0.005023407 -0.002338421 0 0 0 0
30094050 0.8943050873619667 -0.0914592446966415 0.005611889 -0.005997584 0 0 0 0
30094545 0.8750500695399699 -0.09960404779833097 -0.000183393 0.003376391 0 0 0 0
30095040 0.9024207114157823 -0.10439945049778684 -0.004419276 0.00352531 0 0 0 0
30095535 0.8889555463978965 -0.09602990154494245 0.002471337 -0.0035018 0 0 0 0
30096030 0.8821041674565828 -0.09318999009545419 0.005042979 0.001669172 0 0 0 0
30096525 0.8862543645400193 -0.10211481261543019 0.015045355 -0.008588362 0 0 0 0
30097020 0.884821679357704 -0.09501276623002587 0.000398347 -0.000233821 0 0 0 0
30097515 0.8784984152216039 -0.10668989577559708 -0.002823016 -0.002591549 0 0 0 0
30098010 0.8677130151691236 -0.10805346680537155 0.003193986 -0.005128121 0 0 0 0
30098505 0.8846177127933481 -0.09247332154629376 0.009604486 -0.000872644 0 0 0 0
30099000 0.8888385218674903 -0.09644584716221051 0.000896922 0.001772569 0 0 0 0
30099495 0.8953410445475907 -0.09861075990440989 -0.002203481 -0.003125758 0 0 0 0
30099990 0.8978001432605826 -0.09577439513424484 0.001086788 -0.001278157 0 0 0 0
30100485 0.8899237524786449 -0.10214911052812528 0.001768148 0.002778717 0 0 0 0
30100980 0.8813490909793703 -0.09924129683931243 0.006220907 -0.001264902 0 0 0 0
30101475 0.8777530110035109 -0.10931947783006456 0.00342057 0.002159918 0 0 0 0
30101970 0.8835067833252046 -0.09832995195179262 0.00632698 -0.003571509 0 0 0 0
30102465 0.8942660552079605 -0.09989192201223643 0.003168701 -0.000455114 0 0 0 0
30102960 0.8963762580290404 -0.08863601658947119 0.001187783 0.004492358 0 0 0 0
30103455 0.8862530898385699 -0.10152536421553361 -0.007357901 -0.002553107 0 0 0 0
30103950 0.8807398648024173 -0.09115826904453599 -0.003574672 -0.014206102 0 0 0 0
30104445 0.8902861492509159 -0.10283316976212205 0.005694462 -0.005107573 0 0 0 0
30104940 0.8825340832633908 -0.09897329767907108 0.006821993 -0.001371851 0 0 0 0
30105435 0.8953308475960019 -0.10328737577889133 -0.002792257 0.004715946 0 0 0 0
30105930 0.8895544490371428 -0.09366711381712753 0.008939041 0.001592374 0 0 0 0
30106425 0.8898007875450809 -0.10496943401150564 -0.000850742 -0.007026641 0 0 0 0
30106920 0.8778559164844454 -0.09922012549242244 -0.000225554 0.00335211 0 0 0 0
30107415 0.9028585879975549 -0.11648629816841774 -0.002279971 0.003609057 0 0 0 0
30107910 0.9005881460362368 -0.10163404218855443 0.002113939 0.00070673 0 0 0 0
30108405 0.8813390262464708 -0.10229897805888324 7.2069e-05 -0.0028553 0 0 0 0
30108900 0.8851408653450049 -0.09839917808315096 0.005544091 0.00060348 0 0 0 0
30109395 0.8786573420311059 -0.10741210880934902 0.002342062 0.001660927 0 0 0 0
30109890 0.8674300697817936 -0.1071477789267158 0.000413076 0.007303731 0 0 0 0
30110385 0.8830517015895057 -0.10509789664223577 -0.000199503 -0.004499957 0 0 0 0
30110880 0.897700740432647 -0.11318730157507059 0.011071827 -0.002189603 0 0 0 0
30111375 0.8850066133037858 -0.0978914156769349 -0.003232058 -0.001312567 0 0 0 0
30111870 0.8789386084884068 -0.09708596879769292 -0.000184908 0.00277847 0 0 0 0
30112365 0.8791574031088185 -0.10124505720175256 0.000654252 0.00310384 0 0 0 0
30112860 0.8820908875886571 -0.11479378236810013 -0.008346013 -0.002036439 0 0 0 0
30113355 0.8840440932034408 -0.11415532101707208 0.004957621 0.004211263 0 0 0 0
30113850 0.8814708543115555 -0.11036205600642254 0.001572 0.0036813 0 0 0 0
30114345 0.8786203268661285 -0.10215647692982274 -0.010187741 0.003360652 0 0 0 0
30114840 0.884453544216763 -0.10882867638983945 0.004928465 -0.005131162 0 0 0 0
30115335 0.8849131873519708 -0.10629508099622144 0.004062517 -0.009149218 0 0 0 0
30115830 0.8891721953266679 -0.10035387790627498 0.006996905 0.00808281 0 0 0 0
30116325 0.8732467973592465 -0.11574658351437697 -0.007649751 0.003238884 0 0 0 0
30116820 0.8826420286763859 -0.1035480729133343 -0.008254541 0.006368609 0 0 0 0
30117315 0.8772805597302965 -0.09285708519274495 -0.007248005 0.001688722 0 0 0 0
30117810 0.8831109540487498 -0.09417080945028634 -0.002415001 0.000196806 0 0 0 0
30118305 0.8793331777344938 -0.10090558597168268 -0.000669415 -0.000573327 0 0 0 0
30118800 0.8819469503626314 -0.10922973138827617 0.00442939 0.008166104 0 0 0 0
30119295 0.8715234515358944 -0.11690383093201216 5.0731e-05 -0.001746415 0 0 0 0
