# HZ S RI R 50
40000000 0.5069582184528509 0.23704986109091739
40000495 0.49412406964127803 0.23589712603641477
40000990 0.49364204564892417 0.23249888646797315
40001485 0.4980646893802241 0.23422592234759984
40001980 0.5028323732431819 0.24434466371535904
40002475 0.49845470591104934 0.23650246480807235
40002970 0.4924041732445988 0.23947333079501246
40003465 0.4894247629662428 0.22911601510160284
40003960 0.5125481067787834 0.23124372846127106
40004455 0.49571317400724907 0.23992543845003517
40004950 0.5007759086937676 0.2434998087589961
40005445 0.5010525471728611 0.24838881052242112
40005940 0.49767734402868896 0.2318175312885048
40006435 0.5073957177550646 0.23267438165569826
40006930 0.4868744108446288 0.2349546539251899
40007425 0.5094350997400119 0.2225074629079425
40007920 0.4946448710456743 0.24527430386746066
40008415 0.49193159799699426 0.24623282817671716
40008910 0.5007785441945174 0.24071455347672346
40009405 0.49413811297061117 0.21534429921982084
40009900 0.4998471131024987 0.2238163158888519
40010395 0.49792409004895427 0.2366685566275167
40010890 0.4900129680989587 0.24391464381104253
40011385 0.4996123211433878 0.2405896643481456
40011880 0.49754457937808066 0.2558323863655366
40012375 0.5061204682616243 0.22800121487355646
40012870 0.5077783628316525 0.241018910572108
40013365 0.4954438645676157 0.23453969411915246
40013860 0.49702598456681124 0.24543898287219448
40014355 0.4916741568793665 0.24934867481662729
40014850 0.5111750041095529 0.23981016604165348
40015345 0.5139794155881274 0.244942220501332
40015840 0.5111775338781798 0.2403331348578717
40016335 0.5012500076507863 0.24796501500634763
40016830 0.49457509974510927 0.23397105359317605
40017325 0.5003446640497747 0.22814373338702887
40017820 0.5109547701082541 0.23506739764900286
40018315 0.5061232474411335 0.2591350977937232
40018810 0.4882699924571568 0.2483043591327408
40019305 0.48837843597274333 0.24353159952615
40019800 0.4924911265818009 0.2314377389648559
40020295 0.49766000899338103 0.24556500090318026
40020790 0.49972339362188145 0.24837405063174442
40021285 0.4928701250154212 0.24681959201580986
40021780 0.4919912401623601 0.24239106084639206
40022275 0.5027469614788275 0.2282260167006468
40022770 0.49239841888393004 0.23977003449562237
40023265 0.5040925743505698 0.23529586941034156
40023760 0.4902509000293476 0.2371150165947304
40024255 0.4812806304886607 0.24224177560985208
40024750 0.501592875338172 0.23763520741174682
40025245 0.5036556945910579 0.23438365015825566
40025740 0.4935706609024222 0.22968090336888689
40026235 0.501902924559828 0.24966360483185968
40026730 0.5030665709571469 0.24267134017425385
40027225 0.5118622117755437 0.24434131919420574
40027720 0.49732231439561736 0.23722390883669503
40028215 0.4941813639032943 0.22732063496734678
40028710 0.49940764259709025 0.24075380436111476
40029205 0.5100033630400383 0.24774872214559726
40029700 0.48143927082249277 0.2277145484829406
40030195 0.4903894989600809 0.24590304655766973
40030690 0.491296296080612 0.23056130833307265
40031185 0.5080435239762218 0.23346378779207166
40031680 0.49619204775273384 0.25162405974354546
40032175 0.5046318386237072 0.2518795697944822
40032670 0.49492463748068777 0.23478843143471215
40033165 0.49695706463010836 0.22749534646767178
40033660 0.502857714587724 0.23225130631588817
40034155 0.48698392491021975 0.2555034365503126
40034650 0.49898969778295865 0.23314661143808715
40035145 0.502186091032744 0.2620803535578631
40035640 0.4953349941908236 0.23324455235764366
40036135 0.4945717290993418 0.2448407921077872
40036630 0.49448492495204516 0.24849809391626848
40037125 0.505301816516154 0.24811291568210558
40037620 0.513224169002279 0.23957720381345846
40038115 0.4958066931049504 0.24008824138948182
40038610 0.5030692802737653 0.2337612175290274
40039105 0.5047379293366772 0.24364178026395716
40039600 0.5105177586317065 0.2399983388642183
40040095 0.49473883883351155 0.2470545164633143
40040590 0.5000838802964674 0.25901562008640705
40041085 0.5033872743308517 0.24390581718510326
40041580 0.5080754635076613 0.24613868851101514
40042075 0.49659874784268676 0.2376051598700341
40042570 0.505060103511987 0.24488894622271637
40043065 0.4956260910487351 0.23817150120743028
40043560 0.48855864808837085 0.23686290127197954
40044055 0.4986318115135633 0.23862447715112017
40044550 0.4950914596805183 0.2393685329552699
40045045 0.5076986487568508 0.2426321759010138
40045540 0.49091552063826416 0.23491019420723983
40046035 0.5001484797611225 0.2358014634676609
40046530 0.49526425463205254 0.22797556936894875
40047025 0.49188228778530413 0.24213035647721207
40047520 0.5056449301066998 0.23386387308550866
40048015 0.4870276420639739 0.2414529613879523
40048510 0.4890090801654034 0.23457155747221267
40049005 0.490904876214741 0.22801698195692852
40049500 0.5082009621923858 0.2429872991363297
40049995 0.4911113402778798 0.2406236841311428
40050490 0.5037264878012914 0.2462795656254287
40050985 0.5138559547223558 0.2496274904927586
40051480 0.4973440497857319 0.24269829908868043
40051975 0.5059872699977807 0.2500732222923187
40052470 0.4930099438533554 0.24808590411962558
40052965 0.5121199498405719 0.25197839643029574
40053460 0.5059397955431278 0.2414116228248502
40053955 0.5041661658952886 0.23083927362023507
40054450 0.4963132084260279 0.23911896662066717
40054945 0.4921820367147715 0.24192198563821948
40055440 0.4924419594348557 0.24672768239752416
40055935 0.4987319003469671 0.2543038028862152
40056430 0.4959325403608344 0.24568891973108348
40056925 0.5070276104276639 0.23621743459138622
40057420 0.49629135656917334 0.24149618463011321
40057915 0.5065006015539191 0.2593759003235565
40058410 0.5032560790407893 0.23518417773982755
40058905 0.498451288828952 0.2356086216116673
40059400 0.5031945825028724 0.24935413406635104
40059895 0.5043541803691433 0.24046143357550523
40060390 0.5097205971463461 0.22737791978788338
40060885 0.5016820654031817 0.24170035019275937
40061380 0.4989308582904207 0.25393047763349375
40061875 0.49439783095882356 0.24815010975503846
40062370 0.4924480976702202 0.25509297225887667
40062865 0.5149039426708184 0.2326657750635173
40063360 0.509090614093721 0.2482508230486285
40063855 0.5129606680354657 0.26126620445756077
40064350 0.49903626485926217 0.23792969507284426
40064845 0.5017860596214521 0.2432749359016005
40065340 0.49672934197816254 0.2580082806834628
40065835 0.5080947559059982 0.24410090712864096
40066330 0.5025187903056313 0.24397034638137619
40066825 0.4766702525783568 0.24592858191597397
40067320 0.4905914314860919 0.24482634332189834
40067815 0.49498451233963664 0.2216050190616559
40068310 0.5068728927795254 0.24729869051295839
40068805 0.5003555253515248 0.24544056574357945
40069300 0.49927965373180516 0.2361595271808095
40069795 0.5027634883311533 0.25820435773637457
40070290 0.5033055049913252 0.24220629057846757
40070785 0.506149395720711 0.2572589502325686
40071280 0.5110230017094257 0.23804604854840375
40071775 0.5067084049925169 0.23371423162993138
40072270 0.4877202608885737 0.2420511544913201
40072765 0.4938917647073763 0.24521155180876547
40073260 0.49412213617907064 0.2232471189785733
40073755 0.5013787487982294 0.22604116295810814
40074250 0.48551404500920176 0.25034630099216104
40074745 0.5037971222709006 0.24241887574123047
40075240 0.5041312239207737 0.2363890908100952
40075735 0.4899780744956883 0.23894651850928866
40076230 0.5060511927027226 0.24140949065652975
40076725 0.4963479230242766 0.25905507499337666
40077220 0.5019031318084566 0.23803205066877067
40077715 0.4944939839242788 0.23734385243203968
40078210 0.5124018650348133 0.25360025614403064
40078705 0.5050947500222804 0.23980000549445835
40079200 0.49265742532505474 0.2410329155423675
40079695 0.48776404567452686 0.24565136765899623
40080190 0.4965674244389429 0.2514073705482557
40080685 0.5018580989580004 0.2393843739584012
40081180 0.5103680531833545 0.25276792224777594
40081675 0.4953281197932379 0.25653337391683256
40082170 0.5030529685678956 0.25059075675721815
40082665 0.49977454121007764 0.25051777680671805
40083160 0.5028308270395239 0.24684637255600336
40083655 0.5059187897487181 0.253197161872487
40084150 0.5015727846553646 0.25319156676614407
40084645 0.5092007592079985 0.252584672085301
40085140 0.49612640078957854 0.2461949296977961
40085635 0.5122423066252757 0.24417864061189365
40086130 0.5006636360310837 0.22771107071342797
40086625 0.5076690787857813 0.25294427266774827
40087120 0.4897002796603069 0.24302657760496862
40087615 0.5125910854960671 0.23129470884767447
40088110 0.501804541307004 0.23260254576666964
40088605 0.49183372110045165 0.254963533998254
40089100 0.5139990829959133 0.241657838001057
40089595 0.508031581083207 0.24818302405125064
40090090 0.5000540473529389 0.23497712278630098
40090585 0.4949878932373856 0.24803153752541698
40091080 0.5042590967742875 0.24847322344839934
40091575 0.4884443026352144 0.23379667327341483
40092070 0.5113461874742038 0.24798150849900769
40092565 0.4943854702436608 0.25509807504484006
40093060 0.5092172775823115 0.2575642216674603
40093555 0.48991683035864114 0.24717705195341594
40094050 0.493866715587511 0.2336015336760403
40094545 0.5056180382087114 0.23758020323433435
40095040 0.49391780604583346 0.2465320649051084
40095535 0.491991802833239 0.2538113321266455
40096030 0.4863349526162556 0.24961554607869332
40096525 0.48601438646957207 0.2637404269416299
40097020 0.4961527096088677 0.2402191672624482
40097515 0.49887342618033237 0.24587319578027497
40098010 0.5042116949645091 0.2530528610864558
40098505 0.4910128456531523 0.24966836660899377
40099000 0.4877757845196539 0.24059487417046868
40099495 0.4878344768947491 0.24002749965023912
40099990 0.4886544261228932 0.24680898361430556
40100485 0.5138047353524132 0.25688063006834655
40100980 0.5016856742251599 0.25204447174025957
40101475 0.5008404045862952 0.24904856344107307
40101970 0.4890301138535992 0.26146390264866926
40102465 0.5065506928466498 0.25452300808126427
40102960 0.5060388240172392 0.2543743099175197
40103455 0.5033038596008477 0.25456101138575105
40103950 0.4913340605422652 0.2494565199598736
40104445 0.5011585283381136 0.2544664734975622
40104940 0.4911586063512268 0.2410052113844155
40105435 0.49915107942607484 0.2462268510122695
40105930 0.49424161379744425 0.2658081636912468
40106425 0.4926177936947118 0.2602347348412264
40106920 0.5016917096313825 0.24434421911738527
40107415 0.49456853286943275 0.2500783738456094
40107910 0.4940134846761245 0.24428875712971662
40108405 0.5096069410451833 0.24026612756207483
40108900 0.4916392066435433 0.25808650611158956
40109395 0.5034035756503437 0.25230391993413115
40109890 0.49635220536353036 0.2454475259168994
40110385 0.5091355439755652 0.24479179858980654
40110880 0.5105058612085916 0.24702970656709605
40111375 0.49216563083582743 0.24588606664021692
40111870 0.5000568572471797 0.24978158073012174
40112365 0.5043265030873004 0.23873854932242664
40112860 0.49402832979951217 0.24701185940683426
40113355 0.5079826076405509 0.24854029579846357
40113850 0.5035376759194509 0.24315411663534783
40114345 0.4970512680540779 0.23837837691068023
40114840 0.48792617996957793 0.25925835318752016
40115335 0.48889699520021856 0.2612320430033119
40115830 0.5092487296699866 0.25381001380877755
40116325 0.49396775336959564 0.2455297153328185
40116820 0.4980943579402289 0.2524457842894128
40117315 0.4897850505578231 0.24959021571014775
40117810 0.49307148244549315 0.25503252589042075
40118305 0.49210324009628276 0.23432840689500567
40118800 0.5004280287797486 0.2514059043448985
40119295 0.5006369435822372 0.2411804614706699
40119790 0.5051252957344665 0.2702418172543858
40120285 0.4835637390042023 0.24470866214154013
40120780 0.49131688981874866 0.2556560670839044
40121275 0.4901473443864555 0.25049590373157266
40121770 0.49524273572636973 0.25190876247456984
40122265 0.49397830768530077 0.26325705056642046
40122760 0.49666952077532045 0.24734334725411464
40123255 0.4959847220356822 0.240728053420093
40123750 0.49503775659858007 0.2744369081346999
40124245 0.5048842120558681 0.23992872764331785
40124740 0.49976740521174917 0.2539183610812368
40125235 0.5111441506424065 0.2520792298787387
40125730 0.48683363601040663 0.24191511475353786
40126225 0.5018365254754299 0.25599934771801874
40126720 0.5021473940481719 0.24582507092764597
40127215 0.5128516826019707 0.25810576657359874
40127710 0.5114994637491904 0.247648525330763
40128205 0.4998153149680714 0.24173262524574404
40128700 0.4979534314502882 0.2543806543554351
40129195 0.4990606592227978 0.25181667128030927
40129690 0.5060891725127589 0.24062187617826672
40130185 0.5088495146307467 0.2590824004762828
40130680 0.5102510447452033 0.24958909922901001
40131175 0.4986154517317602 0.2504366822298341
40131670 0.5143101001712631 0.2470419868702131
40132165 0.5075713740881858 0.24845970331512043
40132660 0.5007401206807884 0.26051976125826537
40133155 0.5193568977534723 0.25894695610381063
40133650 0.5083975454750441 0.25223730934935107
40134145 0.4976284712076976 0.26265249822968095
40134640 0.5053825425937595 0.22969102925772686
40135135 0.49261943364203387 0.2509822375630816
40135630 0.5258550980374437 0.2496801595440806
40136125 0.49570827957276353 0.2613932747202962
40136620 0.49385115906196364 0.2505076539640935
40137115 0.4914445119960111 0.23364401404878088
40137610 0.502242293752668 0.272112388809457
40138105 0.5008050394798541 0.25159293748674644
40138600 0.5012082848104011 0.24800215221767205
40139095 0.5088751916237437 0.2527487564581889
40139590 0.5012074627015851 0.2666373314349838
40140085 0.5007434122806576 0.2550217341663319
40140580 0.4845496442318809 0.2444707141949641
40141075 0.5089639928937694 0.2451056933917493
40141570 0.49968188124334867 0.245141412522478
40142065 0.5142770719218961 0.25157685793577456
40142560 0.4964123285210445 0.2482718692026018
40143055 0.5085187441953124 0.253815389149745
40143550 0.49861505823248825 0.26680310658467726
40144045 0.4858776017526806 0.24067246964444805
40144540 0.5115193093766398 0.26177609196799817
40145035 0.4916760599883003 0.23464136493237198
40145530 0.5000684933319176 0.24691287724379882
40146025 0.5005072723409761 0.242394191904979
40146520 0.5027659693864511 0.24949905174688833
40147015 0.5053171480931745 0.25611899368874863
40147510 0.5090571701623998 0.2443163256574823
40148005 0.5038026503702511 0.2543372827850966
40148500 0.500273484884181 0.25572280734887953
40148995 0.5113229585463447 0.24490790429581716
40149490 0.506468885690352 0.2561129771853895
40149985 0.505138531881763 0.24876383801686452
40150480 0.4957615924788657 0.23678652438816328
40150975 0.49235642378551653 0.25006180281750995
40151470 0.5152639184155405 0.2581058723883099
40151965 0.5028120142574897 0.25236315335663223
40152460 0.501630441736141 0.2629161564192819
40152955 0.500922316878368 0.25671473770937625
40153450 0.49313459252803915 0.24864023154519407
40153945 0.5154307760607321 0.25818686908425065
40154440 0.5098814376568553 0.2502362568662412
40154935 0.5114215486089365 0.26048285090294493
40155430 0.499288402629862 0.2491743516012549
40155925 0.5082963178704775 0.26322905856923845
40156420 0.5211002696499983 0.2638125459372761
40156915 0.4981720939654267 0.26332707960955665
40157410 0.4988227354949452 0.24445956528248727
40157905 0.49809392857512397 0.24868392585491103
40158400 0.4990876630690448 0.24878986147115664
40158895 0.5012091716540867 0.2455506595604557
40159390 0.5189217442386013 0.26129035461133043
40159885 0.520439081223368 0.251830650996503
40160380 0.5179673414337626 0.2560675602820994
40160875 0.5117164478311663 0.2573328509199162
40161370 0.5002316896995977 0.24252746602822609
40161865 0.5161019196653442 0.24430484670541927
40162360 0.5094650628626983 0.25161522844613005
40162855 0.4999601092537057 0.266200496878419
40163350 0.48746727081170554 0.25281296138960346
40163845 0.4953841792614557 0.25205356070161405
40164340 0.5027065167793474 0.24756119896320627
40164835 0.5128520964272485 0.24079682800378127
40165330 0.5149273082992273 0.2710531951608184
40165825 0.5005621479436323 0.246788127854708
40166320 0.5000730042919068 0.2418916664619658
40166815 0.5095990929166533 0.24234407820810377
40167310 0.515789797740932 0.24567824020266543
40167805 0.49666282898797465 0.2643773853839122
40168300 0.5216197658841439 0.25511304202854534
40168795 0.5067674957609908 0.27388881344864185
40169290 0.4899188822925945 0.2591877060174191
40169785 0.4975037711232383 0.2516904353002887
40170280 0.49233416642790084 0.2511645026828162
40170775 0.5073150407328821 0.254866404013659
40171270 0.504220009184292 0.26224205010528373
40171765 0.5048262507321237 0.2574709764106172
40172260 0.5222852679122146 0.24249781235510406
40172755 0.5008910300939857 0.250886833278747
40173250 0.5047132937952673 0.24033600530805097
40173745 0.498653939507262 0.26042704586051457
40174240 0.5211348670670136 0.25614028747567186
40174735 0.4935676658462722 0.2547470065216695
40175230 0.4985126242634134 0.2612465632287767
40175725 0.4858400708473143 0.24678448495500588
40176220 0.5053517882664076 0.2528036782951626
40176715 0.5151468229791706 0.2526505806381594
40177210 0.5125701786629874 0.2474135560850053
40177705 0.5011687182057889 0.2644209977523991
40178200 0.5092685180369572 0.2700726685195456
40178695 0.49661341100195106 0.258363274781547
40179190 0.5104163341463146 0.2542297121063468
40179685 0.5083695994727463 0.2484783684618142
40180180 0.50731904936356 0.2596367235090517
40180675 0.5040272466960742 0.25993900180637514
40181170 0.5156357614076812 0.24687288054633907
40181665 0.5035535872933745 0.24988474218940565
40182160 0.5037718273738978 0.2406750090126776
40182655 0.49035842306878225 0.24050738244374575
40183150 0.5012597949804545 0.25107131313473136
40183645 0.5150291969812658 0.24116910104509537
40184140 0.5113339994189735 0.25301938784251554
40184635 0.5096465184591233 0.23993915638463933
40185130 0.5090249965184591 0.2548251544803768
40185625 0.4968087978892027 0.26010663039556686
40186120 0.49379702026617367 0.24705193432239983
40186615 0.5177124957192916 0.2574303668717135
40187110 0.5107804179735169 0.24340051576924893
40187605 0.5235992176664854 0.26259675637811175
40188100 0.4994413094688112 0.2510074923841752
40188595 0.4982587710807761 0.2466443441914747
40189090 0.5022052602233259 0.2458657007305328
40189585 0.5073815496168043 0.25088678025665445
40190080 0.5033517187093838 0.24202477091284924
40190575 0.5157828524593226 0.25562473742048425
40191070 0.5200737791797119 0.24815221989148953
40191565 0.5189757407734402 0.2482278636246467
40192060 0.5098701538165273 0.25982399934953715
40192555 0.5073837089427503 0.2524151375977785
40193050 0.5061955600810615 0.2512059574701362
40193545 0.5274389474583707 0.24819211702382946
40194040 0.5243474134847421 0.2523521068212069
40194535 0.5087465248279961 0.24746680746093966
40195030 0.5092414418919475 0.25417770484770236
40195525 0.5189967470283842 0.2523754287148764
40196020 0.517179275018703 0.2725728877162131
40196515 0.516677614298968 0.23403429634446632
40197010 0.5201006111867406 0.26468738549962867
40197505 0.5278936948594224 0.2338264936069505
40198000 0.5196297304624996 0.24976605008007738
40198495 0.49300250892286224 0.2573805863838108
40198990 0.5219264674484877 0.2551189259241191
40199485 0.5241938692556031 0.22993173214935148
40199980 0.5134127018846145 0.23542637202733585
40200475 0.5097044742772585 0.25552120179639576
40200970 0.5148096677292195 0.24545384416383878
40201465 0.5074366510242645 0.268030296493223
40201960 0.5093864557618422 0.2557383164401724
40202455 0.5189413307330294 0.2553713871234281
