# HZ S RI R 50
40000000 0.5069582184528509 0.23704986109091739 -0.004113137 0.000928174 0 0 0 0
40000495 0.49412406964127803 0.23589712603641477 -0.003797044 -0.007184334 0 0 0 0
40000990 0.49364204564892417 0.23249888646797315 0.004106055 0.001384136 0 0 0 0
40001485 0.4980646893802241 0.23422592234759984 -0.002481957 0.000851004 0 0 0 0
40001980 0.5028323732431819 0.24434466371535904 0.002867062 0.005347129 0 0 0 0
40002475 0.49845470591104934 0.23650246480807235 -0.002996266 0.005237219 0 0 0 0
40002970 0.4924041732445988 0.23947333079501246 -0.002806406 -0.000620193 0 0 0 0
40003465 0.4894247629662428 0.22911601510160284 0.000980684 -0.004306296 0 0 0 0
40003960 0.5125481067787834 0.23124372846127106 0.001866429 -0.011305687 0 0 0 0
40004455 0.49571317400724907 0.23992543845003517 0.005071818 0.002830657 0 0 0 0
40004950 0.5007759086937676 0.2434998087589961 0.000353313 0.001415294 0 0 0 0
40005445 0.5010525471728611 0.24838881052242112 -0.00344226 0.001560871 0 0 0 0
40005940 0.49767734402868896 0.2318175312885048 -0.007001645 -0.009532058 0 0 0 0
40006435 0.5073957177550646 0.23267438165569826 0.004277992 -0.009312799 0 0 0 0
40006930 0.4868744108446288 0.2349546539251899 0.009246199 0.008228505 0 0 0 0
40007425 0.5094350997400119 0.2225074629079425 -0.00183606 0.000312597 0 0 0 0
40007920 0.4946448710456743 0.24527430386746066 -0.000921402 0.004373818 0 0 0 0
40008415 0.49193159799699426 0.24623282817671716 -0.003070749 0.002555027 0 0 0 0
40008910 0.5007785441945174 0.24071455347672346 0.001602052 -0.002546027 0 0 0 0
40009405 0.49413811297061117 0.21534429921982084 -0.007472472 -0.008213162 0 0 0 0
40009900 0.4998471131024987 0.2238163158888519 -0.002464264 0.003941563 0 0 0 0
40010395 0.49792409004895427 0.2366685566275167 -0.001996089 0.012034734 0 0 0 0
40010890 0.4900129680989587 0.24391464381104253 -0.013350457 0.001159246 0 0 0 0
40011385 0.4996123211433878 0.2405896643481456 -0.002054475 0.00172764 0 0 0 0
40011880 0.49754457937808066 0.2558323863655366 0.009803397 -0.005416505 0 0 0 0
40012375 0.5061204682616243 0.22800121487355646 0.003200833 0.004512727 0 0 0 0
40012870 0.5077783628316525 0.241018910572108 -0.001721515 0.001053629 0 0 0 0
40013365 0.4954438645676157 0.23453969411915246 -0.005950327 -0.000930741 0 0 0 0
40013860 0.49702598456681124 0.24543898287219448 -0.00414243 -0.00409272 0 0 0 0
40014355 0.4916741568793665 0.24934867481662729 0.004556205 -0.000175964 0 0 0 0
40014850 0.5111750041095529 0.23981016604165348 0.004508326 0.004372367 0 0 0 0
40015345 0.5139794155881274 0.244942220501332 -0.000229333 0.004368123 0 0 0 0
40015840 0.5111775338781798 0.2403331348578717 -0.009292428 0.00176535 0 0 0 0
40016335 0.5012500076507863 0.24796501500634763 0.001240704 -0.002183864 0 0 0 0
40016830 0.49457509974510927 0.23397105359317605 -0.005255984 -0.004013772 0 0 0 0
40017325 0.5003446640497747 0.22814373338702887 0.006173171 -0.003206143 0 0 0 0
40017820 0.5109547701082541 0.23506739764900286 0.004182376 -0.000241152 0 0 0 0
40018315 0.5061232474411335 0.2591350977937232 -0.006526643 0.002291722 0 0 0 0
40018810 0.4882699924571568 0.2483043591327408 -0.001361053 0.00119922 0 0 0 0
40019305 0.48837843597274333 0.24353159952615 0.003199016 0.000513812 0 0 0 0
40019800 0.4924911265818009 0.2314377389648559 0.00141023 -0.004228481 0 0 0 0
40020295 0.49766000899338103 0.24556500090318026 0.00483326 -0.007434651 0 0 0 0
40020790 0.49972339362188145 0.24837405063174442 -0.000449884 0.000590643 0 0 0 0
40021285 0.4928701250154212 0.24681959201580986 0.000505885 0.003103511 0 0 0 0
40021780 0.4919912401623601 0.24239106084639206 0.001693186 -0.000562702 0 0 0 0
40022275 0.5027469614788275 0.2282260167006468 0.003100033 0.002630651 0 0 0 0
40022770 0.49239841888393004 0.23977003449562237 0.010974514 0.00349628 0 0 0 0
40023265 0.5040925743505698 0.23529586941034156 -0.003773485 0.016681231 0 0 0 0
40023760 0.4902509000293476 0.2371150165947304 -0.005603023 -0.00153225 0 0 0 0
40024255 0.4812806304886607 0.24224177560985208 0.006314364 -0.002921712 0 0 0 0
40024750 0.501592875338172 0.23763520741174682 0.00200557 -0.001894085 0 0 0 0
40025245 0.5036556945910579 0.23438365015825566 0.000754221 -0.00038248 0 0 0 0
40025740 0.4935706609024222 0.22968090336888689 0.00473103 0.006565606 0 0 0 0
40026235 0.501902924559828 0.24966360483185968 -0.001324327 0.007607725 0 0 0 0
40026730 0.5030665709571469 0.24267134017425385 -0.000426434 -0.007929494 0 0 0 0
40027225 0.5118622117755437 0.24434131919420574 0.000825099 -0.002752582 0 0 0 0
40027720 0.49732231439561736 0.23722390883669503 0.001132394 -0.007911276 0 0 0 0
40028215 0.4941813639032943 0.22732063496734678 -0.000937148 0.006264606 0 0 0 0
40028710 0.49940764259709025 0.24075380436111476 -0.001905188 -0.000683459 0 0 0 0
40029205 0.5100033630400383 0.24774872214559726 -0.007646388 -0.003026846 0 0 0 0
40029700 0.48143927082249277 0.2277145484829406 -0.000670497 -0.008229613 0 0 0 0
40030195 0.4903894989600809 0.24590304655766973 0.007639337 -0.003172307 0 0 0 0
40030690 0.491296296080612 0.23056130833307265 -0.008879176 0.004708975 0 0 0 0
40031185 0.5080435239762218 0.23346378779207166 0.001090804 0.01164731 0 0 0 0
40031680 0.49619204775273384 0.25162405974354546 -0.005725513 -0.005255844 0 0 0 0
40032175 0.5046318386237072 0.2518795697944822 0.003714673 -0.0080667 0 0 0 0
40032670 0.49492463748068777 0.23478843143471215 0.004966449 0.005002887 0 0 0 0
40033165 0.49695706463010836 0.22749534646767178 0.001886196 -0.002482631 0 0 0 0
40033660 0.502857714587724 0.23225130631588817 0.001210152 0.007396071 0 0 0 0
40034155 0.48698392491021975 0.2555034365503126 -0.003455092 -0.002525578 0 0 0 0
40034650 0.49898969778295865 0.23314661143808715 0.000324551 -0.004653254 0 0 0 0
40035145 0.502186091032744 0.2620803535578631 0.005947245 0.003446201 0 0 0 0
40035640 0.4953349941908236 0.23324455235764366 0.005943003 -0.005641144 0 0 0 0
40036135 0.4945717290993418 0.2448407921077872 0.004678389 -0.002244906 0 0 0 0
40036630 0.49448492495204516 0.24849809391626848 -0.00228362 -0.001485584 0 0 0 0
40037125 0.505301816516154 0.24811291568210558 -0.007939705 -0.004172562 0 0 0 0
40037620 0.513224169002279 0.23957720381345846 -0.007295338 -0.003120856 0 0 0 0
40038115 0.4958066931049504 0.24008824138948182 0.004338075 -0.009235648 0 0 0 0
40038610 0.5030692802737653 0.2337612175290274 0.006042112 -0.007750922 0 0 0 0
40039105 0.5047379293366772 0.24364178026395716 -0.000367768 0.003111898 0 0 0 0
40039600 0.5105177586317065 0.2399983388642183 -0.006412548 -0.001379887 0 0 0 0
40040095 0.49473883883351155 0.2470545164633143 -0.003010977 -0.008276883 0 0 0 0
40040590 0.5000838802964674 0.25901562008640705 0.006219626 -0.000802373 0 0 0 0
40041085 0.5033872743308517 0.24390581718510326 0.006770428 0.004499223 0 0 0 0
40041580 0.5080754635076613 0.24613868851101514 0.001672553 -0.007655489 0 0 0 0
40042075 0.49659874784268676 0.2376051598700341 -0.004761473 0.006319234 0 0 0 0
40042570 0.505060103511987 0.24488894622271637 -0.002932355 -0.001640078 0 0 0 0
40043065 0.4956260910487351 0.23817150120743028 0.008564345 0.002182553 0 0 0 0
40043560 0.48855864808837085 0.23686290127197954 0.000889756 -0.011392151 0 0 0 0
40044055 0.4986318115135633 0.23862447715112017 0.006755049 0.004005981 0 0 0 0
40044550 0.4950914596805183 0.2393685329552699 0.000523488 -0.005891859 0 0 0 0
40045045 0.5076986487568508 0.2426321759010138 -0.002161262 -0.00616733 0 0 0 0
40045540 0.49091552063826416 0.23491019420723983 -0.0009846 -0.008124046 0 0 0 0
40046035 0.5001484797611225 0.2358014634676609 -0.005270194 -0.005191725 0 0 0 0
40046530 0.49526425463205254 0.22797556936894875 0.002920941 0.004073469 0 0 0 0
40047025 0.49188228778530413 0.24213035647721207 -0.00497226 -0.003579534 0 0 0 0
40047520 0.5056449301066998 0.23386387308550866 0.000124647 0.007706504 0 0 0 0
40048015 0.4870276420639739 0.2414529613879523 -0.007069336 -0.008001594 0 0 0 0
40048510 0.4890090801654034 0.23457155747221267 0.010305746 -0.001383556 0 0 0 0
40049005 0.490904876214741 0.22801698195692852 0.003483267 0.000106826 0 0 0 0
40049500 0.5082009621923858 0.2429872991363297 -0.001775412 0.006283086 0 0 0 0
40049995 0.4911113402778798 0.2406236841311428 0.001268388 0.003048222 0 0 0 0
40050490 0.5037264878012914 0.2462795656254287 0.002449705 0.005172338 0 0 0 0
40050985 0.5138559547223558 0.2496274904927586 -0.003955501 0.00334827 0 0 0 0
40051480 0.4973440497857319 0.24269829908868043 0.001620792 -0.005474743 0 0 0 0
40051975 0.5059872699977807 0.2500732222923187 0.006497669 0.000213751 0 0 0 0
40052470 0.4930099438533554 0.24808590411962558 -0.000193956 0.00320796 0 0 0 0
40052965 0.5121199498405719 0.25197839643029574 -0.004197095 0.01007442 0 0 0 0
40053460 0.5059397955431278 0.2414116228248502 0.000688923 -0.009883267 0 0 0 0
40053955 0.5041661658952886 0.23083927362023507 0.008458014 -0.007292303 0 0 0 0
40054450 0.4963132084260279 0.23911896662066717 -0.004895204 0.005282098 0 0 0 0
40054945 0.4921820367147715 0.24192198563821948 -0.000437549 0.006394854 0 0 0 0
40055440 0.4924419594348557 0.24672768239752416 0.00050353 -0.00418038 0 0 0 0
40055935 0.4987319003469671 0.2543038028862152 0.003297018 -0.003857607 0 0 0 0
40056430 0.4959325403608344 0.24568891973108348 -0.004069451 -0.00562503 0 0 0 0
40056925 0.5070276104276639 0.23621743459138622 -0.001023987 -0.006959586 0 0 0 0
40057420 0.49629135656917334 0.24149618463011321 -0.005603374 -0.004200628 0 0 0 0
40057915 0.5065006015539191 0.2593759003235565 0.001256023 0.002399105 0 0 0 0
40058410 0.5032560790407893 0.23518417773982755 0.000522375 0.000238468 0 0 0 0
40058905 0.498451288828952 0.2356086216116673 -0.001885765 -0.013707619 0 0 0 0
40059400 0.5031945825028724 0.24935413406635104 0.003510023 -0.005394499 0 0 0 0
40059895 0.5043541803691433 0.24046143357550523 0.001859765 0.000765387 0 0 0 0
40060390 0.5097205971463461 0.22737791978788338 0.00244675 0.0005108 0 0 0 0
40060885 0.5016820654031817 0.24170035019275937 -0.009253741 -0.006415556 0 0 0 0
40061380 0.4989308582904207 0.25393047763349375 -0.002653171 -0.001475987 0 0 0 0
40061875 0.49439783095882356 0.24815010975503846 0.00597955 -0.002132964 0 0 0 0
40062370 0.4924480976702202 0.25509297225887667 0.001872854 -0.002112774 0 0 0 0
40062865 0.5149039426708184 0.2326657750635173 -0.006755335 0.00441062 0 0 0 0
40063360 0.509090614093721 0.2482508230486285 0.001206348 0.003951027 0 0 0 0
40063855 0.5129606680354657 0.26126620445756077 -0.002996032 -0.003093194 0 0 0 0
40064350 0.49903626485926217 0.23792969507284426 0.001481487 -0.004378477 0 0 0 0
40064845 0.5017860596214521 0.2432749359016005 0.003911137 -0.007574031 0 0 0 0
40065340 0.49672934197816254 0.2580082806834628 0.00332848 3.6403e-05 0 0 0 0
40065835 0.5080947559059982 0.24410090712864096 -0.007132852 -0.002974288 0 0 0 0
40066330 0.5025187903056313 0.24397034638137619 -0.00726274 -0.004382918 0 0 0 0
40066825 0.4766702525783568 0.24592858191597397 -0.004563403 -0.004661649 0 0 0 0
40067320 0.4905914314860919 0.24482634332189834 -0.001407722 0.001840655 0 0 0 0
40067815 0.49498451233963664 0.2216050190616559 0.007172768 -0.005993087 0 0 0 0
40068310 0.5068728927795254 0.24729869051295839 0.005619253 -0.000577799 0 0 0 0
40068805 0.5003555253515248 0.24544056574357945 0.004152189 -0.000178774 0 0 0 0
40069300 0.49927965373180516 0.2361595271808095 -0.003045664 -0.007605289 0 0 0 0
40069795 0.5027634883311533 0.25820435773637457 -0.002361207 -0.004451776 0 0 0 0
40070290 0.5033055049913252 0.24220629057846757 0.005273321 -0.00889655 0 0 0 0
40070785 0.506149395720711 0.2572589502325686 0.004190552 -0.005076945 0 0 0 0
40071280 0.5110230017094257 0.23804604854840375 -0.000739905 -0.002424441 0 0 0 0
40071775 0.5067084049925169 0.23371423162993138 -0.000839706 0.002484299 0 0 0 0
40072270 0.4877202608885737 0.2420511544913201 -0.002609102 -0.003723383 0 0 0 0
40072765 0.4938917647073763 0.24521155180876547 0.00220284 -0.00684434 0 0 0 0
40073260 0.49412213617907064 0.2232471189785733 0.010116316 -0.006880717 0 0 0 0
40073755 0.5013787487982294 0.22604116295810814 -0.006170104 -0.000364159 0 0 0 0
40074250 0.48551404500920176 0.25034630099216104 -0.005394005 0.001370919 0 0 0 0
40074745 0.5037971222709006 0.24241887574123047 -0.006340999 0.003784455 0 0 0 0
40075240 0.5041312239207737 0.2363890908100952 0.002437907 -0.012665459 0 0 0 0
40075735 0.4899780744956883 0.23894651850928866 0.005682001 0.008931272 0 0 0 0
40076230 0.5060511927027226 0.24140949065652975 0.00298106 0.005344913 0 0 0 0
40076725 0.4963479230242766 0.25905507499337666 -0.005063424 -0.000199788 0 0 0 0
40077220 0.5019031318084566 0.23803205066877067 -0.001637823 -0.006396301 0 0 0 0
40077715 0.4944939839242788 0.23734385243203968 -0.006568753 0.001193195 0 0 0 0
40078210 0.5124018650348133 0.25360025614403064 0.007806499 -0.006534105 0 0 0 0
40078705 0.5050947500222804 0.23980000549445835 0.008173526 0.00405857 0 0 0 0
40079200 0.49265742532505474 0.2410329155423675 0.012273089 0.006285577 0 0 0 0
40079695 0.48776404567452686 0.24565136765899623 -0.001848556 0.000634088 0 0 0 0
40080190 0.4965674244389429 0.2514073705482557 -0.00291608 -0.004320148 0 0 0 0
40080685 0.5018580989580004 0.2393843739584012 -0.003397569 -0.008365953 0 0 0 0
40081180 0.5103680531833545 0.25276792224777594 0.002024247 -0.001781703 0 0 0 0
40081675 0.4953281197932379 0.25653337391683256 0.000386555 0.002235528 0 0 0 0
40082170 0.5030529685678956 0.25059075675721815 -0.001185955 0.002540413 0 0 0 0
40082665 0.49977454121007764 0.25051777680671805 -0.001771973 -0.00297555 0 0 0 0
40083160 0.5028308270395239 0.24684637255600336 0.00032595 -0.001712267 0 0 0 0
40083655 0.5059187897487181 0.253197161872487 0.004252627 -0.005902276 0 0 0 0
40084150 0.5015727846553646 0.25319156676614407 -0.002134428 0.008694371 0 0 0 0
40084645 0.5092007592079985 0.252584672085301 -0.003021804 -0.003226477 0 0 0 0
40085140 0.49612640078957854 0.2461949296977961 -0.005053546 0.00277761 0 0 0 0
40085635 0.5122423066252757 0.24417864061189365 0.001144096 -0.002635786 0 0 0 0
40086130 0.5006636360310837 0.22771107071342797 0.000529917 -0.002457762 0 0 0 0
40086625 0.5076690787857813 0.25294427266774827 0.00367244 -0.000743733 0 0 0 0
40087120 0.4897002796603069 0.24302657760496862 -0.003657634 0.003244303 0 0 0 0
40087615 0.5125910854960671 0.23129470884767447 -0.013612306 -0.005135207 0 0 0 0
40088110 0.501804541307004 0.23260254576666964 -0.0101275 -0.004188467 0 0 0 0
40088605 0.49183372110045165 0.254963533998254 0.000949991 -0.003237491 0 0 0 0
40089100 0.5139990829959133 0.241657838001057 0.003496979 -0.007178409 0 0 0 0
40089595 0.508031581083207 0.24818302405125064 0.002700335 0.000695753 0 0 0 0
40090090 0.5000540473529389 0.23497712278630098 -0.002798864 0.0016728 0 0 0 0
40090585 0.4949878932373856 0.24803153752541698 -0.00323844 0.001254496 0 0 0 0
40091080 0.5042590967742875 0.24847322344839934 -0.000459731 0.002687757 0 0 0 0
40091575 0.4884443026352144 0.23379667327341483 0.011982731 -0.001021646 0 0 0 0
40092070 0.5113461874742038 0.24798150849900769 -0.002066222 0.00511707 0 0 0 0
40092565 0.4943854702436608 0.25509807504484006 0.002130749 0.002725473 0 0 0 0
40093060 0.5092172775823115 0.2575642216674603 -0.003334797 -0.013714092 0 0 0 0
40093555 0.48991683035864114 0.24717705195341594 0.004813428 -0.004170166 0 0 0 0
40094050 0.493866715587511 0.2336015336760403 0.001888264 0.00502836 0 0 0 0
40094545 0.5056180382087114 0.23758020323433435 -0.001143443 -0.004548855 0 0 0 0
40095040 0.49391780604583346 0.2465320649051084 -0.003769238 -0.002889415 0 0 0 0
40095535 0.491991802833239 0.2538113321266455 -0.001186893 -0.001805032 0 0 0 0
40096030 0.4863349526162556 0.24961554607869332 0.001684516 -0.006969082 0 0 0 0
40096525 0.48601438646957207 0.2637404269416299 0.000716363 -0.010090908 0 0 0 0
40097020 0.4961527096088677 0.2402191672624482 0.008359009 -0.003564218 0 0 0 0
40097515 0.49887342618033237 0.24587319578027497 -0.000745561 -0.000849432 0 0 0 0
40098010 0.5042116949645091 0.2530528610864558 0.002204802 0.006404337 0 0 0 0
40098505 0.4910128456531523 0.24966836660899377 -0.015176507 -0.000528357 0 0 0 0
40099000 0.4877757845196539 0.24059487417046868 -0.000531536 -0.000672237 0 0 0 0
40099495 0.4878344768947491 0.24002749965023912 0.004342779 0.000799351 0 0 0 0
40099990 0.4886544261228932 0.24680898361430556 -0.000639838 0.001256592 0 0 0 0
40100485 0.5138047353524132 0.25688063006834655 0.000733539 0.007880977 0 0 0 0
40100980 0.5016856742251599 0.25204447174025957 -0.002027719 -0.004373748 0 0 0 0
40101475 0.5008404045862952 0.24904856344107307 -0.002632989 -0.010373655 0 0 0 0
40101970 0.4890301138535992 0.26146390264866926 0.005418386 -0.001552249 0 0 0 0
40102465 0.5065506928466498 0.25452300808126427 0.001521111 -0.003461862 0 0 0 0
40102960 0.5060388240172392 0.2543743099175197 -5.9753e-05 0.007419894 0 0 0 0
40103455 0.5033038596008477 0.25456101138575105 -0.010888571 0.001687252 0 0 0 0
40103950 0.4913340605422652 0.2494565199598736 -0.003653275 -0.004817259 0 0 0 0
40104445 0.5011585283381136 0.2544664734975622 -0.000382542 -0.002168463 0 0 0 0
40104940 0.4911586063512268 0.2410052113844155 0.007628877 0.000888959 0 0 0 0
40105435 0.49915107942607484 0.2462268510122695 0.006856894 0.002567214 0 0 0 0
40105930 0.49424161379744425 0.2658081636912468 0.000268987 -0.002389599 0 0 0 0
40106425 0.4926177936947118 0.2602347348412264 -0.006855402 -0.002961548 0 0 0 0
40106920 0.5016917096313825 0.24434421911738527 -0.001008649 -0.00238305 0 0 0 0
40107415 0.49456853286943275 0.2500783738456094 0.008648484 -0.011775551 0 0 0 0
40107910 0.4940134846761245 0.24428875712971662 4.3711e-05 0.002340733 0 0 0 0
40108405 0.5096069410451833 0.24026612756207483 0.002086061 0.014928084 0 0 0 0
40108900 0.4916392066435433 0.25808650611158956 0.000871852 -0.002598602 0 0 0 0
40109395 0.5034035756503437 0.25230391993413115 0.002016357 -0.002158422 0 0 0 0
40109890 0.49635220536353036 0.2454475259168994 0.008945029 0.002065359 0 0 0 0
40110385 0.5091355439755652 0.24479179858980654 0.001313469 0.001980138 0 0 0 0
40110880 0.5105058612085916 0.24702970656709605 -0.002518143 0.00012518 0 0 0 0
40111375 0.49216563083582743 0.24588606664021692 -0.002381907 0.004515299 0 0 0 0
40111870 0.5000568572471797 0.24978158073012174 -0.009805331 -0.002553137 0 0 0 0
40112365 0.5043265030873004 0.23873854932242664 -0.002594083 -0.003743691 0 0 0 0
40112860 0.49402832979951217 0.24701185940683426 0.001459171 -0.007859711 0 0 0 0
40113355 0.5079826076405509 0.24854029579846357 7.7772e-05 -0.005808629 0 0 0 0
40113850 0.5035376759194509 0.24315411663534783 -0.000574367 0.00726103 0 0 0 0
40114345 0.4970512680540779 0.23837837691068023 -0.002535153 0.000854011 0 0 0 0
40114840 0.48792617996957793 0.25925835318752016 0.004868271 -0.003188311 0 0 0 0
40115335 0.48889699520021856 0.2612320430033119 0.000177587 -0.00348158 0 0 0 0
40115830 0.5092487296699866 0.25381001380877755 0.005001329 0.003032042 0 0 0 0
40116325 0.49396775336959564 0.2455297153328185 -0.002026751 -0.000547833 0 0 0 0
40116820 0.4980943579402289 0.2524457842894128 0.004603932 0.00581915 0 0 0 0
40117315 0.4897850505578231 0.24959021571014775 0.002203714 -0.001943604 0 0 0 0
40117810 0.49307148244549315 0.25503252589042075 -0.002380444 -0.000842277 0 0 0 0
40118305 0.49210324009628276 0.23432840689500567 -0.00192598 -0.000623066 0 0 0 0
40118800 0.5004280287797486 0.2514059043448985 -0.000989889 -0.001442599 0 0 0 0
40119295 0.5006369435822372 0.2411804614706699 0.005509776 0.007230195 0 0 0 0
40119790 0.5051252957344665 0.2702418172543858 -0.002639413 -0.002043604 0 0 0 0
40120285 0.4835637390042023 0.24470866214154013 -0.000285484 -0.005429367 0 0 0 0
