# HZ S RI R 50
50000000 0.6515150735518489 0.41337843124105544 -0.008612385 5.2213e-05 0 0 0 0
50000495 0.6576402176984761 0.40275702309048217 -0.002816918 0.002351211 0 0 0 0
50000990 0.6665027692216134 0.40767858625105574 0.004298033 0.0059796 0 0 0 0
50001485 0.6629927360534088 0.40683739342738806 -0.002211937 0.006414738 0 0 0 0
50001980 0.6608105021020599 0.415590330810352 0.000519954 0.000180587 0 0 0 0
50002475 0.6588768818333204 0.4040015703410834 -0.003315893 -0.000210049 0 0 0 0
50002970 0.6542155198853875 0.4138386477549536 0.003801731 -0.002616787 0 0 0 0
50003465 0.6769043682000886 0.3979578308149676 0.00446381 -0.001924627 0 0 0 0
50003960 0.6549810470121509 0.40380730948718013 -0.002075147 0.001252712 0 0 0 0
50004455 0.6688797206642938 0.41063618283193093 -0.009030023 -0.007390235 0 0 0 0
50004950 0.6663720273574822 0.4088278311392006 0.002470547 -0.007170938 0 0 0 0
50005445 0.6570921658943105 0.40922338193971824 -0.003286357 -0.00157289 0 0 0 0
50005940 0.6609276946346886 0.40158056420285737 -0.007849307 0.001708965 0 0 0 0
50006435 0.6627321474967126 0.4060228881893974 -0.000251135 0.001412551 0 0 0 0
50006930 0.6601642252618104 0.413543600159142 -0.002857602 -0.001151404 0 0 0 0
50007425 0.6644312038526824 0.40766404120087585 0.001852822 -0.003673939 0 0 0 0
50007920 0.6490339751968568 0.4105283820988893 0.001853208 -0.00256079 0 0 0 0
50008415 0.6630519418580127 0.4102767373197926 0.002298667 0.005971894 0 0 0 0
50008910 0.6780863078222341 0.3961437820917347 -0.003754636 -0.009097994 0 0 0 0
50009405 0.6673624395737088 0.40911342651697935 -0.000329935 0.002700595 0 0 0 0
50009900 0.6576041432329058 0.4155645145450442 0.000660263 0.000190464 0 0 0 0
50010395 0.6668311489606301 0.4156586466012783 -0.000335006 0.002927103 0 0 0 0
50010890 0.6612533689621338 0.4082862898566502 -0.00481375 -0.005147862 0 0 0 0
50011385 0.6521706554529864 0.40689297598328594 -0.004574462 -0.008800205 0 0 0 0
50011880 0.664205544375927 0.4132100736141778 -0.006046793 0.001224272 0 0 0 0
50012375 0.6576950361521882 0.41510047675718476 0.003896497 0.001694966 0 0 0 0
50012870 0.6636148365434125 0.4079102961817018 -0.004567256 -0.00331019 0 0 0 0
50013365 0.6717617487286843 0.4155328361365077 -0.006538621 0.003773573 0 0 0 0
50013860 0.6585584079880786 0.40604427828750467 -0.000493257 -0.001713062 0 0 0 0
50014355 0.6647409111312602 0.3963215474178164 -0.001803908 -0.00035297 0 0 0 0
50014850 0.6734746463440445 0.4166965580798036 0.002006148 -0.004148072 0 0 0 0
50015345 0.6599025140264014 0.40928114765007895 0.003001376 0.003510115 0 0 0 0
50015840 0.6683773010287791 0.40130258781914313 0.00683444 0.003004365 0 0 0 0
50016335 0.6572695532032242 0.4105291923580947 0.000566429 -0.00267188 0 0 0 0
50016830 0.6576200592705078 0.4069278282016693 0.001219131 0.001807227 0 0 0 0
50017325 0.6758818332159293 0.4102897079195686 0.002783754 0.001664237 0 0 0 0
50017820 0.6645265820021656 0.3994018433669869 0.003119376 -0.002771388 0 0 0 0
50018315 0.658532912570296 0.4092297351210005 0.001781261 -0.000582879 0 0 0 0
50018810 0.6670490540445426 0.41105037376601683 -0.000655831 -0.005209186 0 0 0 0
50019305 0.6668535780908368 0.4234221993101504 -0.000460824 0.004485513 0 0 0 0
50019800 0.6675873494161395 0.4055465875499751 -0.00334405 -0.000953815 0 0 0 0
50020295 0.6673499066454806 0.39893260153168364 0.002713158 -0.001428548 0 0 0 0
50020790 0.6652799849506447 0.4109297604807319 -0.007686473 0.001881618 0 0 0 0
50021285 0.6708190873344115 0.41279937358160224 0.004378165 0.000994841 0 0 0 0
50021780 0.648949731393392 0.40498145084954823 0.004414451 -0.000636065 0 0 0 0
50022275 0.6712254620210788 0.4009208817783008 0.002254907 0.011531677 0 0 0 0
50022770 0.6571337099151099 0.40945004877449964 -0.001268284 0.004763734 0 0 0 0
50023265 0.6677048010733756 0.4122393791932985 -0.002010609 -0.004208073 0 0 0 0
50023760 0.6501141944417139 0.4227929312424174 -0.003576913 0.002967969 0 0 0 0
50024255 0.6721757796294576 0.41497546669967267 0.003575822 0.003579489 0 0 0 0
50024750 0.6628767821237815 0.40856212018600313 0.005428399 0.005724389 0 0 0 0
50025245 0.6679341115885953 0.4057839768549109 0.005130914 -0.005999453 0 0 0 0
50025740 0.6783760606670937 0.4099961178483607 0.006276424 -0.003151654 0 0 0 0
50026235 0.6661515023040614 0.42688361181062995 0.005014393 -0.007118538 0 0 0 0
50026730 0.6694275483409455 0.41242503051527507 5.8664e-05 0.006809385 0 0 0 0
50027225 0.6715942403535614 0.40657607439447274 -0.001524557 -0.001137425 0 0 0 0
50027720 0.6683945054488137 0.4123749661031275 0.007632256 0.001577622 0 0 0 0
50028215 0.6694877957848467 0.40758364299707994 0.003262955 0.000233733 0 0 0 0
50028710 0.6679056092053403 0.41182978705073336 -0.001911949 0.006595741 0 0 0 0
50029205 0.6666817985643322 0.40925024003597676 -0.001134886 0.004723336 0 0 0 0
50029700 0.6697332946781581 0.40918004997598606 -0.002391669 0.00319954 0 0 0 0
50030195 0.6706267647748915 0.4094704195393424 -0.003654582 -0.002258828 0 0 0 0
50030690 0.663597277314639 0.4203318761517019 -0.001407509 -0.003931364 0 0 0 0
50031185 0.6762490298338019 0.4123670393605434 -0.002887381 0.003409459 0 0 0 0
50031680 0.6733141060174932 0.41537055762456526 -0.00418709 -0.000342707 0 0 0 0
50032175 0.6592546751369965 0.4128651822957332 -0.000112099 0.004520699 0 0 0 0
50032670 0.6690520237358732 0.4022853236354187 -0.007154028 -0.000915605 0 0 0 0
50033165 0.6650346712615942 0.4018125396242177 -0.000273216 -0.003038476 0 0 0 0
50033660 0.6633711223263061 0.41802075083642415 -0.001443175 -0.001687901 0 0 0 0
50034155 0.669628097347713 0.40649199344138015 -0.003023927 0.000348246 0 0 0 0
50034650 0.65914891663695 0.41766460811792583 -0.006077116 0.00024156 0 0 0 0
50035145 0.6697284776291929 0.4058847401337781 0.003596554 -0.003511603 0 0 0 0
50035640 0.6726865536116721 0.4074907952519334 -0.006515316 0.002463496 0 0 0 0
50036135 0.6743970107790447 0.40930027073763925 -0.003799879 0.005423568 0 0 0 0
50036630 0.6744553929170133 0.4168468133566087 -0.003174653 -0.003508234 0 0 0 0
50037125 0.6707518211669844 0.41449767497454915 0.005748084 0.005277931 0 0 0 0
50037620 0.6660367104381418 0.39617220107491985 0.003007348 -0.003878948 0 0 0 0
50038115 0.6645309777376566 0.42108253672359547 -0.003057256 0.002565509 0 0 0 0
50038610 0.6764691483698834 0.40769465832337276 -0.002835476 0.002330202 0 0 0 0
50039105 0.6752178184065228 0.41508232845116966 -0.000589547 0.004304856 0 0 0 0
50039600 0.6490694654227289 0.41844502365096686 0.001442445 0.002424652 0 0 0 0
50040095 0.668819590534268 0.40503463686848595 0.008022424 0.0053728 0 0 0 0
50040590 0.6615894353659157 0.4069201472443901 0.006870967 -0.002305672 0 0 0 0
50041085 0.6509336293756884 0.4091743782879339 0.004201381 -0.000461617 0 0 0 0
50041580 0.6764336195653078 0.41898134009779625 -0.005475662 -0.004194883 0 0 0 0
50042075 0.6790212901900186 0.40840905223348595 0.007590279 0.001254091 0 0 0 0
50042570 0.6587599620676182 0.4093142851282292 0.001570046 0.005001613 0 0 0 0
50043065 0.6756680302157697 0.4103199884889407 0.000912109 0.001791244 0 0 0 0
50043560 0.6647960881578401 0.41436568683756203 -0.003438258 -0.002576915 0 0 0 0
50044055 0.6711281678684263 0.41435289788004986 -0.008401263 -0.000160222 0 0 0 0
50044550 0.6701899411021219 0.41319340756928563 0.001506912 -0.002171037 0 0 0 0
50045045 0.6755842691314025 0.41232240727748604 -0.004220709 -0.008786736 0 0 0 0
50045540 0.6738250163452962 0.41310149831674514 0.000148453 -0.003902505 0 0 0 0
50046035 0.6637994015213163 0.40923090325800293 -0.002478922 0.000229938 0 0 0 0
50046530 0.6659056217237684 0.41866496353711957 0.002134335 -0.001729637 0 0 0 0
50047025 0.6733050271028513 0.40609651929233814 -0.004972176 3.9936e-05 0 0 0 0
50047520 0.6764480038309765 0.421477597574734 -0.003678472 -0.003881538 0 0 0 0
50048015 0.6695886975982359 0.4157678276168316 -0.005272407 0.002629922 0 0 0 0
50048510 0.675288301603663 0.41382666413039554 -0.006429443 -0.002916467 0 0 0 0
50049005 0.673491725749349 0.39761429112383095 -0.001692915 -0.007183253 0 0 0 0
50049500 0.6740163673335896 0.4156756986627632 -0.004045866 0.003043973 0 0 0 0
50049995 0.6636728201218383 0.42458373712626213 0.006857239 0.002678658 0 0 0 0
50050490 0.6641331774120119 0.42241985054836817 -0.003906452 0.00026866 0 0 0 0
50050985 0.668265636619954 0.41019481705877153 0.005494797 -0.006229959 0 0 0 0
50051480 0.6653583130969751 0.4088982916181344 0.005253995 -0.00145394 0 0 0 0
50051975 0.6716785645586218 0.4156303849550829 0.004484856 0.002780788 0 0 0 0
50052470 0.6765069955119173 0.40930482533741175 0.003613671 0.002929944 0 0 0 0
50052965 0.6705012759811634 0.4098119936640525 -0.003561725 -0.006158646 0 0 0 0
50053460 0.6789524429823389 0.4085433378282375 0.002576366 0.004719526 0 0 0 0
50053955 0.677939448801867 0.4104175759762845 0.001014073 0.004197569 0 0 0 0
50054450 0.6778424391079547 0.4189694463476038 0.000933839 0.003036785 0 0 0 0
50054945 0.6706807879089705 0.4170269700568384 0.002828943 -0.00094278 0 0 0 0
50055440 0.6706874905557503 0.4153680503740209 -0.002306146 0.006105499 0 0 0 0
50055935 0.6798165918020457 0.42553115239874717 0.002217864 -0.000972151 0 0 0 0
50056430 0.6754225539559614 0.42189037243305333 0.000287371 0.002236516 0 0 0 0
50056925 0.6740000976511329 0.40974266565419715 -0.002835639 -0.005557716 0 0 0 0
50057420 0.6783843629737356 0.4132301198945359 -0.005070738 0.001195845 0 0 0 0
50057915 0.6637290522815704 0.42295569871586103 0.005341002 -0.005296861 0 0 0 0
50058410 0.6736281308985299 0.41451712591567064 -0.001519231 0.007306189 0 0 0 0
50058905 0.6765887466103357 0.4001965399283703 0.007670291 0.001093409 0 0 0 0
50059400 0.6627284990656163 0.41610223950275027 -0.006621356 -0.001793507 0 0 0 0
50059895 0.676601801897857 0.403894219987053 0.002579752 -0.000441411 0 0 0 0
50060390 0.6593915035217374 0.40943134994773955 -0.005107334 -0.007649134 0 0 0 0
50060885 0.6698106294753482 0.39988765659344955 0.002986576 0.000610269 0 0 0 0
50061380 0.6636361199069863 0.41256632355452066 -0.000770877 0.000165086 0 0 0 0
50061875 0.6778247179915109 0.38934059138989874 -0.000918236 0.000410944 0 0 0 0
50062370 0.6813002132858962 0.4068247946098016 -0.003143782 -0.000878304 0 0 0 0
50062865 0.672380638328884 0.42211099572101435 0.002473959 0.000114087 0 0 0 0
50063360 0.6737843844740349 0.4165347632723808 0.004860181 -0.006331389 0 0 0 0
50063855 0.6750205369125897 0.41916827218971997 0.000720911 0.00577911 0 0 0 0
50064350 0.6801376009856474 0.4033354820473782 0.002644361 -0.00259183 0 0 0 0
50064845 0.6714520554380028 0.4063926501388867 -0.001641021 -0.002781703 0 0 0 0
50065340 0.6841693196844374 0.4108492740739038 0.006899559 0.004603506 0 0 0 0
50065835 0.6686022278864197 0.4033582215850883 0.000736159 0.002671814 0 0 0 0
50066330 0.6809772912501125 0.39738902297595646 0.007142765 0.000739167 0 0 0 0
50066825 0.6775987908378591 0.41357784463408526 0.002924065 -0.010058063 0 0 0 0
50067320 0.6768659018094904 0.41179632013520295 -0.004577672 0.002512461 0 0 0 0
50067815 0.6811295624407877 0.40661096234838023 0.004265795 -0.001190582 0 0 0 0
50068310 0.6811603326597253 0.41383501170736386 -1.337e-05 0.003002924 0 0 0 0
50068805 0.6814214183163712 0.4062768093901374 -0.005772922 0.003944342 0 0 0 0
50069300 0.6709246131680289 0.39197124869117084 0.006234759 -0.004481947 0 0 0 0
50069795 0.6741033572273264 0.40468010037255014 -0.002674774 0.000892031 0 0 0 0
50070290 0.6793540193233467 0.4030602372248625 -0.008938404 0.003349223 0 0 0 0
50070785 0.6833448670839016 0.39714780645686654 -7.9518e-05 0.001424864 0 0 0 0
50071280 0.6772627955763477 0.39785314069167593 0.005265941 -0.000200076 0 0 0 0
50071775 0.6742256289350537 0.40800663435881307 0.001093331 -0.00082703 0 0 0 0
50072270 0.6717412851613878 0.4153724038867711 -0.003002669 -0.006531802 0 0 0 0
50072765 0.6718345199582477 0.4165420820484734 -0.000801665 -0.002388746 0 0 0 0
50073260 0.6667679024821442 0.412100549347207 0.001894186 -0.004706096 0 0 0 0
50073755 0.6743465661527104 0.42807813907396136 0.003610554 -0.002873259 0 0 0 0
50074250 0.6697217226996106 0.41859822851309236 0.007889579 -0.002950627 0 0 0 0
50074745 0.6765610482043815 0.42495580291045876 -0.00103972 0.000811051 0 0 0 0
50075240 0.6844979639214855 0.4126418677966422 0.002232883 0.00339311 0 0 0 0
50075735 0.6817613550519881 0.41036447279046406 -0.007807152 0.002281707 0 0 0 0
50076230 0.6842908451487694 0.4045089111267523 0.003494067 0.006064341 0 0 0 0
50076725 0.6683290076625703 0.4047695604966757 0.006005469 0.009263861 0 0 0 0
50077220 0.6804463330500794 0.42393513124840115 0.0018848 -0.00437929 0 0 0 0
50077715 0.6881959449535549 0.4166529077338022 -0.00546094 9.7756e-05 0 0 0 0
50078210 0.6613242669762173 0.4167868021443172 -0.000984291 0.003976262 0 0 0 0
50078705 0.6686546387593572 0.4084982858764178 -0.000241632 0.001956767 0 0 0 0
50079200 0.6774872262695791 0.4024289443457205 -0.000997215 -0.00060288 0 0 0 0
50079695 0.6722599654968873 0.41542661440902884 0.001698632 -0.001354571 0 0 0 0
50080190 0.6639490287934354 0.41974459804911424 -0.004705107 0.000665834 0 0 0 0
50080685 0.6612507741413785 0.41798463590214524 -0.00424999 -0.003074419 0 0 0 0
50081180 0.6885451475218406 0.40323685096910966 -0.001630953 -0.005689311 0 0 0 0
50081675 0.6602872378783392 0.4208909480311263 -0.000468391 -0.003423383 0 0 0 0
50082170 0.6756465264047912 0.4060348811096983 0.003112082 0.008365703 0 0 0 0
50082665 0.6739047877871616 0.4062458009115196 0.002729335 -0.0089741 0 0 0 0
50083160 0.68184641621674 0.4037844208445501 -0.00304585 0.004098168 0 0 0 0
50083655 0.6781475259504168 0.41493420706548173 -0.006157454 -0.009123809 0 0 0 0
50084150 0.6706379520318523 0.4048817718299136 -0.00057845 -0.00054131 0 0 0 0
50084645 0.6732194110382966 0.4146781596318359 0.001100955 0.001611056 0 0 0 0
50085140 0.6684003663429685 0.4081452794186082 0.007625148 0.001321951 0 0 0 0
50085635 0.6809822239348723 0.41386434422664137 -0.000906967 0.002631748 0 0 0 0
50086130 0.6740866159903763 0.4073195278615632 -0.007632871 0.000514589 0 0 0 0
50086625 0.6753322164786022 0.41233585962220554 0.002356408 -0.00450927 0 0 0 0
50087120 0.6839567093062667 0.4224344255286726 -0.003703769 0.00827292 0 0 0 0
50087615 0.6718969455052711 0.4164177134393963 0.000468207 0.007026555 0 0 0 0
50088110 0.6660300169880843 0.4099671964538297 0.000730032 0.002219255 0 0 0 0
50088605 0.67352855583404 0.42531640599574483 0.00422311 0.002154128 0 0 0 0
50089100 0.6740153451559082 0.4076067578637937 0.004040113 0.002639323 0 0 0 0
50089595 0.6848512479391823 0.41158577581541295 -0.000724313 -0.003114073 0 0 0 0
50090090 0.6704684646706516 0.40557605877455377 -0.004978708 0.004803793 0 0 0 0
50090585 0.6708259955872136 0.4236711438837348 0.001874803 0.000207335 0 0 0 0
50091080 0.6827138827135658 0.41500855269934894 -0.003790082 -0.004068925 0 0 0 0
50091575 0.6874989370994787 0.42152427452558433 -0.00261514 -0.002972343 0 0 0 0
50092070 0.6922996423014042 0.4106379231332617 0.003307761 -0.001752962 0 0 0 0
50092565 0.6715472188196778 0.41650877824224 -0.003308653 -0.00500773 0 0 0 0
50093060 0.6770359886210052 0.4164322420392665 0.002136034 -0.004789968 0 0 0 0
50093555 0.6769291872149574 0.407141250104111 0.001190372 0.002025516 0 0 0 0
50094050 0.676388441956914 0.4204173816267144 -0.000556779 0.001776159 0 0 0 0
50094545 0.6762823638484409 0.41926961447343347 -0.002123813 -0.002625005 0 0 0 0
50095040 0.6933917945711181 0.4120288807882869 0.000265329 -0.010091722 0 0 0 0
50095535 0.6712817943420659 0.42183311405574564 0.000269304 0.008793294 0 0 0 0
50096030 0.6766548286038199 0.4205161786995728 0.00425584 0.001754972 0 0 0 0
50096525 0.674487545623051 0.4212652692807715 -0.000517001 -0.000959723 0 0 0 0
50097020 0.6725151269053223 0.41784916406230915 -0.003644909 0.005349149 0 0 0 0
50097515 0.6741892065603595 0.4216966135965746 -0.003314374 -0.000617059 0 0 0 0
50098010 0.6716491119963088 0.41019980283305185 0.003995366 0.007756922 0 0 0 0
50098505 0.6706698779920583 0.3930988671813294 -0.004827757 -0.001417935 0 0 0 0
50099000 0.6619150911668611 0.4151899688284922 -0.00232911 -0.005409964 0 0 0 0
50099495 0.6814466135599799 0.41934822685163614 -0.003433299 0.001968115 0 0 0 0
50099990 0.6813874922972422 0.40432127432531373 0.00039529 -0.007914461 0 0 0 0
50100485 0.6685244890637819 0.425765323364981 -2.1073e-05 0.002010199 0 0 0 0
50100980 0.6781612251002567 0.40690507747720495 0.009132144 -0.001203465 0 0 0 0
50101475 0.6726275547047469 0.415227591509191 -0.006635309 -0.000857648 0 0 0 0
50101970 0.6793403532972716 0.4241475310822787 -0.003081891 -0.005248341 0 0 0 0
50102465 0.6799484354378525 0.40806363841646953 -0.004341683 -0.001082674 0 0 0 0
50102960 0.6817960024562771 0.4123654966951745 0.002443394 -0.004037781 0 0 0 0
50103455 0.6711737427445744 0.4107535519911468 0.004613358 -0.003622582 0 0 0 0
50103950 0.6693632161751509 0.41434279997159196 0.005516903 -0.001701125 0 0 0 0
50104445 0.6717883526868536 0.41155381339157804 -0.013975301 -0.001934121 0 0 0 0
50104940 0.6706904001766615 0.4043980199078759 -0.006967756 0.00280177 0 0 0 0
50105435 0.6670950222882994 0.40622463890189087 -0.003426695 0.000504615 0 0 0 0
50105930 0.6538003440808041 0.402328491130087 0.000226359 0.002144513 0 0 0 0
50106425 0.6690486663374745 0.41440542203174036 0.001971816 -0.002267896 0 0 0 0
50106920 0.6464804834301362 0.4139489379232349 -0.00058494 0.006774098 0 0 0 0
50107415 0.6672559930296962 0.4246974851628328 -0.00730408 0.00154845 0 0 0 0
50107910 0.6661990153579898 0.39911745122062453 -0.002082684 0.003308509 0 0 0 0
50108405 0.6725764264383022 0.40666106886035747 -0.000920575 0.001606197 0 0 0 0
50108900 0.6781095202578739 0.40373762680609715 0.001187144 0.001327575 0 0 0 0
50109395 0.6713432632610062 0.41266180449968165 -0.000368809 -0.001523645 0 0 0 0
50109890 0.6765893385968241 0.3975023185755876 0.001138811 0.009810687 0 0 0 0
50110385 0.6867220097825105 0.4044612324413506 0.004515545 -0.00278146 0 0 0 0
50110880 0.6666032493147519 0.40376066382748355 0.001209578 -0.003116701 0 0 0 0
50111375 0.6758724837893291 0.404468565507755 -0.005725164 0.000241529 0 0 0 0
50111870 0.6755029910048729 0.40355879295205865 -0.002815648 0.002049774 0 0 0 0
50112365 0.657227058728283 0.4160593779984089 0.002998383 -0.004765646 0 0 0 0
50112860 0.6681597847163048 0.4190919750999179 -0.010675727 0.007338635 0 0 0 0
50113355 0.6625707763658688 0.4035393574277904 -0.000681674 0.002416399 0 0 0 0
50113850 0.6743053767089718 0.4038146419917592 -0.0014351 0.003246307 0 0 0 0
50114345 0.6774152565579463 0.4023273874329539 0.004789203 0.0047389 0 0 0 0
50114840 0.670989416525045 0.41454585943813455 -0.000118155 -0.005458046 0 0 0 0
50115335 0.6864419109637023 0.40789098346078173 -0.001609253 0.004815469 0 0 0 0
50115830 0.6793195377357892 0.41107589691114294 -0.000786859 -0.002333596 0 0 0 0
50116325 0.6685677430997427 0.40110968282038084 -2.5507e-05 -0.004594974 0 0 0 0
50116820 0.6698409168979496 0.4049766606220852 0.000354349 7.3117e-05 0 0 0 0
50117315 0.6606654234109898 0.4091803371893077 0.001959222 -0.001890101 0 0 0 0
50117810 0.6744284115205774 0.40652781440776875 -0.001607748 2.0863e-05 0 0 0 0
50118305 0.6733125849479957 0.41513544752121406 -0.003876267 -0.003301788 0 0 0 0
50118800 0.6703085434125579 0.42297987365788814 -0.003243505 -0.008454374 0 0 0 0
50119295 0.6770003787310203 0.4084967179027791 0.003816277 0.001860335 0 0 0 0
50119790 0.6755786368721182 0.4084200507615337 -0.000273246 0.001644616 0 0 0 0
50120285 0.6694664097533722 0.40317904655883724 0.004657586 -0.004120448 0 0 0 0
50120780 0.6736167555517962 0.4085796057622012 -0.001745527 0.001640928 0 0 0 0
50121275 0.6680573329908277 0.4160950000954995 0.00202258 -0.002467927 0 0 0 0
