# HZ S RI R 50
50000000 0.6515150735518489 0.41337843124105544
50000495 0.6576402176984761 0.40275702309048217
50000990 0.6665027692216134 0.40767858625105574
50001485 0.6629927360534088 0.40683739342738806
50001980 0.6608105021020599 0.415590330810352
50002475 0.6588768818333204 0.4040015703410834
50002970 0.6542155198853875 0.4138386477549536
50003465 0.6769043682000886 0.3979578308149676
50003960 0.6549810470121509 0.40380730948718013
50004455 0.6688797206642938 0.41063618283193093
50004950 0.6663720273574822 0.4088278311392006
50005445 0.6570921658943105 0.40922338193971824
50005940 0.6609276946346886 0.40158056420285737
50006435 0.6627321474967126 0.4060228881893974
50006930 0.6601642252618104 0.413543600159142
50007425 0.6644312038526824 0.40766404120087585
50007920 0.6490339751968568 0.4105283820988893
50008415 0.6630519418580127 0.4102767373197926
50008910 0.6780863078222341 0.3961437820917347
50009405 0.6673624395737088 0.40911342651697935
50009900 0.6576041432329058 0.4155645145450442
50010395 0.6668311489606301 0.4156586466012783
50010890 0.6612533689621338 0.4082862898566502
50011385 0.6521706554529864 0.40689297598328594
50011880 0.664205544375927 0.4132100736141778
50012375 0.6576950361521882 0.41510047675718476
50012870 0.6636148365434125 0.4079102961817018
50013365 0.6717617487286843 0.4155328361365077
50013860 0.6585584079880786 0.40604427828750467
50014355 0.6647409111312602 0.3963215474178164
50014850 0.6734746463440445 0.4166965580798036
50015345 0.6599025140264014 0.40928114765007895
50015840 0.6683773010287791 0.40130258781914313
50016335 0.6572695532032242 0.4105291923580947
50016830 0.6576200592705078 0.4069278282016693
50017325 0.6758818332159293 0.4102897079195686
50017820 0.6645265820021656 0.3994018433669869
50018315 0.658532912570296 0.4092297351210005
50018810 0.6670490540445426 0.41105037376601683
50019305 0.6668535780908368 0.4234221993101504
50019800 0.6675873494161395 0.4055465875499751
50020295 0.6673499066454806 0.39893260153168364
50020790 0.6652799849506447 0.4109297604807319
50021285 0.6708190873344115 0.41279937358160224
50021780 0.648949731393392 0.40498145084954823
50022275 0.6712254620210788 0.4009208817783008
50022770 0.6571337099151099 0.40945004877449964
50023265 0.6677048010733756 0.4122393791932985
50023760 0.6501141944417139 0.4227929312424174
50024255 0.6721757796294576 0.41497546669967267
50024750 0.6628767821237815 0.40856212018600313
50025245 0.6679341115885953 0.4057839768549109
50025740 0.6783760606670937 0.4099961178483607
50026235 0.6661515023040614 0.42688361181062995
50026730 0.6694275483409455 0.41242503051527507
50027225 0.6715942403535614 0.40657607439447274
50027720 0.6683945054488137 0.4123749661031275
50028215 0.6694877957848467 0.40758364299707994
50028710 0.6679056092053403 0.41182978705073336
50029205 0.6666817985643322 0.40925024003597676
50029700 0.6697332946781581 0.40918004997598606
50030195 0.6706267647748915 0.4094704195393424
50030690 0.663597277314639 0.4203318761517019
50031185 0.6762490298338019 0.4123670393605434
50031680 0.6733141060174932 0.41537055762456526
50032175 0.6592546751369965 0.4128651822957332
50032670 0.6690520237358732 0.4022853236354187
50033165 0.6650346712615942 0.4018125396242177
50033660 0.6633711223263061 0.41802075083642415
50034155 0.669628097347713 0.40649199344138015
50034650 0.65914891663695 0.41766460811792583
50035145 0.6697284776291929 0.4058847401337781
50035640 0.6726865536116721 0.4074907952519334
50036135 0.6743970107790447 0.40930027073763925
50036630 0.6744553929170133 0.4168468133566087
50037125 0.6707518211669844 0.41449767497454915
50037620 0.6660367104381418 0.39617220107491985
50038115 0.6645309777376566 0.42108253672359547
50038610 0.6764691483698834 0.40769465832337276
50039105 0.6752178184065228 0.41508232845116966
50039600 0.6490694654227289 0.41844502365096686
50040095 0.668819590534268 0.40503463686848595
50040590 0.6615894353659157 0.4069201472443901
50041085 0.6509336293756884 0.4091743782879339
50041580 0.6764336195653078 0.41898134009779625
50042075 0.6790212901900186 0.40840905223348595
50042570 0.6587599620676182 0.4093142851282292
50043065 0.6756680302157697 0.4103199884889407
50043560 0.6647960881578401 0.41436568683756203
50044055 0.6711281678684263 0.41435289788004986
50044550 0.6701899411021219 0.41319340756928563
50045045 0.6755842691314025 0.41232240727748604
50045540 0.6738250163452962 0.41310149831674514
50046035 0.6637994015213163 0.40923090325800293
50046530 0.6659056217237684 0.41866496353711957
50047025 0.6733050271028513 0.40609651929233814
50047520 0.6764480038309765 0.421477597574734
50048015 0.6695886975982359 0.4157678276168316
50048510 0.675288301603663 0.41382666413039554
50049005 0.673491725749349 0.39761429112383095
50049500 0.6740163673335896 0.4156756986627632
50049995 0.6636728201218383 0.42458373712626213
50050490 0.6641331774120119 0.42241985054836817
50050985 0.668265636619954 0.41019481705877153
50051480 0.6653583130969751 0.4088982916181344
50051975 0.6716785645586218 0.4156303849550829
50052470 0.6765069955119173 0.40930482533741175
50052965 0.6705012759811634 0.4098119936640525
50053460 0.6789524429823389 0.4085433378282375
50053955 0.677939448801867 0.4104175759762845
50054450 0.6778424391079547 0.4189694463476038
50054945 0.6706807879089705 0.4170269700568384
50055440 0.6706874905557503 0.4153680503740209
50055935 0.6798165918020457 0.42553115239874717
50056430 0.6754225539559614 0.42189037243305333
50056925 0.6740000976511329 0.40974266565419715
50057420 0.6783843629737356 0.4132301198945359
50057915 0.6637290522815704 0.42295569871586103
50058410 0.6736281308985299 0.41451712591567064
50058905 0.6765887466103357 0.4001965399283703
50059400 0.6627284990656163 0.41610223950275027
50059895 0.676601801897857 0.403894219987053
50060390 0.6593915035217374 0.40943134994773955
50060885 0.6698106294753482 0.39988765659344955
50061380 0.6636361199069863 0.41256632355452066
50061875 0.6778247179915109 0.38934059138989874
50062370 0.6813002132858962 0.4068247946098016
50062865 0.672380638328884 0.42211099572101435
50063360 0.6737843844740349 0.4165347632723808
50063855 0.6750205369125897 0.41916827218971997
50064350 0.6801376009856474 0.4033354820473782
50064845 0.6714520554380028 0.4063926501388867
50065340 0.6841693196844374 0.4108492740739038
50065835 0.6686022278864197 0.4033582215850883
50066330 0.6809772912501125 0.39738902297595646
50066825 0.6775987908378591 0.41357784463408526
50067320 0.6768659018094904 0.41179632013520295
50067815 0.6811295624407877 0.40661096234838023
50068310 0.6811603326597253 0.41383501170736386
50068805 0.6814214183163712 0.4062768093901374
50069300 0.6709246131680289 0.39197124869117084
50069795 0.6741033572273264 0.40468010037255014
50070290 0.6793540193233467 0.4030602372248625
50070785 0.6833448670839016 0.39714780645686654
50071280 0.6772627955763477 0.39785314069167593
50071775 0.6742256289350537 0.40800663435881307
50072270 0.6717412851613878 0.4153724038867711
50072765 0.6718345199582477 0.4165420820484734
50073260 0.6667679024821442 0.412100549347207
50073755 0.6743465661527104 0.42807813907396136
50074250 0.6697217226996106 0.41859822851309236
50074745 0.6765610482043815 0.42495580291045876
50075240 0.6844979639214855 0.4126418677966422
50075735 0.6817613550519881 0.41036447279046406
50076230 0.6842908451487694 0.4045089111267523
50076725 0.6683290076625703 0.4047695604966757
50077220 0.6804463330500794 0.42393513124840115
50077715 0.6881959449535549 0.4166529077338022
50078210 0.6613242669762173 0.4167868021443172
50078705 0.6686546387593572 0.4084982858764178
50079200 0.6774872262695791 0.4024289443457205
50079695 0.6722599654968873 0.41542661440902884
50080190 0.6639490287934354 0.41974459804911424
50080685 0.6612507741413785 0.41798463590214524
50081180 0.6885451475218406 0.40323685096910966
50081675 0.6602872378783392 0.4208909480311263
50082170 0.6756465264047912 0.4060348811096983
50082665 0.6739047877871616 0.4062458009115196
50083160 0.68184641621674 0.4037844208445501
50083655 0.6781475259504168 0.41493420706548173
50084150 0.6706379520318523 0.4048817718299136
50084645 0.6732194110382966 0.4146781596318359
50085140 0.6684003663429685 0.4081452794186082
50085635 0.6809822239348723 0.41386434422664137
50086130 0.6740866159903763 0.4073195278615632
50086625 0.6753322164786022 0.41233585962220554
50087120 0.6839567093062667 0.4224344255286726
50087615 0.6718969455052711 0.4164177134393963
50088110 0.6660300169880843 0.4099671964538297
50088605 0.67352855583404 0.42531640599574483
50089100 0.6740153451559082 0.4076067578637937
50089595 0.6848512479391823 0.41158577581541295
50090090 0.6704684646706516 0.40557605877455377
50090585 0.6708259955872136 0.4236711438837348
50091080 0.6827138827135658 0.41500855269934894
50091575 0.6874989370994787 0.42152427452558433
50092070 0.6922996423014042 0.4106379231332617
50092565 0.6715472188196778 0.41650877824224
50093060 0.6770359886210052 0.4164322420392665
50093555 0.6769291872149574 0.407141250104111
50094050 0.676388441956914 0.4204173816267144
50094545 0.6762823638484409 0.41926961447343347
50095040 0.6933917945711181 0.4120288807882869
50095535 0.6712817943420659 0.42183311405574564
50096030 0.6766548286038199 0.4205161786995728
50096525 0.674487545623051 0.4212652692807715
50097020 0.6725151269053223 0.41784916406230915
50097515 0.6741892065603595 0.4216966135965746
50098010 0.6716491119963088 0.41019980283305185
50098505 0.6706698779920583 0.3930988671813294
50099000 0.6619150911668611 0.4151899688284922
50099495 0.6814466135599799 0.41934822685163614
50099990 0.6813874922972422 0.40432127432531373
50100485 0.6685244890637819 0.425765323364981
50100980 0.6781612251002567 0.40690507747720495
50101475 0.6726275547047469 0.415227591509191
50101970 0.6793403532972716 0.4241475310822787
50102465 0.6799484354378525 0.40806363841646953
50102960 0.6817960024562771 0.4123654966951745
50103455 0.6711737427445744 0.4107535519911468
50103950 0.6693632161751509 0.41434279997159196
50104445 0.6717883526868536 0.41155381339157804
50104940 0.6706904001766615 0.4043980199078759
50105435 0.6670950222882994 0.40622463890189087
50105930 0.6538003440808041 0.402328491130087
50106425 0.6690486663374745 0.41440542203174036
50106920 0.6464804834301362 0.4139489379232349
50107415 0.6672559930296962 0.4246974851628328
50107910 0.6661990153579898 0.39911745122062453
50108405 0.6725764264383022 0.40666106886035747
50108900 0.6781095202578739 0.40373762680609715
50109395 0.6713432632610062 0.41266180449968165
50109890 0.6765893385968241 0.3975023185755876
50110385 0.6867220097825105 0.4044612324413506
50110880 0.6666032493147519 0.40376066382748355
50111375 0.6758724837893291 0.404468565507755
50111870 0.6755029910048729 0.40355879295205865
50112365 0.657227058728283 0.4160593779984089
50112860 0.6681597847163048 0.4190919750999179
50113355 0.6625707763658688 0.4035393574277904
50113850 0.6743053767089718 0.4038146419917592
50114345 0.6774152565579463 0.4023273874329539
50114840 0.670989416525045 0.41454585943813455
50115335 0.6864419109637023 0.40789098346078173
50115830 0.6793195377357892 0.41107589691114294
50116325 0.6685677430997427 0.40110968282038084
50116820 0.6698409168979496 0.4049766606220852
50117315 0.6606654234109898 0.4091803371893077
50117810 0.6744284115205774 0.40652781440776875
50118305 0.6733125849479957 0.41513544752121406
50118800 0.6703085434125579 0.42297987365788814
50119295 0.6770003787310203 0.4084967179027791
50119790 0.6755786368721182 0.4084200507615337
50120285 0.6694664097533722 0.40317904655883724
50120780 0.6736167555517962 0.4085796057622012
50121275 0.6680573329908277 0.4160950000954995
50121770 0.6691674273939048 0.4099431272154856
50122265 0.6783333905086814 0.41284007128834876
50122760 0.6777265176216145 0.40211829304448987
50123255 0.6746344817200213 0.417202995756995
50123750 0.6549957748088713 0.40734556167766894
50124245 0.6761885626500498 0.4144144124907429
50124740 0.6767586639882455 0.4215179850214071
50125235 0.6771436305861736 0.4177325034783895
50125730 0.6677825173022663 0.4113104700738966
50126225 0.6711586463060493 0.41072380698462746
50126720 0.6644332257528602 0.415263958027332
50127215 0.6667991460387045 0.4062595881547761
50127710 0.6802098518644408 0.4083213945034874
50128205 0.6731359957175651 0.3980929435141066
50128700 0.6761674343856408 0.4088649769000775
50129195 0.6643893317636875 0.4094453738366359
50129690 0.6938147188915368 0.4104814380715216
50130185 0.6778844354822903 0.4103632428807768
50130680 0.6546468468585307 0.4164629064507282
50131175 0.6753544612754087 0.42222737348449996
50131670 0.6637066544546947 0.4223713980798408
50132165 0.6684782131607805 0.41717369906913976
50132660 0.6760298976538872 0.4113058154558289
50133155 0.6645311604510244 0.4103732637771377
50133650 0.6654708825473008 0.40081116923541255
50134145 0.6752611592015932 0.40288088077875
50134640 0.667020203734886 0.41461944164209646
50135135 0.6748003149138352 0.3996414882838087
50135630 0.6632185552658936 0.42325431455201495
50136125 0.6801280930564118 0.4076080671110322
50136620 0.6773317120525901 0.40654385004854227
50137115 0.6851705962429325 0.4019285460994224
50137610 0.674323224599243 0.4174684558145101
50138105 0.6831467464741037 0.39960707068205337
50138600 0.6760925424169828 0.40608933155220023
50139095 0.6810215438404049 0.404881533755946
50139590 0.6775279916241627 0.40648581734300315
50140085 0.6671297845487328 0.39482541385828124
50140580 0.6780109582871965 0.4064874964953153
50141075 0.6774152221630003 0.41264721782331865
50141570 0.6683420636153963 0.41152424076768285
50142065 0.6692452346286454 0.4018068202055914
50142560 0.6807445282379073 0.4014905819534207
50143055 0.6677275936131901 0.4052175728263652
50143550 0.6684080862559197 0.41716816362170717
50144045 0.6634372367684159 0.4103609000282683
50144540 0.6747347441756624 0.4116192026186166
50145035 0.6705016696767782 0.3990467516944172
50145530 0.6832983804925924 0.41425544011731413
50146025 0.6676316781809045 0.4158448267480009
50146520 0.6760912298125304 0.4186195573353987
50147015 0.6694564814664296 0.41059092283400855
50147510 0.6750214992453881 0.40942826144677424
50148005 0.6797155530888379 0.40447053897910995
50148500 0.6674268177887306 0.4064002617069439
50148995 0.6711710205602014 0.4160258852676141
50149490 0.6725900493937872 0.39950962744830987
50149985 0.6576543270863091 0.40370960993877264
50150480 0.6714788676347746 0.4199492299851264
50150975 0.6700998295460329 0.40773270924994465
50151470 0.685396723146415 0.41172817375909476
50151965 0.6664515248978454 0.4099131364510175
50152460 0.6788833866810082 0.4057790057953205
50152955 0.6839606180091371 0.40045810954017197
50153450 0.6750229256130874 0.41749286006434144
50153945 0.6739545457398605 0.4055135897175413
50154440 0.6744231871663915 0.41338908171856953
50154935 0.6776007280377556 0.39579355233877234
50155430 0.6757578266997392 0.4037092019246553
50155925 0.6767670246586951 0.41056137399064324
50156420 0.6635815474325562 0.41851027360348275
50156915 0.6781825255386006 0.39695668009705204
50157410 0.670821325729713 0.4146342057549721
50157905 0.6764406925106393 0.40576401931431755
50158400 0.669418102076388 0.4319299090007221
50158895 0.6542681257823062 0.40973832518752323
50159390 0.6666711792507649 0.42246266015048367
50159885 0.6926896905545064 0.40619630221833014
50160380 0.6800483755492492 0.41194752326151646
50160875 0.6777481462924929 0.4138058797360873
50161370 0.6744734255118437 0.41171268921878457
50161865 0.6778510213493425 0.40045677402480034
50162360 0.6770824353885759 0.3964767537066962
50162855 0.6731452919489864 0.3965848041762992
50163350 0.6596291816449934 0.39887338352871293
50163845 0.6709912749626917 0.40946418806871804
50164340 0.675679771771332 0.41512320689230586
50164835 0.6679667971614641 0.41057199051677185
50165330 0.671322317202618 0.40816138996202206
50165825 0.6808648119156525 0.41226866569210513
50166320 0.6836148377359867 0.3963938907636873
50166815 0.6745963210715126 0.41030591881978684
50167310 0.674752823204046 0.40913295421681095
50167805 0.6711758061078874 0.4201747461150657
50168300 0.6827331255481487 0.4075641445625363
50168795 0.6787219404735564 0.4136247504269934
50169290 0.6756813282172156 0.4129084261225759
50169785 0.6852513776426284 0.4046923425135226
50170280 0.6788393618778015 0.40571314020780475
50170775 0.6788074540193152 0.4001050040675271
50171270 0.6605167755686804 0.42211685779328056
50171765 0.6756336655009688 0.4212886766647626
50172260 0.6780263666565435 0.4022215301121274
50172755 0.6785478164284198 0.4052411049179603
50173250 0.675081854167799 0.4094222988414521
50173745 0.6736398650934937 0.4025124109888624
50174240 0.6802882978977823 0.39911937860045127
50174735 0.6933794414392666 0.4082136178950729
50175230 0.667672239751759 0.4055140800641372
50175725 0.6780587994339542 0.41769539588655324
50176220 0.672671482030944 0.41451487066938836
50176715 0.6745858436282405 0.39255510728542464
50177210 0.6695352832856744 0.4061744457881749
50177705 0.6844317719124573 0.409657411558344
50178200 0.6655939257843826 0.4085033486504495
50178695 0.6716707788137214 0.407879289591062
50179190 0.6791371529545758 0.4026096097641965
50179685 0.6868404904750797 0.4034652968292387
50180180 0.6824471307531448 0.41228040125238624
50180675 0.6723756543271864 0.40669016733861885
50181170 0.6722204351678973 0.40864223600354677
50181665 0.6724079737760236 0.4025305076434531
50182160 0.6728634532975707 0.4012195969720517
50182655 0.673191662281724 0.40261365645206254
50183150 0.6877787077772364 0.4060188363830308
50183645 0.6661147780052454 0.4047979275599207
50184140 0.6758421857822877 0.42376032138770314
50184635 0.6876478308169639 0.41293236526880217
50185130 0.6829647933149704 0.40063466590574837
50185625 0.6820987200803839 0.41899443837069505
50186120 0.6728605340245014 0.399965154499486
50186615 0.692081968948396 0.4070661344122798
50187110 0.6804492247175853 0.4090714266802501
50187605 0.6805590383525167 0.40305699723615046
50188100 0.6723638526579543 0.4107942011912157
50188595 0.6856597856173342 0.40838746094143763
50189090 0.6761596149692792 0.4103722868148735
50189585 0.6711055893036836 0.41279822459145077
50190080 0.6671775223945338 0.41574423160491114
50190575 0.6914331066931046 0.40899758040458534
50191070 0.6796537644824142 0.40391031822608103
50191565 0.6826690302748107 0.4042670768098058
50192060 0.6902926389671644 0.4064129677980213
50192555 0.6785929201394224 0.4150094948685521
50193050 0.6741710216658245 0.39961040788369606
50193545 0.6787436596020388 0.40147156604890527
50194040 0.6854192464152479 0.4069799051301109
50194535 0.6826011236372002 0.4078775870701168
50195030 0.6740458902324534 0.4053722430649795
50195525 0.6753992376386181 0.4041143177886809
50196020 0.671628873053411 0.41740411419573853
50196515 0.6713122465937217 0.41648218561434175
50197010 0.6713209958815088 0.4050091563610962
50197505 0.6725607992312617 0.3973917195441613
50198000 0.6903123124349668 0.4214713976686964
50198495 0.684219780754882 0.4131247659938287
50198990 0.6777190043821079 0.4073799467973152
50199485 0.6769925395510569 0.39848128342353684
50199980 0.6816423464582775 0.3899969101017642
50200475 0.6800990517573903 0.40200042461353663
50200970 0.6815127015908922 0.3998854145374491
50201465 0.6825391447088641 0.4044536748870729
50201960 0.6754625034614318 0.41426245450876026
50202455 0.6832838726074404 0.4028965610313685
50202950 0.6815937063612465 0.4139480443514349
50203445 0.682393921744742 0.4119971951359406
50203940 0.6722887923419701 0.40154531158405204
