# HZ S RI R 50
60000000 0.7487938949197313 0.37193563340517094
60000495 0.7337003570345432 0.36465579527813424
60000990 0.7535457064834162 0.3718033860109851
60001485 0.7550178043351339 0.3867990345608396
60001980 0.7405198838341118 0.37375937498486816
60002475 0.742935597146311 0.372901674272443
60002970 0.7495684982283847 0.3698838921613125
60003465 0.7689580155186788 0.3738663702588865
60003960 0.7505501401980886 0.3638260015343976
60004455 0.7601241396092714 0.36720594365217746
60004950 0.7389912565501489 0.38004879259053687
60005445 0.7415847521896654 0.37385708800063994
60005940 0.7536543961240092 0.3827383194074767
60006435 0.7532117862109554 0.38384985123570053
60006930 0.7543165349717633 0.38187214002445763
60007425 0.7555747080223044 0.38414188602439653
60007920 0.751473127942261 0.37049269383180133
60008415 0.7508386495292465 0.3692011289435289
60008910 0.7485285886804687 0.36015315178399204
60009405 0.7353704072835182 0.367085157004563
60009900 0.7465698173950794 0.37608886231693195
60010395 0.7511934723532881 0.37774256223504826
60010890 0.7430731155031025 0.36586406610042926
60011385 0.7606311139668301 0.36229159949303646
60011880 0.7522857798370053 0.3801703100845677
60012375 0.7593125865741392 0.37209924421406343
60012870 0.7361299837047179 0.38117610426328863
60013365 0.7501900091434146 0.3761630102921307
60013860 0.7578756491687078 0.37792359107682566
60014355 0.7514188192801907 0.37697976832830354
60014850 0.7508367825287943 0.3741797690218275
60015345 0.7467923963069666 0.37344247432854544
60015840 0.7531871160029806 0.381894818034082
60016335 0.7556973002016804 0.3779908793430764
60016830 0.7520953085022711 0.37294792779442704
60017325 0.74071705485252 0.3683110870857884
60017820 0.7499187709434654 0.37923092245200424
60018315 0.7433007217946203 0.37047061986093055
60018810 0.7487075482201757 0.3814634602096104
60019305 0.7429185347438415 0.38035956015331696
60019800 0.7419040075017818 0.3655496645785884
60020295 0.7452467754468549 0.37774464559644755
60020790 0.7486736533249782 0.3705660309271981
60021285 0.7587478368920851 0.3769935317101186
60021780 0.7534035932583398 0.36594878531884883
60022275 0.7489528144419879 0.3778452941781579
60022770 0.7457815359933925 0.3801705637654917
60023265 0.7535231648129995 0.3849732431299487
60023760 0.7589770733969422 0.3685931956746979
60024255 0.7433025423560462 0.3777288571667064
60024750 0.7451443756950356 0.37520501051469307
60025245 0.7599334681422626 0.3606247961063052
60025740 0.7565407258573682 0.3656269173443238
60026235 0.746346439215456 0.37465646700904665
60026730 0.7445375605382297 0.3767113339370083
60027225 0.7443705655396669 0.3650496217001541
60027720 0.757490454080176 0.37938487800078213
60028215 0.7434326072348121 0.38345923484086275
60028710 0.7412340536791628 0.3866467715883655
60029205 0.7482903626495427 0.38038076705344565
60029700 0.7430131208092194 0.3560781608520396
60030195 0.7670179654451389 0.3745682434295145
60030690 0.7537926422975761 0.38275517855277913
60031185 0.7494204928168624 0.3699356365286666
60031680 0.7419175434845648 0.36273849369027994
60032175 0.7291005855542452 0.3721285479042839
60032670 0.7418164185473123 0.36926123083935686
60033165 0.7437265672184681 0.3653335290764724
60033660 0.7425216367524753 0.3819201882468927
60034155 0.7441828077935005 0.3780782522364165
60034650 0.7505720138213325 0.37731158198361037
60035145 0.738713025229946 0.37334595339021664
60035640 0.7501164500165975 0.372471193280595
60036135 0.7498006434589312 0.37785546920477586
60036630 0.7436387665082259 0.37747748209154547
60037125 0.7456345909462283 0.36743804513630324
60037620 0.7438719460813876 0.3668231140523235
60038115 0.7521417701157973 0.3742401463408767
60038610 0.7466074457152797 0.36956514381790784
60039105 0.7465691615790858 0.3858876718771928
60039600 0.7365617620567663 0.36219248586968567
60040095 0.7369593491661829 0.35477444179397594
60040590 0.743905189990367 0.377697279359828
60041085 0.7534946729124835 0.36215986765673075
60041580 0.7382060888651204 0.3701557194173956
60042075 0.7434420074462166 0.37275653016172183
60042570 0.7375987964874388 0.37109120303339027
60043065 0.7488898605319814 0.35647284534003487
60043560 0.7376602713948739 0.3653572353456817
60044055 0.7475776094792683 0.37876667335382297
60044550 0.741119133104495 0.37627537121970295
60045045 0.7435406619913831 0.36639466841850166
60045540 0.7342358948125444 0.36491793367586134
60046035 0.743894303703044 0.38294937382219363
60046530 0.745445143021338 0.36053399765755256
60047025 0.7455301623261709 0.35934673841228604
60047520 0.7488012502259456 0.36426696040626594
60048015 0.7417653518901757 0.3675016309128343
60048510 0.7542830147062561 0.38228873279778547
60049005 0.7523376917027567 0.3694683397263232
60049500 0.7468613024844291 0.36644990208353456
60049995 0.7314447091577623 0.3651573136870192
60050490 0.7450096878054027 0.36951013182070946
60050985 0.751163218049332 0.38148631079956696
60051480 0.754557181060052 0.37709102590201987
60051975 0.7515976291184623 0.3639918418038605
60052470 0.7432050876501982 0.36458466531693523
60052965 0.7510726305580321 0.3741175696139969
60053460 0.738348657596899 0.3894049681889019
60053955 0.7450994346313355 0.36631079042362596
60054450 0.7441460966592797 0.3695132816923648
60054945 0.7424921597803079 0.3771556305152902
60055440 0.7412525688951018 0.3636748715610909
60055935 0.7302194754139153 0.3692862294407682
60056430 0.7457723596548015 0.370652522506814
60056925 0.7342346647555829 0.3608798534570477
60057420 0.7461339834870417 0.37891221202472836
60057915 0.7564147955663482 0.36868931947403943
60058410 0.7284054734533305 0.37914065330217944
60058905 0.7466863666453349 0.38232838074268566
60059400 0.7325906280878062 0.36658329022956393
60059895 0.7410842774445516 0.3580529141271932
60060390 0.7435130677570712 0.3684608646707816
60060885 0.7501838266864764 0.36189371787321667
60061380 0.7406118713130414 0.3750127916929489
60061875 0.7456044657218567 0.37179072070596
60062370 0.7381073864406633 0.36714264856588663
60062865 0.7475987121018253 0.37408599990433583
60063360 0.7528813764911874 0.36689382945472915
60063855 0.7480635529389478 0.36590578306235305
60064350 0.7370693649727368 0.36889460100583904
60064845 0.7385971906133424 0.3642202698869035
60065340 0.7418152623263725 0.36967686467491817
60065835 0.7410560315805405 0.3710366595817005
60066330 0.7436096490318692 0.37801589811894293
60066825 0.7500220933460265 0.3708772199416988
60067320 0.7394503396002099 0.3703321053047953
60067815 0.7321896004637375 0.38073003083282125
60068310 0.7276661171588036 0.38488384597797176
60068805 0.7436383866424584 0.3664254181125812
60069300 0.7450370680632619 0.37434714381801665
60069795 0.74692224424234 0.3842555933479319
60070290 0.7361982940230951 0.38204953226320804
60070785 0.7501336584704037 0.3659076467515078
60071280 0.7442014969231197 0.3596293979689803
60071775 0.7543122934068405 0.37150586336787816
60072270 0.7460252365722914 0.3742381606789852
60072765 0.7504639366367906 0.37390798881572995
60073260 0.7456542003034613 0.3633423908398933
60073755 0.752491402856702 0.37733385263489555
60074250 0.7463307755856763 0.3685690540622654
60074745 0.7449335275232009 0.36542288942975076
60075240 0.748761703752795 0.37178685666990524
60075735 0.7457596150536601 0.3667608588560318
60076230 0.7314487758407533 0.37049246912856076
60076725 0.7480917217437355 0.36201466420015327
60077220 0.7482151291986279 0.37996031178442263
60077715 0.7370555736166997 0.3707828661664349
60078210 0.7374264520365769 0.3688298575054377
60078705 0.7378365331777977 0.377488629251343
60079200 0.7404435311333448 0.36193151963771514
60079695 0.7553417676882926 0.3787388468834281
60080190 0.747732592745886 0.3802851190496299
60080685 0.7355843345754459 0.3692141094649221
60081180 0.7434263856251803 0.36104805396862655
60081675 0.7433860500032118 0.3716113085892101
60082170 0.7527623459994455 0.37449769367049557
60082665 0.761572951868239 0.3729307837685903
60083160 0.7366609788171338 0.3848087955294959
60083655 0.7445357242636813 0.37688780976228065
60084150 0.7341676111058466 0.36403432688741094
60084645 0.7435727256358761 0.38531654731323123
60085140 0.7640588634453893 0.36385437253450365
60085635 0.7379445564333232 0.37039912658999763
60086130 0.744024508156085 0.3710527862888918
60086625 0.7412163213164241 0.37462435515266057
60087120 0.7411028388529515 0.36709007433308066
60087615 0.7408406343554721 0.36528965174265415
60088110 0.7399499064790581 0.3696479064777809
60088605 0.7501384518525025 0.37253300985743143
60089100 0.7472008655492549 0.37622968930882905
60089595 0.7381601171963147 0.3907927795525006
60090090 0.7452399911514116 0.3631549883756866
60090585 0.740796357425027 0.3619534905798322
60091080 0.7370536910664168 0.3538483286481249
60091575 0.7397462375561558 0.3478769199610844
60092070 0.7304904444427334 0.37264438103815517
60092565 0.7544016127385572 0.37098315313159497
60093060 0.7468975131071275 0.3760891780208614
60093555 0.7376324324518305 0.37917161578270797
60094050 0.7346335982611899 0.38157035798750377
60094545 0.7344525942532428 0.36756039159102577
60095040 0.7464287415438273 0.36796638302238227
60095535 0.7443979188477975 0.36672973825389954
60096030 0.7453674285984736 0.377841927939435
60096525 0.7306771207078157 0.3760756999722721
60097020 0.7285868080897511 0.3755425648534975
60097515 0.7296715307601754 0.3731434550686338
60098010 0.7377748809147238 0.37110487574228634
60098505 0.7548472093403588 0.3687373008516956
60099000 0.7425761283746322 0.37919051847079
60099495 0.7450048466623304 0.3654939753195355
60099990 0.7449075710010593 0.3774017056500894
60100485 0.7447037705566343 0.3804428282815173
60100980 0.7353143047925376 0.37062791877100687
60101475 0.731378851226624 0.3738898584228431
60101970 0.7487727098159302 0.37427554668858776
60102465 0.7350974667787986 0.3920897381267165
60102960 0.7383760449600385 0.3701788307702923
60103455 0.7430632728062759 0.381464822928245
60103950 0.7397987758700062 0.38519747001111365
60104445 0.7409304666123295 0.3723767498534987
60104940 0.7397492377622643 0.37430377666982045
60105435 0.7447101606346332 0.39864275290056017
60105930 0.7427585960306953 0.37790920902194114
60106425 0.7365730906867266 0.3657681150625033
60106920 0.7384484761657722 0.3754386490997926
60107415 0.7427022646752562 0.3636948965336877
60107910 0.737016429311337 0.37566960822373424
60108405 0.7501250189964893 0.379269486347259
60108900 0.7375560550595525 0.36618258517598695
60109395 0.7425977976917966 0.38092367852556497
60109890 0.745952152988239 0.38645593878580775
60110385 0.731451181931376 0.3761039061498928
60110880 0.7455550423386097 0.3857949772023881
60111375 0.7434090277922095 0.377853237426984
60111870 0.7369923288336843 0.3619113325674802
60112365 0.749478349300677 0.3741334650397531
60112860 0.7411265105977488 0.3798050230548122
60113355 0.7381698487573967 0.380125286695521
60113850 0.7329459932336312 0.3716072228474114
60114345 0.7399993484007809 0.37787227344295454
60114840 0.7387744690850585 0.3715422915097778
60115335 0.7520187605500444 0.38126789948992584
60115830 0.7420131491001116 0.38840208986263475
60116325 0.745982052655727 0.3742142100912745
60116820 0.7373383845934326 0.3814518485767238
60117315 0.7546826925492957 0.3713895236696933
60117810 0.7505691011207012 0.3891640859779175
60118305 0.7497957721274215 0.3689370418920725
60118800 0.7464674676439941 0.36862074454358307
60119295 0.7416354836814258 0.37402224800177625
60119790 0.7584093972009397 0.3719382910272672
60120285 0.7417785418385521 0.3573318801533167
60120780 0.7410515189640124 0.36213540408691974
60121275 0.7423298033032167 0.38411985457668985
60121770 0.7583579354478475 0.37170326308252977
60122265 0.7546658704634561 0.3827385129020177
60122760 0.7569870152193575 0.3863173195869826
60123255 0.7526733266083644 0.38924422881259785
60123750 0.735683622525642 0.37851281434854184
60124245 0.7501669017586483 0.37971601401844945
60124740 0.741503833403005 0.35963134232481914
60125235 0.7561984545477934 0.37107677694206115
60125730 0.7480937250727488 0.37814364618319907
60126225 0.7500312075699395 0.38266638815726
60126720 0.7381104994196854 0.37209740917795786
60127215 0.7570329863506347 0.37367287547070016
60127710 0.7388135502927644 0.37728672559160176
60128205 0.7379677847711482 0.37209943333915146
60128700 0.7397097133851156 0.37685127127881446
60129195 0.7428372895233473 0.3800233483107073
60129690 0.7620137688767975 0.3906735192201239
60130185 0.761542323263946 0.3809543894415009
60130680 0.742875470069677 0.384184075224964
60131175 0.7417510599594997 0.39474822545576566
60131670 0.7524083598432398 0.37997074472251224
60132165 0.733459469282664 0.37747720030954063
60132660 0.7334537473328884 0.3831918525121566
60133155 0.745288275564981 0.3727275562032955
60133650 0.7499972369217546 0.3794361840553693
60134145 0.7496469337459355 0.3874678693285495
60134640 0.7390422170552171 0.37778190602516676
60135135 0.7473610203045605 0.37723786402586534
60135630 0.744922981766936 0.3608241933999739
60136125 0.7544710043013325 0.3791672257754239
60136620 0.7489477937619927 0.38861535922595447
60137115 0.7411578803002961 0.3710988231148862
60137610 0.7403100200500969 0.3722132777798079
60138105 0.7535169240574532 0.36633329573372875
60138600 0.7437820142941006 0.38435489435822057
60139095 0.7451080617043565 0.388753297777838
60139590 0.7597433322123112 0.3818427723052796
60140085 0.7405641676823332 0.384719154175904
60140580 0.750413759001369 0.3752037103297423
60141075 0.7509088194448594 0.3813616830508548
60141570 0.7483055246474706 0.37905056475282867
60142065 0.7447919914464837 0.3772329572068611
60142560 0.7586130066155322 0.3772188755021043
60143055 0.749018318978228 0.3848212093698273
60143550 0.7562804156476106 0.3747511396356055
60144045 0.7452865735385653 0.38327175994272883
60144540 0.7359874613692936 0.38580232310186763
60145035 0.7426852461095861 0.3804069014563554
60145530 0.743323896898049 0.36887370139219056
60146025 0.7450583799185129 0.37190077318030756
60146520 0.739373540925227 0.3728427534725344
60147015 0.7397971455995314 0.3775482188147424
60147510 0.7493741989472499 0.38137381587866237
60148005 0.7465180300894323 0.3834276488382867
60148500 0.7570533432591419 0.3723048777364993
60148995 0.747077227309262 0.3659916233850639
60149490 0.7586225113116463 0.3798910007739183
60149985 0.7452258921955853 0.3806990063094011
60150480 0.735645082119364 0.38138652485802477
60150975 0.7482003020313357 0.387945510673368
60151470 0.7465148563274779 0.38720303687217206
60151965 0.7453907445087709 0.37934382275967043
60152460 0.7489461898418288 0.37453299229583337
60152955 0.742506862178527 0.37768507751209174
60153450 0.7506330429530893 0.38255498839959123
60153945 0.7448093122973319 0.38850925162575883
60154440 0.7511922900092874 0.37893989660873184
60154935 0.7581456385404994 0.37960062762044794
60155430 0.7510331964400538 0.37812194040169206
60155925 0.7525543757512614 0.37455774909769485
60156420 0.7481093477782179 0.385104563919869
60156915 0.7342299591954278 0.3807495722279943
60157410 0.746356146741822 0.3804230535360816
60157905 0.7527777826268289 0.36752610486377624
60158400 0.7492153701706429 0.3913631558981737
60158895 0.7434949282685688 0.3834760100324568
60159390 0.7486478189583909 0.3943726020808077
60159885 0.7491207608697803 0.3766397794213924
60160380 0.7480663419984227 0.37869627091697927
60160875 0.7358791012846101 0.3878352848554493
60161370 0.7488628536547062 0.37199606909823396
60161865 0.7514469146856103 0.3882242997733563
60162360 0.7520341521765208 0.38106168261773155
60162855 0.7577834885017211 0.3865184181393609
60163350 0.7530167613493629 0.38274706679809256
60163845 0.754513111509387 0.3724373801876473
60164340 0.7392925409287324 0.3866735744197823
60164835 0.7614829906003346 0.38001193099451414
60165330 0.7449611110119262 0.38268961278697017
60165825 0.7503394591693113 0.3902971530332348
60166320 0.7512759686899607 0.38534113303257916
60166815 0.7518488917117578 0.4006634510331506
60167310 0.7414584419842253 0.37118434846319026
60167805 0.7524776957432115 0.36679973963355944
60168300 0.7412684191875906 0.3727890909448384
60168795 0.7592113098261472 0.3740544073594601
60169290 0.7459152298365868 0.37307870368348245
60169785 0.7460421221474209 0.39075729879373344
60170280 0.7484685938747294 0.3737538685555865
60170775 0.7501781930870521 0.3819840771097888
60171270 0.7578211866677081 0.37267520443797264
60171765 0.7411350862406639 0.36648205046271093
60172260 0.7405731532550528 0.3835070598782634
60172755 0.7512383403389424 0.38045145303122146
60173250 0.7386596131749558 0.379197777152891
60173745 0.7488562412138193 0.3853107569394803
60174240 0.752862426271134 0.3729789313412208
60174735 0.7645083018414254 0.3828505036601252
60175230 0.7492969266332627 0.38695744382603425
60175725 0.7549399120582929 0.39030626436031574
60176220 0.74798202634474 0.3878215533546334
60176715 0.7600607481958852 0.3758149497039068
60177210 0.7539089262769243 0.3822907293667078
60177705 0.7541677714586829 0.3776598248243182
60178200 0.7522408485658321 0.3923452735890494
60178695 0.7471184743861362 0.3901126660840655
60179190 0.7638862913008664 0.3843139585302975
60179685 0.7406365155981273 0.37890492042641843
60180180 0.7509914352309568 0.3893495273156395
60180675 0.7511772245252397 0.3776869817753696
60181170 0.7591454430022259 0.3883035871967862
60181665 0.7571645600399846 0.3749478135824205
60182160 0.7594146413055923 0.38436347573516205
60182655 0.7487507926884762 0.37992937989954506
60183150 0.7514092637337882 0.37608049883671013
60183645 0.753065219995273 0.3929907473359739
60184140 0.7405457760784712 0.37866499930491776
60184635 0.7589214252698557 0.3857482947458111
60185130 0.7446229023395057 0.3720529167911488
60185625 0.7579897260659678 0.37650682452381024
60186120 0.7541500924657286 0.38299445661537795
60186615 0.7565518804763637 0.3707081040680977
60187110 0.7547036157323993 0.3738965767595499
60187605 0.7555484669494955 0.3820323784056013
60188100 0.7594983851452988 0.3863732508402688
60188595 0.7521002481345391 0.3743371199310142
60189090 0.7486491536666431 0.38343194302787653
60189585 0.7541651859904687 0.3757901493931505
60190080 0.7565665775635823 0.38097316113837826
60190575 0.7614283764825116 0.3898057550449959
60191070 0.7536783260699436 0.37877022392573684
60191565 0.7513899613265499 0.38258024867212687
60192060 0.7539152239372636 0.3716991333114397
60192555 0.7596164908196421 0.38163207402492494
60193050 0.7531292668185855 0.3816282368420964
60193545 0.7493835122860236 0.38579341993273325
60194040 0.7538150739213481 0.38405619506957567
60194535 0.7409425106075304 0.37641064884520836
60195030 0.751058687640867 0.38016254325576326
60195525 0.7469831074700974 0.3712894671917357
60196020 0.753272879322082 0.37276771183862945
60196515 0.7541974164588526 0.38340191948807756
60197010 0.7544579985120058 0.38004467372647316
60197505 0.7527187486237051 0.38209352288917164
60198000 0.7626156447175308 0.3791815739023781
60198495 0.7547375589360951 0.38748365271243995
60198990 0.7446877280204056 0.36801637258207254
60199485 0.7501296032601894 0.38322449448941165
60199980 0.7583770508351071 0.388207794786913
60200475 0.751359336461015 0.39649823971811454
60200970 0.7487691267859723 0.3734324835071849
60201465 0.7442332051963234 0.35738394826062525
60201960 0.7689704707016477 0.3757357577535993
60202455 0.748471281471773 0.37722574025281425
60202950 0.756935659081686 0.3674777619868643
60203445 0.753508779933788 0.37977924222128545
60203940 0.7582459191721488 0.37477534681636593
