# HZ S RI R 50
60000000 0.7487938949197313 0.37193563340517094 -0.0029994 -0.002368855 0 0 0 0
60000495 0.7337003570345432 0.36465579527813424 0.000288275 -0.000589711 0 0 0 0
60000990 0.7535457064834162 0.3718033860109851 0.000964126 -0.002865997 0 0 0 0
60001485 0.7550178043351339 0.3867990345608396 -0.005431899 -0.002188744 0 0 0 0
60001980 0.7405198838341118 0.37375937498486816 0.00346329 0.002099117 0 0 0 0
60002475 0.742935597146311 0.372901674272443 0.003693811 -0.002444116 0 0 0 0
60002970 0.7495684982283847 0.3698838921613125 -0.000251302 0.007180641 0 0 0 0
60003465 0.7689580155186788 0.3738663702588865 -0.004074807 -0.000915971 0 0 0 0
60003960 0.7505501401980886 0.3638260015343976 -0.008502945 0.000357332 0 0 0 0
60004455 0.7601241396092714 0.36720594365217746 -0.000162706 0.002260762 0 0 0 0
60004950 0.7389912565501489 0.38004879259053687 0.00420005 -0.000632729 0 0 0 0
60005445 0.7415847521896654 0.37385708800063994 0.002578853 8.4747e-05 0 0 0 0
60005940 0.7536543961240092 0.3827383194074767 -0.001433589 0.005482814 0 0 0 0
60006435 0.7532117862109554 0.38384985123570053 -0.003849762 -0.006293876 0 0 0 0
60006930 0.7543165349717633 0.38187214002445763 -0.001006264 0.004559919 0 0 0 0
60007425 0.7555747080223044 0.38414188602439653 0.005886606 -0.001136081 0 0 0 0
60007920 0.751473127942261 0.37049269383180133 0.001918303 0.001062569 0 0 0 0
60008415 0.7508386495292465 0.3692011289435289 0.000960986 0.003224114 0 0 0 0
60008910 0.7485285886804687 0.36015315178399204 0.001224198 -0.001154517 0 0 0 0
60009405 0.7353704072835182 0.367085157004563 -0.006515677 0.004693641 0 0 0 0
60009900 0.7465698173950794 0.37608886231693195 -0.005699064 0.006942 0 0 0 0
60010395 0.7511934723532881 0.37774256223504826 -0.002973437 -0.001580683 0 0 0 0
60010890 0.7430731155031025 0.36586406610042926 0.001907135 -0.004429865 0 0 0 0
60011385 0.7606311139668301 0.36229159949303646 0.002076403 -0.005378398 0 0 0 0
60011880 0.7522857798370053 0.3801703100845677 -0.003898651 0.004916704 0 0 0 0
60012375 0.7593125865741392 0.37209924421406343 0.006531055 0.003959357 0 0 0 0
60012870 0.7361299837047179 0.38117610426328863 -0.004813656 -0.007296324 0 0 0 0
60013365 0.7501900091434146 0.3761630102921307 -0.004148596 -0.004998989 0 0 0 0
60013860 0.7578756491687078 0.37792359107682566 0.003568095 -0.003913339 0 0 0 0
60014355 0.7514188192801907 0.37697976832830354 0.007033248 -0.000362529 0 0 0 0
60014850 0.7508367825287943 0.3741797690218275 -0.004008377 -0.001933557 0 0 0 0
60015345 0.7467923963069666 0.37344247432854544 0.001133299 -0.006812297 0 0 0 0
60015840 0.7531871160029806 0.381894818034082 0.008627485 -0.003154403 0 0 0 0
60016335 0.7556973002016804 0.3779908793430764 0.005724987 0.007699908 0 0 0 0
60016830 0.7520953085022711 0.37294792779442704 -0.00080314 0.002454897 0 0 0 0
60017325 0.74071705485252 0.3683110870857884 -0.007163085 0.005528046 0 0 0 0
60017820 0.7499187709434654 0.37923092245200424 0.0008822 0.002243633 0 0 0 0
60018315 0.7433007217946203 0.37047061986093055 0.00500264 -0.001727797 0 0 0 0
60018810 0.7487075482201757 0.3814634602096104 -0.006025655 -0.001384014 0 0 0 0
60019305 0.7429185347438415 0.38035956015331696 0.001548997 -0.001162309 0 0 0 0
60019800 0.7419040075017818 0.3655496645785884 0.001774492 0.000212454 0 0 0 0
60020295 0.7452467754468549 0.37774464559644755 -0.002437543 0.001075825 0 0 0 0
60020790 0.7486736533249782 0.3705660309271981 -0.007583119 -0.001099367 0 0 0 0
60021285 0.7587478368920851 0.3769935317101186 -0.004438548 0.002645293 0 0 0 0
60021780 0.7534035932583398 0.36594878531884883 0.001120694 -0.009563433 0 0 0 0
60022275 0.7489528144419879 0.3778452941781579 0.003758809 0.004519437 0 0 0 0
60022770 0.7457815359933925 0.3801705637654917 0.002934446 0.003345509 0 0 0 0
60023265 0.7535231648129995 0.3849732431299487 -0.005154954 0.001264611 0 0 0 0
60023760 0.7589770733969422 0.3685931956746979 -0.006603187 -0.003453787 0 0 0 0
60024255 0.7433025423560462 0.3777288571667064 -0.001010572 -0.003411379 0 0 0 0
60024750 0.7451443756950356 0.37520501051469307 0.002904749 0.005058878 0 0 0 0
60025245 0.7599334681422626 0.3606247961063052 0.007150065 0.005235422 0 0 0 0
60025740 0.7565407258573682 0.3656269173443238 0.005644884 -0.001267653 0 0 0 0
60026235 0.746346439215456 0.37465646700904665 -0.004437073 -0.002758115 0 0 0 0
60026730 0.7445375605382297 0.3767113339370083 0.000742565 -0.007030272 0 0 0 0
60027225 0.7443705655396669 0.3650496217001541 0.008383664 0.000396004 0 0 0 0
60027720 0.757490454080176 0.37938487800078213 -0.001407036 -0.000331598 0 0 0 0
60028215 0.7434326072348121 0.38345923484086275 -0.007755338 -0.001302669 0 0 0 0
60028710 0.7412340536791628 0.3866467715883655 -0.001588956 3.3144e-05 0 0 0 0
60029205 0.7482903626495427 0.38038076705344565 -0.001154489 -0.006256869 0 0 0 0
60029700 0.7430131208092194 0.3560781608520396 0.001057704 -0.001411241 0 0 0 0
60030195 0.7670179654451389 0.3745682434295145 0.001496469 0.002499494 0 0 0 0
60030690 0.7537926422975761 0.38275517855277913 -0.004592547 -0.000641457 0 0 0 0
60031185 0.7494204928168624 0.3699356365286666 -0.001807839 -0.004985155 0 0 0 0
60031680 0.7419175434845648 0.36273849369027994 -0.00133364 -0.00792213 0 0 0 0
60032175 0.7291005855542452 0.3721285479042839 0.005283074 -0.006199342 0 0 0 0
60032670 0.7418164185473123 0.36926123083935686 0.001552144 0.00200165 0 0 0 0
60033165 0.7437265672184681 0.3653335290764724 -0.003976752 0.004740573 0 0 0 0
60033660 0.7425216367524753 0.3819201882468927 -0.001463149 -0.001320735 0 0 0 0
60034155 0.7441828077935005 0.3780782522364165 0.001259845 -0.002929512 0 0 0 0
60034650 0.7505720138213325 0.37731158198361037 -0.001155652 -0.002731279 0 0 0 0
60035145 0.738713025229946 0.37334595339021664 -0.002949752 0.000204702 0 0 0 0
60035640 0.7501164500165975 0.372471193280595 0.008767968 -0.003990685 0 0 0 0
60036135 0.7498006434589312 0.37785546920477586 -0.003393399 -0.003981863 0 0 0 0
60036630 0.7436387665082259 0.37747748209154547 -0.003404198 -0.002046413 0 0 0 0
60037125 0.7456345909462283 0.36743804513630324 -0.001191959 -0.006240824 0 0 0 0
60037620 0.7438719460813876 0.3668231140523235 -0.004606575 -0.003467551 0 0 0 0
60038115 0.7521417701157973 0.3742401463408767 0.007723354 -0.001767348 0 0 0 0
60038610 0.7466074457152797 0.36956514381790784 0.002433125 0.004075254 0 0 0 0
60039105 0.7465691615790858 0.3858876718771928 0.003140251 -0.004731058 0 0 0 0
60039600 0.7365617620567663 0.36219248586968567 0.003020449 0.005828286 0 0 0 0
60040095 0.7369593491661829 0.35477444179397594 -0.006494052 -0.005811355 0 0 0 0
60040590 0.743905189990367 0.377697279359828 0.008932108 -0.001649117 0 0 0 0
60041085 0.7534946729124835 0.36215986765673075 0.006591997 0.002372538 0 0 0 0
60041580 0.7382060888651204 0.3701557194173956 -0.000766246 0.005229916 0 0 0 0
60042075 0.7434420074462166 0.37275653016172183 -0.001896961 0.00217735 0 0 0 0
60042570 0.7375987964874388 0.37109120303339027 -0.000982263 -0.007369762 0 0 0 0
60043065 0.7488898605319814 0.35647284534003487 0.001670342 0.001531836 0 0 0 0
60043560 0.7376602713948739 0.3653572353456817 -0.001184272 0.002567121 0 0 0 0
60044055 0.7475776094792683 0.37876667335382297 0.006242589 -0.000731205 0 0 0 0
60044550 0.741119133104495 0.37627537121970295 -0.006338105 0.001835212 0 0 0 0
60045045 0.7435406619913831 0.36639466841850166 -0.000345827 0.0052228 0 0 0 0
60045540 0.7342358948125444 0.36491793367586134 -0.003893528 0.004621042 0 0 0 0
60046035 0.743894303703044 0.38294937382219363 -0.001130439 -0.011496862 0 0 0 0
60046530 0.745445143021338 0.36053399765755256 0.006079932 -0.002759781 0 0 0 0
60047025 0.7455301623261709 0.35934673841228604 0.002685838 -0.002681328 0 0 0 0
60047520 0.7488012502259456 0.36426696040626594 -0.001214749 -0.0002814 0 0 0 0
60048015 0.7417653518901757 0.3675016309128343 -0.004010067 -0.005823994 0 0 0 0
60048510 0.7542830147062561 0.38228873279778547 0.00227758 -0.007686069 0 0 0 0
60049005 0.7523376917027567 0.3694683397263232 0.000787912 -0.005351706 0 0 0 0
60049500 0.7468613024844291 0.36644990208353456 0.003036088 -0.000869168 0 0 0 0
60049995 0.7314447091577623 0.3651573136870192 -0.000340853 0.003327281 0 0 0 0
60050490 0.7450096878054027 0.36951013182070946 -0.004939046 0.000181547 0 0 0 0
60050985 0.751163218049332 0.38148631079956696 -0.004307254 -0.006229108 0 0 0 0
60051480 0.754557181060052 0.37709102590201987 -0.000388352 -0.000355737 0 0 0 0
60051975 0.7515976291184623 0.3639918418038605 0.006484744 -0.003752845 0 0 0 0
60052470 0.7432050876501982 0.36458466531693523 0.000362115 0.000303291 0 0 0 0
60052965 0.7510726305580321 0.3741175696139969 -0.005006458 0.000852057 0 0 0 0
60053460 0.738348657596899 0.3894049681889019 -8.868e-05 -0.004839266 0 0 0 0
60053955 0.7450994346313355 0.36631079042362596 0.006935857 -0.004889209 0 0 0 0
60054450 0.7441460966592797 0.3695132816923648 0.008702863 -0.005294661 0 0 0 0
60054945 0.7424921597803079 0.3771556305152902 0.00417757 0.003888435 0 0 0 0
60055440 0.7412525688951018 0.3636748715610909 -0.006099451 0.001478825 0 0 0 0
60055935 0.7302194754139153 0.3692862294407682 -0.010126374 0.003545998 0 0 0 0
60056430 0.7457723596548015 0.370652522506814 -0.003888002 -0.001874777 0 0 0 0
60056925 0.7342346647555829 0.3608798534570477 0.002082007 -0.006098231 0 0 0 0
60057420 0.7461339834870417 0.37891221202472836 0.004949302 -0.003594655 0 0 0 0
60057915 0.7564147955663482 0.36868931947403943 0.001617134 -0.004920998 0 0 0 0
60058410 0.7284054734533305 0.37914065330217944 -0.007110099 0.002932056 0 0 0 0
60058905 0.7466863666453349 0.38232838074268566 -0.010661222 -0.001167995 0 0 0 0
60059400 0.7325906280878062 0.36658329022956393 0.003369275 -0.000674413 0 0 0 0
60059895 0.7410842774445516 0.3580529141271932 0.008863758 -0.004943997 0 0 0 0
60060390 0.7435130677570712 0.3684608646707816 -0.000853186 0.000932575 0 0 0 0
60060885 0.7501838266864764 0.36189371787321667 -0.005378869 -0.000387599 0 0 0 0
60061380 0.7406118713130414 0.3750127916929489 -0.004655045 -0.004192904 0 0 0 0
60061875 0.7456044657218567 0.37179072070596 -0.001776618 0.004698974 0 0 0 0
60062370 0.7381073864406633 0.36714264856588663 0.000647872 -0.002248631 0 0 0 0
60062865 0.7475987121018253 0.37408599990433583 0.005637917 -0.011459882 0 0 0 0
60063360 0.7528813764911874 0.36689382945472915 0.010286542 -0.000778557 0 0 0 0
60063855 0.7480635529389478 0.36590578306235305 -0.003549168 0.009508159 0 0 0 0
60064350 0.7370693649727368 0.36889460100583904 0.000848672 0.003148639 0 0 0 0
60064845 0.7385971906133424 0.3642202698869035 -0.005906849 -0.00608188 0 0 0 0
60065340 0.7418152623263725 0.36967686467491817 0.010362215 0.001418434 0 0 0 0
60065835 0.7410560315805405 0.3710366595817005 0.002141674 0.000639065 0 0 0 0
60066330 0.7436096490318692 0.37801589811894293 -0.005177401 0.001783638 0 0 0 0
60066825 0.7500220933460265 0.3708772199416988 -0.003732698 0.000867596 0 0 0 0
60067320 0.7394503396002099 0.3703321053047953 0.004398851 -0.003773062 0 0 0 0
60067815 0.7321896004637375 0.38073003083282125 0.008430155 0.003342114 0 0 0 0
60068310 0.7276661171588036 0.38488384597797176 5.4029e-05 -0.002380784 0 0 0 0
60068805 0.7436383866424584 0.3664254181125812 -0.002117169 0.001175249 0 0 0 0
60069300 0.7450370680632619 0.37434714381801665 -0.00120762 0.001611561 0 0 0 0
60069795 0.74692224424234 0.3842555933479319 0.000808603 -0.006452634 0 0 0 0
60070290 0.7361982940230951 0.38204953226320804 -0.002609228 -7.7953e-05 0 0 0 0
60070785 0.7501336584704037 0.3659076467515078 0.002495447 -0.006761166 0 0 0 0
60071280 0.7442014969231197 0.3596293979689803 -0.003340183 0.00268175 0 0 0 0
60071775 0.7543122934068405 0.37150586336787816 -0.007868831 0.003815797 0 0 0 0
60072270 0.7460252365722914 0.3742381606789852 -0.001749757 -0.005208608 0 0 0 0
60072765 0.7504639366367906 0.37390798881572995 0.005677218 -0.002258083 0 0 0 0
60073260 0.7456542003034613 0.3633423908398933 0.003901644 -0.001615601 0 0 0 0
60073755 0.752491402856702 0.37733385263489555 -0.003008348 0.000456681 0 0 0 0
60074250 0.7463307755856763 0.3685690540622654 -0.002887576 0.006541909 0 0 0 0
60074745 0.7449335275232009 0.36542288942975076 -0.002848749 -0.001758431 0 0 0 0
60075240 0.748761703752795 0.37178685666990524 -0.001886303 -0.005992063 0 0 0 0
60075735 0.7457596150536601 0.3667608588560318 0.008364506 -0.000301505 0 0 0 0
60076230 0.7314487758407533 0.37049246912856076 -0.005450603 0.000567023 0 0 0 0
60076725 0.7480917217437355 0.36201466420015327 -0.00431423 0.001558677 0 0 0 0
60077220 0.7482151291986279 0.37996031178442263 0.000177941 -0.000814707 0 0 0 0
60077715 0.7370555736166997 0.3707828661664349 -0.000867764 0.000447496 0 0 0 0
60078210 0.7374264520365769 0.3688298575054377 0.00067422 -0.005403166 0 0 0 0
60078705 0.7378365331777977 0.377488629251343 0.002318027 0.00237918 0 0 0 0
60079200 0.7404435311333448 0.36193151963771514 -0.002260762 0.002889265 0 0 0 0
60079695 0.7553417676882926 0.3787388468834281 0.0051287 0.000584102 0 0 0 0
60080190 0.747732592745886 0.3802851190496299 -0.000279904 -0.004511719 0 0 0 0
60080685 0.7355843345754459 0.3692141094649221 0.00125639 -0.010745609 0 0 0 0
60081180 0.7434263856251803 0.36104805396862655 0.00587052 0.002395732 0 0 0 0
60081675 0.7433860500032118 0.3716113085892101 0.00382049 0.006592842 0 0 0 0
60082170 0.7527623459994455 0.37449769367049557 0.001116102 0.001400865 0 0 0 0
60082665 0.761572951868239 0.3729307837685903 -0.002121975 0.00308197 0 0 0 0
60083160 0.7366609788171338 0.3848087955294959 0.002417669 0.003012845 0 0 0 0
60083655 0.7445357242636813 0.37688780976228065 0.007371223 -0.002186935 0 0 0 0
60084150 0.7341676111058466 0.36403432688741094 0.001564437 0.003444779 0 0 0 0
60084645 0.7435727256358761 0.38531654731323123 -0.002817983 -0.000523324 0 0 0 0
60085140 0.7640588634453893 0.36385437253450365 -0.007819142 0.002871768 0 0 0 0
60085635 0.7379445564333232 0.37039912658999763 -0.002194132 0.001023359 0 0 0 0
60086130 0.744024508156085 0.3710527862888918 0.000914907 -0.006199545 0 0 0 0
60086625 0.7412163213164241 0.37462435515266057 0.001716753 0.002529809 0 0 0 0
60087120 0.7411028388529515 0.36709007433308066 0.003729964 -0.001432386 0 0 0 0
60087615 0.7408406343554721 0.36528965174265415 -0.002331975 0.004647064 0 0 0 0
60088110 0.7399499064790581 0.3696479064777809 -0.006742929 0.00423047 0 0 0 0
60088605 0.7501384518525025 0.37253300985743143 -0.002602914 -0.000867651 0 0 0 0
60089100 0.7472008655492549 0.37622968930882905 -0.003608388 -0.007410641 0 0 0 0
60089595 0.7381601171963147 0.3907927795525006 0.007685425 -2.6943e-05 0 0 0 0
60090090 0.7452399911514116 0.3631549883756866 0.0143037 -0.003477786 0 0 0 0
60090585 0.740796357425027 0.3619534905798322 -0.000259672 -0.001198414 0 0 0 0
60091080 0.7370536910664168 0.3538483286481249 0.001747181 -4.9784e-05 0 0 0 0
60091575 0.7397462375561558 0.3478769199610844 -0.002970286 -0.00078776 0 0 0 0
60092070 0.7304904444427334 0.37264438103815517 0.000270875 -0.005268071 0 0 0 0
60092565 0.7544016127385572 0.37098315313159497 0.00614685 0.003174384 0 0 0 0
60093060 0.7468975131071275 0.3760891780208614 -0.00074067 0.006882268 0 0 0 0
60093555 0.7376324324518305 0.37917161578270797 -0.002310452 -0.001460272 0 0 0 0
60094050 0.7346335982611899 0.38157035798750377 -0.005168277 -0.00699968 0 0 0 0
60094545 0.7344525942532428 0.36756039159102577 -0.002139795 -0.005144445 0 0 0 0
60095040 0.7464287415438273 0.36796638302238227 0.001882047 0.003965313 0 0 0 0
60095535 0.7443979188477975 0.36672973825389954 0.001710659 0.001521222 0 0 0 0
60096030 0.7453674285984736 0.377841927939435 -0.005841766 0.003795796 0 0 0 0
60096525 0.7306771207078157 0.3760756999722721 0.008409488 0.006574863 0 0 0 0
60097020 0.7285868080897511 0.3755425648534975 -0.001970911 -0.011277125 0 0 0 0
60097515 0.7296715307601754 0.3731434550686338 0.004533215 -0.005057708 0 0 0 0
60098010 0.7377748809147238 0.37110487574228634 0.005323644 0.006778663 0 0 0 0
60098505 0.7548472093403588 0.3687373008516956 -0.004498827 0.004034881 0 0 0 0
60099000 0.7425761283746322 0.37919051847079 0.000747265 -0.00030976 0 0 0 0
60099495 0.7450048466623304 0.3654939753195355 -0.00144564 -0.004932858 0 0 0 0
60099990 0.7449075710010593 0.3774017056500894 -0.003351193 -0.009226948 0 0 0 0
60100485 0.7447037705566343 0.3804428282815173 -0.009203957 -0.00816798 0 0 0 0
60100980 0.7353143047925376 0.37062791877100687 0.005624195 -0.003479223 0 0 0 0
60101475 0.731378851226624 0.3738898584228431 -0.000696962 0.000620035 0 0 0 0
60101970 0.7487727098159302 0.37427554668858776 -0.003224198 0.003505792 0 0 0 0
60102465 0.7350974667787986 0.3920897381267165 -0.002872694 -0.005190159 0 0 0 0
60102960 0.7383760449600385 0.3701788307702923 0.004085906 -0.007654797 0 0 0 0
60103455 0.7430632728062759 0.381464822928245 -0.000783951 -0.007829644 0 0 0 0
60103950 0.7397987758700062 0.38519747001111365 0.000185308 0.009427967 0 0 0 0
60104445 0.7409304666123295 0.3723767498534987 -0.00081561 0.000981744 0 0 0 0
60104940 0.7397492377622643 0.37430377666982045 0.000254281 -0.002350436 0 0 0 0
60105435 0.7447101606346332 0.39864275290056017 -0.003317851 -0.003224785 0 0 0 0
60105930 0.7427585960306953 0.37790920902194114 0.003115179 0.000267779 0 0 0 0
60106425 0.7365730906867266 0.3657681150625033 0.001443195 0.002890588 0 0 0 0
60106920 0.7384484761657722 0.3754386490997926 -0.002753709 -0.002816965 0 0 0 0
60107415 0.7427022646752562 0.3636948965336877 -0.003173042 0.001228943 0 0 0 0
60107910 0.737016429311337 0.37566960822373424 -0.007098441 -0.007464692 0 0 0 0
60108405 0.7501250189964893 0.379269486347259 0.005037268 -0.002650029 0 0 0 0
60108900 0.7375560550595525 0.36618258517598695 0.008923074 0.006002411 0 0 0 0
60109395 0.7425977976917966 0.38092367852556497 -0.006702406 0.004513629 0 0 0 0
60109890 0.745952152988239 0.38645593878580775 -0.008435587 0.001592049 0 0 0 0
60110385 0.731451181931376 0.3761039061498928 -0.001767224 -0.003139215 0 0 0 0
60110880 0.7455550423386097 0.3857949772023881 0.00082375 -0.003606712 0 0 0 0
60111375 0.7434090277922095 0.377853237426984 0.003834133 0.002341375 0 0 0 0
60111870 0.7369923288336843 0.3619113325674802 0.002904864 0.008540004 0 0 0 0
60112365 0.749478349300677 0.3741334650397531 0.003237147 0.002743582 0 0 0 0
60112860 0.7411265105977488 0.3798050230548122 -0.001801797 -0.006402919 0 0 0 0
60113355 0.7381698487573967 0.380125286695521 -0.00405607 -0.004196441 0 0 0 0
60113850 0.7329459932336312 0.3716072228474114 0.002378538 0.000397947 0 0 0 0
60114345 0.7399993484007809 0.37787227344295454 0.006023605 0.00245545 0 0 0 0
60114840 0.7387744690850585 0.3715422915097778 -0.000445229 0.001409449 0 0 0 0
60115335 0.7520187605500444 0.38126789948992584 -0.006570732 0.005217443 0 0 0 0
60115830 0.7420131491001116 0.38840208986263475 0.000840457 -0.002195594 0 0 0 0
60116325 0.745982052655727 0.3742142100912745 3.9537e-05 -0.001203201 0 0 0 0
60116820 0.7373383845934326 0.3814518485767238 0.001644579 -0.003880488 0 0 0 0
60117315 0.7546826925492957 0.3713895236696933 0.000139836 0.006331183 0 0 0 0
60117810 0.7505691011207012 0.3891640859779175 -0.001099255 0.002976601 0 0 0 0
60118305 0.7497957721274215 0.3689370418920725 -0.001272474 0.001749684 0 0 0 0
60118800 0.7464674676439941 0.36862074454358307 -0.001116737 -0.003931907 0 0 0 0
60119295 0.7416354836814258 0.37402224800177625 0.004593207 -0.001265235 0 0 0 0
60119790 0.7584093972009397 0.3719382910272672 0.004730615 -0.004735619 0 0 0 0
60120285 0.7417785418385521 0.3573318801533167 0.00110951 0.003014794 0 0 0 0
60120780 0.7410515189640124 0.36213540408691974 -0.002265572 -0.00073089 0 0 0 0
60121275 0.7423298033032167 0.38411985457668985 -0.008260051 9.9668e-05 0 0 0 0
