# HZ S RI R 50
70000000 0.4407210169996585 0.031537600405242075 -0.004150595 0.002227339 0 0 0 0
70000495 0.4429852076071978 0.04750537220128361 0.001897008 0.002676501 0 0 0 0
70000990 0.44677301723154333 0.03842305073942016 -0.003452898 0.001162132 0 0 0 0
70001485 0.44055360128025123 0.03380052624871371 -0.00585229 -0.004638738 0 0 0 0
70001980 0.44424470579412306 0.04041435667131332 -0.000446524 -0.002432393 0 0 0 0
70002475 0.4495242000653436 0.03572023185151357 -0.002723715 0.004365831 0 0 0 0
70002970 0.44566794847739516 0.03424456291050805 0.004035608 0.002907219 0 0 0 0
70003465 0.45116163874792475 0.04151744551087593 0.001019905 -0.001607363 0 0 0 0
70003960 0.44779595656196897 0.03874107668676613 0.00266767 0.00479055 0 0 0 0
70004455 0.44233854121574345 0.04022890765542515 -0.000646439 -0.002976745 0 0 0 0
70004950 0.4524741921622796 0.04410283316301518 0.00073808 0.001756034 0 0 0 0
70005445 0.44035521368535024 0.03104583502162043 -0.000516329 0.002184877 0 0 0 0
70005940 0.45243372690312367 0.034328938473297585 0.001235343 -0.001284037 0 0 0 0
70006435 0.4501121770378296 0.03856630411187073 -0.00307527 0.004466998 0 0 0 0
70006930 0.44112054918542404 0.04222378150803475 -0.001223658 -0.003335465 0 0 0 0
70007425 0.4429691556198229 0.03875876725612095 -0.0008913 -0.009140711 0 0 0 0
70007920 0.44415207758723196 0.04222254732952867 -0.002500608 -0.005145742 0 0 0 0
70008415 0.444261477386007 0.04213242578005893 0.005916832 0.006331931 0 0 0 0
70008910 0.4488864307117163 0.039443084766278676 -0.005425575 0.001313315 0 0 0 0
70009405 0.44140754658632486 0.03717174904533479 -0.002619582 -0.007602247 0 0 0 0
70009900 0.4515901051135522 0.03878923532439647 8.8281e-05 -0.002763759 0 0 0 0
70010395 0.4482452004316715 0.033807969185815856 0.002674764 -0.000117062 0 0 0 0
70010890 0.4471893340860911 0.03815338716940106 -0.000348436 0.001190978 0 0 0 0
70011385 0.4451628214071309 0.035971727396554784 -0.000323801 0.006804476 0 0 0 0
70011880 0.4420708188356308 0.039186486972208695 0.00039658 0.002609957 0 0 0 0
70012375 0.45534872293596507 0.03979792269259946 0.00284396 -0.005397934 0 0 0 0
70012870 0.44708307387998536 0.048096285113513736 -0.002795983 -0.006084809 0 0 0 0
70013365 0.4443974256453552 0.035183336032272784 0.003791912 -0.005408378 0 0 0 0
70013860 0.43661204869855136 0.03955186692977618 -0.000283703 0.00249016 0 0 0 0
70014355 0.4441771015820706 0.04159997582761165 0.003846389 -0.000853409 0 0 0 0
70014850 0.4464711884343874 0.038968484979277025 0.008275354 -0.002081597 0 0 0 0
70015345 0.4427771833343058 0.043481888628492775 0.002761733 0.002988405 0 0 0 0
70015840 0.4369724380916285 0.036400308350366194 0.00387436 0.002121809 0 0 0 0
70016335 0.45251585691114943 0.036301685834589904 0.001546527 -0.000979062 0 0 0 0
70016830 0.4426476808115802 0.040641649729287646 -0.004486273 -0.002148758 0 0 0 0
70017325 0.43936941771421906 0.03742390930128235 -0.004225143 -0.000280963 0 0 0 0
70017820 0.4435143178216064 0.04316462787981952 -0.002799141 0.003026563 0 0 0 0
70018315 0.4452090455166219 0.04005184522232339 0.004322848 -0.005980555 0 0 0 0
70018810 0.439157646188584 0.04217155441781497 0.008204337 -0.001114771 0 0 0 0
70019305 0.4422744858954761 0.030306133855366003 -0.006157639 0.0026251 0 0 0 0
70019800 0.4431167348132555 0.04055078940550627 0.003482269 0.006570427 0 0 0 0
70020295 0.43837298366809563 0.03980970689246369 0.000420797 -0.000718273 0 0 0 0
70020790 0.4393124700518336 0.0443071647824174 -0.002289708 0.005244558 0 0 0 0
70021285 0.43628492717119405 0.04420308002040791 0.000288899 0.001683101 0 0 0 0
70021780 0.45223960217939646 0.039283906633897386 -0.0007136 0.000692425 0 0 0 0
70022275 0.44400862705401856 0.03625459614288472 0.006128708 0.001055099 0 0 0 0
70022770 0.44594303648539 0.03743559418191867 -0.003273217 0.004803982 0 0 0 0
70023265 0.43671205370375266 0.036102983906823614 -0.001054093 -0.005631648 0 0 0 0
70023760 0.43626162677893016 0.03636617455383319 0.004717511 0.001304954 0 0 0 0
70024255 0.43908422295342947 0.0403336661773966 -0.000128861 8.803e-06 0 0 0 0
70024750 0.4450456616868822 0.037249217305520305 -0.001349093 0.006136541 0 0 0 0
70025245 0.44748075475328564 0.04467096323813549 -0.004043902 -0.003617614 0 0 0 0
70025740 0.43970262857840803 0.03626784580039066 -0.004275705 -0.000446278 0 0 0 0
70026235 0.4476323473910547 0.03529747007693547 -0.004133783 -0.003865882 0 0 0 0
70026730 0.4395291052781502 0.034624027455199 -0.002917937 0.002199887 0 0 0 0
70027225 0.43622416928972746 0.042772261977403706 0.001070906 -0.002395618 0 0 0 0
70027720 0.44799752556473266 0.03864487269751067 0.000777443 -0.001155643 0 0 0 0
70028215 0.4455179262847284 0.042702341428705874 0.003609495 -0.002123639 0 0 0 0
70028710 0.443637349721222 0.04020778342047272 -0.006761512 0.001703542 0 0 0 0
70029205 0.4433149002921397 0.03899165783633731 -0.002006557 0.000926438 0 0 0 0
70029700 0.4451335686432125 0.03288855100372582 0.003140067 -0.001250758 0 0 0 0
70030195 0.4463462330147512 0.040534178967176746 -0.001303824 -0.004148116 0 0 0 0
70030690 0.4484316176076126 0.04854433693923078 -0.000389496 0.003174062 0 0 0 0
70031185 0.4390839488391156 0.04246096962768632 0.001721751 6.278e-05 0 0 0 0
70031680 0.4450870861589097 0.04758732149325479 0.002916652 -0.003911728 0 0 0 0
70032175 0.44974985597724343 0.04638439333947185 -0.004543929 0.000421287 0 0 0 0
70032670 0.4462549083666648 0.0470940192985207 -0.003113891 0.002736473 0 0 0 0
70033165 0.44084682874574155 0.04040304384953027 -0.001727034 -0.001295795 0 0 0 0
70033660 0.43652287520220534 0.04696595510261573 -0.001533109 0.002851268 0 0 0 0
70034155 0.43996635191415123 0.04490163821775312 -0.001915147 0.002733143 0 0 0 0
70034650 0.44308620349746525 0.041247587473284955 0.00598393 -0.006634831 0 0 0 0
70035145 0.4386762924493149 0.039820735403441776 0.003669144 0.009765943 0 0 0 0
70035640 0.44712544959428935 0.045087305809591215 -0.000318573 0.005050317 0 0 0 0
70036135 0.442826486717278 0.04409440044627827 0.000539265 -0.000570587 0 0 0 0
70036630 0.4430112525439096 0.04229436028917654 -0.000489616 -0.003303765 0 0 0 0
70037125 0.44083916968289144 0.043877104597452296 0.003850213 0.001401233 0 0 0 0
70037620 0.4484541481505621 0.03660036532575476 -0.003036869 0.001879494 0 0 0 0
70038115 0.4376250015876262 0.04226271154683768 0.004136162 -0.000600473 0 0 0 0
70038610 0.43765320756272214 0.03951678612534898 0.000244767 -0.004019813 0 0 0 0
70039105 0.43549929817322014 0.04868045165155442 -0.003479007 -0.006836814 0 0 0 0
70039600 0.440808328434259 0.038219931401940015 5.0657e-05 -0.008575493 0 0 0 0
70040095 0.4470949031567552 0.03932303911382569 0.004447888 -0.000322308 0 0 0 0
70040590 0.4407189992275605 0.04275568951000841 0.004991925 0.004215392 0 0 0 0
70041085 0.44904726022754926 0.04378605901500974 -0.002615801 0.005538422 0 0 0 0
70041580 0.4446012374371293 0.05209221640873373 -0.005806819 0.006498219 0 0 0 0
70042075 0.44788311989073876 0.04347012918909684 -0.00131018 -0.003082747 0 0 0 0
70042570 0.4450633952955893 0.04723883570682658 0.001305293 -0.005260483 0 0 0 0
70043065 0.4435191766776964 0.04090270511152514 0.001287591 0.000615155 0 0 0 0
70043560 0.44361351293934764 0.04622235650683723 0.003857258 -5.6238e-05 0 0 0 0
70044055 0.44975151149069825 0.046293711093612334 -0.008064226 0.001063417 0 0 0 0
70044550 0.4465386937777964 0.045977333930106175 -0.004224552 0.001031501 0 0 0 0
70045045 0.44173433576063115 0.04443313551203342 0.008589368 -0.001650641 0 0 0 0
70045540 0.4402863177805441 0.04305138775416616 0.002930277 -0.004319507 0 0 0 0
70046035 0.4473888862049586 0.041030066655364635 0.003517052 0.003722733 0 0 0 0
70046530 0.4448306872561312 0.04210712368497359 -0.001354776 0.005738893 0 0 0 0
70047025 0.4397076917484466 0.04473338463751613 -0.002501057 0.002504663 0 0 0 0
70047520 0.4478283970445055 0.04803237725992745 -0.002748502 -0.006805489 0 0 0 0
70048015 0.4343106493668576 0.0435628423093625 -0.001063105 0.001583247 0 0 0 0
70048510 0.4387614491320446 0.045643166905356206 0.003375615 0.003423266 0 0 0 0
70049005 0.44511794979277586 0.04094724899218242 -0.001689282 0.006335977 0 0 0 0
70049500 0.4425353535100628 0.037559834558997654 -0.002046808 0.006870258 0 0 0 0
70049995 0.4529948696806623 0.04730037592380663 -0.005056132 0.002795697 0 0 0 0
70050490 0.44205428443299055 0.04395263022191268 -0.002578763 -0.003079753 0 0 0 0
70050985 0.44588190205769795 0.043231956709080754 0.000628648 0.003088051 0 0 0 0
70051480 0.44494614959928097 0.04599248834310912 0.003396244 -0.000901156 0 0 0 0
70051975 0.4544167857963243 0.04161564128578964 0.000371889 4.072e-06 0 0 0 0
70052470 0.4513579663852164 0.04572650963497885 0.002577671 0.001940091 0 0 0 0
70052965 0.4443788401102154 0.041931385691117415 -0.002064936 0.001320196 0 0 0 0
70053460 0.4449205333190197 0.04576532116129744 -8.251e-06 -0.006590276 0 0 0 0
70053955 0.45099691786091384 0.045078567896378686 -0.005087565 -0.001959526 0 0 0 0
70054450 0.4516951427230089 0.04127186712751481 0.005134283 0.000815716 0 0 0 0
70054945 0.45358772714550605 0.043987265556872546 0.000149156 -0.002569322 0 0 0 0
70055440 0.45473188627760963 0.034866489612323026 -0.002446856 0.005139945 0 0 0 0
70055935 0.4555793255629785 0.04150223400728794 -0.000365229 0.00210111 0 0 0 0
70056430 0.44749522070792425 0.039101174245030124 0.000799269 -0.001284952 0 0 0 0
70056925 0.44577244392949195 0.04353578935612234 0.002550873 0.002926839 0 0 0 0
70057420 0.4465770500363587 0.0415920540542677 0.004996831 0.001936973 0 0 0 0
70057915 0.45125564183007216 0.04331226254273387 -0.004267545 -0.003507961 0 0 0 0
70058410 0.45246926621922606 0.03779969524493995 -0.002267 0.003507593 0 0 0 0
70058905 0.45353023427211425 0.0400551077308302 -0.002642853 0.001419718 0 0 0 0
70059400 0.4494142428401039 0.03804943861137106 -0.003570235 -0.002509052 0 0 0 0
70059895 0.4455528377498873 0.04065225562248751 -0.004380371 -0.005501524 0 0 0 0
70060390 0.4479484733188039 0.03746522761575637 -0.002895341 0.000779762 0 0 0 0
70060885 0.45050515116215323 0.049346149845546826 -0.002215195 -0.005522817 0 0 0 0
70061380 0.4452669126695797 0.038905282948032 9.5874e-05 -0.004662862 0 0 0 0
70061875 0.43966623054206583 0.045274607318176584 -0.004134626 -0.004056486 0 0 0 0
70062370 0.4500303033185987 0.04034163116530602 0.002711756 -0.003155873 0 0 0 0
70062865 0.44317321598299175 0.04568173456455329 -0.006844316 0.003466905 0 0 0 0
70063360 0.4502753123004453 0.047063899394531615 -0.000366384 0.003273598 0 0 0 0
70063855 0.44348616416656583 0.04475857620894167 0.003555678 0.001445348 0 0 0 0
70064350 0.4482378255822154 0.04750216763495526 0.003980172 0.005268828 0 0 0 0
70064845 0.4448255926238355 0.04959315494979848 0.003551336 0.000604295 0 0 0 0
70065340 0.4512110553980082 0.037048250955130424 0.000104379 0.004406795 0 0 0 0
70065835 0.44880208279792627 0.04263676758643995 -0.00494469 -0.001921204 0 0 0 0
70066330 0.44307085610660835 0.05374331964340001 -0.001815064 0.003658844 0 0 0 0
70066825 0.4382277820363881 0.04038414446955439 -0.000598334 -0.007129309 0 0 0 0
70067320 0.44976575312013245 0.042427173345871684 -0.002100438 -0.005737734 0 0 0 0
70067815 0.44108218002010946 0.04341320767435737 -0.002769991 0.002427895 0 0 0 0
70068310 0.4469284135730005 0.046162692814255266 0.004180705 0.003553463 0 0 0 0
70068805 0.4575445406284585 0.04351678383806022 -0.00140811 -0.002343354 0 0 0 0
70069300 0.4477380056534666 0.03740085498467183 -0.002598111 0.00498188 0 0 0 0
70069795 0.4450517436358063 0.03637276771014519 -0.006416219 -0.003247456 0 0 0 0
70070290 0.45044665628644803 0.03750954335956489 -0.002108864 0.004490544 0 0 0 0
70070785 0.44363980902625777 0.04025836278047746 -0.002691356 0.000207556 0 0 0 0
70071280 0.44217557770545807 0.0379679544593949 -0.001929477 0.001609828 0 0 0 0
70071775 0.4507812169082931 0.05206402752914022 -0.00598928 -0.00114228 0 0 0 0
70072270 0.4503889683415286 0.04105316468751423 0.000368816 -0.006934542 0 0 0 0
70072765 0.45055909718948195 0.04000586438353059 0.004576467 0.003107947 0 0 0 0
70073260 0.4495882085323883 0.04510252161793621 -0.000661798 -0.003534665 0 0 0 0
70073755 0.45676718794133875 0.04856715659970961 -0.002245436 0.003232998 0 0 0 0
70074250 0.4410823727986082 0.04617630976843072 0.000101044 0.000148037 0 0 0 0
70074745 0.44909378977051917 0.04099145486081549 -0.001941808 0.002258069 0 0 0 0
70075240 0.452732975894782 0.044798614095766603 0.000859236 1.8921e-05 0 0 0 0
70075735 0.44752862659386683 0.04338929584243903 0.001177243 -0.001221602 0 0 0 0
70076230 0.45273287398238937 0.051274244918983525 0.001869214 0.002470151 0 0 0 0
70076725 0.4516027154741904 0.03757727989074374 -0.002431631 0.002798651 0 0 0 0
70077220 0.4482256346189272 0.045508992703772226 2.5774e-05 -0.001093885 0 0 0 0
70077715 0.4469758077677135 0.035780803193239355 -0.003135894 0.001717121 0 0 0 0
70078210 0.4496062571034199 0.0433413253776198 0.005153928 0.008712932 0 0 0 0
70078705 0.44544248237303224 0.04872292253554254 0.002380223 0.001180507 0 0 0 0
70079200 0.4458506279400737 0.0426867194590549 -0.005589975 -0.004803774 0 0 0 0
70079695 0.44364969260488896 0.04323034826630622 -0.005386468 -9.4539e-05 0 0 0 0
70080190 0.4531787772366132 0.046108264051617706 0.000395645 -0.004322249 0 0 0 0
70080685 0.44579177532546516 0.03702393741414825 0.001628479 -0.002790928 0 0 0 0
70081180 0.4550407153724804 0.04198992207129655 -0.004646981 0.000694122 0 0 0 0
70081675 0.45262353207330486 0.03984652743018959 0.001425793 -0.000918748 0 0 0 0
70082170 0.44554923353229264 0.04501557282793319 -0.004065588 -0.007876494 0 0 0 0
70082665 0.4444977225431827 0.034954693339467165 0.002509268 0.002436897 0 0 0 0
70083160 0.45094045415170175 0.04641388265930073 -0.002417339 0.003765973 0 0 0 0
70083655 0.45013807938716277 0.04066905201614682 -0.003204097 -0.005992034 0 0 0 0
70084150 0.4457172053292486 0.036402467147682256 0.00508792 -0.000205313 0 0 0 0
70084645 0.45459473877906387 0.04546106691237342 0.006906025 0.003906733 0 0 0 0
70085140 0.4475735877212187 0.04165803785542138 0.000264356 0.00406699 0 0 0 0
70085635 0.4541021635784264 0.043145285645673714 -0.002965999 0.003798926 0 0 0 0
70086130 0.4463839965613156 0.03183626620976849 0.003160153 0.001134878 0 0 0 0
70086625 0.4540012411597022 0.03937223129724211 0.003105804 0.007491802 0 0 0 0
70087120 0.4452679150777545 0.04618476205190272 0.001725808 -0.002141418 0 0 0 0
70087615 0.4514614344816157 0.036502268864210874 0.000190974 0.004874806 0 0 0 0
70088110 0.4483153206550709 0.03873882115190548 -0.003353213 -0.001616433 0 0 0 0
70088605 0.45007548609563114 0.04162581608692947 0.005943519 0.001885206 0 0 0 0
70089100 0.4386076444590112 0.041056926241034665 0.000651234 -0.002444009 0 0 0 0
70089595 0.4469348362605476 0.043398071720677424 0.001883105 0.003127661 0 0 0 0
70090090 0.4518262185064025 0.03701578645910588 0.004516629 0.006222994 0 0 0 0
70090585 0.4570388560468429 0.04087067857967245 -0.007797738 -0.003314751 0 0 0 0
70091080 0.4530389269242529 0.0382964927752136 -0.002855772 0.001254726 0 0 0 0
70091575 0.44764783902786637 0.03955562909131628 0.001054655 0.006105748 0 0 0 0
70092070 0.452370383015961 0.04049980187531334 0.002681284 -0.0003666 0 0 0 0
70092565 0.44403006096812714 0.038097953382522455 -0.00467034 -0.007221201 0 0 0 0
70093060 0.44464522693972286 0.035655765190066545 -0.002217161 -0.006194174 0 0 0 0
70093555 0.44934789001766856 0.03792932589876789 0.002642776 0.003539703 0 0 0 0
70094050 0.44822483556748594 0.039213161590378694 -0.003966437 0.002670585 0 0 0 0
70094545 0.44974324009273786 0.03554371199047614 -0.003693686 0.004502697 0 0 0 0
70095040 0.45178476202334367 0.03423435494188299 0.001310296 -0.001646807 0 0 0 0
70095535 0.457785171832688 0.0398361339391853 -0.00196902 0.000531528 0 0 0 0
70096030 0.4456494866517676 0.04269730082701299 -0.005288299 0.001757498 0 0 0 0
70096525 0.4485736289676138 0.045310253131466555 0.004330832 0.005056468 0 0 0 0
70097020 0.44908539481003734 0.03790561300014772 0.002039341 0.001509114 0 0 0 0
70097515 0.4417661232714828 0.038576113971342044 -0.002181425 0.001005142 0 0 0 0
70098010 0.4425473031458887 0.03266555597604685 0.00476393 0.003452095 0 0 0 0
70098505 0.4551468855762009 0.03866772658390907 -0.000133259 -0.000337233 0 0 0 0
70099000 0.4455237965634574 0.037334153938408186 -0.003025359 0.002652682 0 0 0 0
70099495 0.4527643265198093 0.03926917912391456 -0.006900664 0.006038678 0 0 0 0
70099990 0.4463630492465658 0.04783108043977356 -0.003373674 0.005885897 0 0 0 0
70100485 0.447729635959985 0.04630613256504059 -0.002637923 0.00132351 0 0 0 0
70100980 0.44444297408169275 0.04545682096963655 -0.003829182 -0.005269969 0 0 0 0
70101475 0.4450333113657305 0.037150239736801746 0.002927586 -0.000937385 0 0 0 0
70101970 0.4520523352274176 0.05223033614944674 0.000759559 0.00027838 0 0 0 0
70102465 0.4528481096629191 0.04562734148511349 -0.001460582 -0.004647285 0 0 0 0
70102960 0.437462967963677 0.04277042930629869 0.001811103 -0.004633679 0 0 0 0
70103455 0.44621444747214717 0.0403610323935212 0.00337005 -0.007324431 0 0 0 0
70103950 0.45022537573634125 0.04180096416959375 -4.5635e-05 -0.006457955 0 0 0 0
70104445 0.44706807359604184 0.04332286983861351 0.002045645 0.005613373 0 0 0 0
70104940 0.44371423654727754 0.04506949003285064 0.001126425 -0.000430162 0 0 0 0
70105435 0.45529453619337074 0.047808637414969 0.000738792 0.004747847 0 0 0 0
70105930 0.44417474217042135 0.04859358866456293 0.005204704 -0.001567355 0 0 0 0
70106425 0.4490653949256985 0.04501995666440327 0.002407022 -0.004341205 0 0 0 0
70106920 0.4413617380839377 0.04801907612780759 0.001102101 -0.003859449 0 0 0 0
70107415 0.4420965440352284 0.043481504226810026 0.003122888 0.000589379 0 0 0 0
70107910 0.4465229800013044 0.04550764120428136 -0.00215876 0.006228051 0 0 0 0
70108405 0.4455652836865368 0.04718930007476511 0.005236642 -0.003436075 0 0 0 0
70108900 0.441010687408198 0.04474489857769113 0.001077155 -0.004833282 0 0 0 0
70109395 0.4468394376485314 0.045095315343103314 0.002489785 0.001989249 0 0 0 0
70109890 0.4454629099442752 0.04368084555604297 -0.001684122 0.004112626 0 0 0 0
70110385 0.45186678817827997 0.04150653532963387 0.003564427 0.002039879 0 0 0 0
70110880 0.445959907650984 0.040125515120389726 -0.005575602 0.001781929 0 0 0 0
70111375 0.4421527565363057 0.04300025464563168 0.003224024 0.001015714 0 0 0 0
70111870 0.4492226213812766 0.04212960184482803 0.005011563 0.002919434 0 0 0 0
70112365 0.4481417425422496 0.04315895033282734 -0.000712001 -0.001209567 0 0 0 0
70112860 0.4457003641751676 0.045240353913292966 -0.005897752 -0.001818145 0 0 0 0
70113355 0.44632415145135146 0.04274030528421746 -0.000712746 -0.00261367 0 0 0 0
70113850 0.44741983903296184 0.04401381533112232 0.002175541 -0.007731305 0 0 0 0
70114345 0.4432120343628903 0.04770735157799397 -0.001398921 0.00455391 0 0 0 0
70114840 0.4445825277620974 0.04559534166793897 -0.003165761 -0.003232089 0 0 0 0
70115335 0.44807430299423695 0.04534599422935963 -0.001038842 -0.000934944 0 0 0 0
70115830 0.44204411237479585 0.044467883938499535 -0.001938556 -0.000129082 0 0 0 0
70116325 0.43326417200034223 0.04637398837943118 0.000632025 -0.00530555 0 0 0 0
70116820 0.44658761816413645 0.048127380555226924 0.001589271 0.000691516 0 0 0 0
70117315 0.4416694702091172 0.05015365433840017 -0.000615116 -0.001125073 0 0 0 0
70117810 0.4499097601074413 0.04883346060433849 -0.001949207 0.003182042 0 0 0 0
70118305 0.4508148356443927 0.04764426528593223 -0.004394126 0.008752834 0 0 0 0
70118800 0.44035563002297096 0.049245702985337265 -0.000363394 -0.000581328 0 0 0 0
70119295 0.44898753566451655 0.05317044105286987 0.002791905 -0.000715939 0 0 0 0
