# HZ S RI R 50
70000000 0.4407210169996585 0.031537600405242075
70000495 0.4429852076071978 0.04750537220128361
70000990 0.44677301723154333 0.03842305073942016
70001485 0.44055360128025123 0.03380052624871371
70001980 0.44424470579412306 0.04041435667131332
70002475 0.4495242000653436 0.03572023185151357
70002970 0.44566794847739516 0.03424456291050805
70003465 0.45116163874792475 0.04151744551087593
70003960 0.44779595656196897 0.03874107668676613
70004455 0.44233854121574345 0.04022890765542515
70004950 0.4524741921622796 0.04410283316301518
70005445 0.44035521368535024 0.03104583502162043
70005940 0.45243372690312367 0.034328938473297585
70006435 0.4501121770378296 0.03856630411187073
70006930 0.44112054918542404 0.04222378150803475
70007425 0.4429691556198229 0.03875876725612095
70007920 0.44415207758723196 0.04222254732952867
70008415 0.444261477386007 0.04213242578005893
70008910 0.4488864307117163 0.039443084766278676
70009405 0.44140754658632486 0.03717174904533479
70009900 0.4515901051135522 0.03878923532439647
70010395 0.4482452004316715 0.033807969185815856
70010890 0.4471893340860911 0.03815338716940106
70011385 0.4451628214071309 0.035971727396554784
70011880 0.4420708188356308 0.039186486972208695
70012375 0.45534872293596507 0.03979792269259946
70012870 0.44708307387998536 0.048096285113513736
70013365 0.4443974256453552 0.035183336032272784
70013860 0.43661204869855136 0.03955186692977618
70014355 0.4441771015820706 0.04159997582761165
70014850 0.4464711884343874 0.038968484979277025
70015345 0.4427771833343058 0.043481888628492775
70015840 0.4369724380916285 0.036400308350366194
70016335 0.45251585691114943 0.036301685834589904
70016830 0.4426476808115802 0.040641649729287646
70017325 0.43936941771421906 0.03742390930128235
70017820 0.4435143178216064 0.04316462787981952
70018315 0.4452090455166219 0.04005184522232339
70018810 0.439157646188584 0.04217155441781497
70019305 0.4422744858954761 0.030306133855366003
70019800 0.4431167348132555 0.04055078940550627
70020295 0.43837298366809563 0.03980970689246369
70020790 0.4393124700518336 0.0443071647824174
70021285 0.43628492717119405 0.04420308002040791
70021780 0.45223960217939646 0.039283906633897386
70022275 0.44400862705401856 0.03625459614288472
70022770 0.44594303648539 0.03743559418191867
70023265 0.43671205370375266 0.036102983906823614
70023760 0.43626162677893016 0.03636617455383319
70024255 0.43908422295342947 0.0403336661773966
70024750 0.4450456616868822 0.037249217305520305
70025245 0.44748075475328564 0.04467096323813549
70025740 0.43970262857840803 0.03626784580039066
70026235 0.4476323473910547 0.03529747007693547
70026730 0.4395291052781502 0.034624027455199
70027225 0.43622416928972746 0.042772261977403706
70027720 0.44799752556473266 0.03864487269751067
70028215 0.4455179262847284 0.042702341428705874
70028710 0.443637349721222 0.04020778342047272
70029205 0.4433149002921397 0.03899165783633731
70029700 0.4451335686432125 0.03288855100372582
70030195 0.4463462330147512 0.040534178967176746
70030690 0.4484316176076126 0.04854433693923078
70031185 0.4390839488391156 0.04246096962768632
70031680 0.4450870861589097 0.04758732149325479
70032175 0.44974985597724343 0.04638439333947185
70032670 0.4462549083666648 0.0470940192985207
70033165 0.44084682874574155 0.04040304384953027
70033660 0.43652287520220534 0.04696595510261573
70034155 0.43996635191415123 0.04490163821775312
70034650 0.44308620349746525 0.041247587473284955
70035145 0.4386762924493149 0.039820735403441776
70035640 0.44712544959428935 0.045087305809591215
70036135 0.442826486717278 0.04409440044627827
70036630 0.4430112525439096 0.04229436028917654
70037125 0.44083916968289144 0.043877104597452296
70037620 0.4484541481505621 0.03660036532575476
70038115 0.4376250015876262 0.04226271154683768
70038610 0.43765320756272214 0.03951678612534898
70039105 0.43549929817322014 0.04868045165155442
70039600 0.440808328434259 0.038219931401940015
70040095 0.4470949031567552 0.03932303911382569
70040590 0.4407189992275605 0.04275568951000841
70041085 0.44904726022754926 0.04378605901500974
70041580 0.4446012374371293 0.05209221640873373
70042075 0.44788311989073876 0.04347012918909684
70042570 0.4450633952955893 0.04723883570682658
70043065 0.4435191766776964 0.04090270511152514
70043560 0.44361351293934764 0.04622235650683723
70044055 0.44975151149069825 0.046293711093612334
70044550 0.4465386937777964 0.045977333930106175
70045045 0.44173433576063115 0.04443313551203342
70045540 0.4402863177805441 0.04305138775416616
70046035 0.4473888862049586 0.041030066655364635
70046530 0.4448306872561312 0.04210712368497359
70047025 0.4397076917484466 0.04473338463751613
70047520 0.4478283970445055 0.04803237725992745
70048015 0.4343106493668576 0.0435628423093625
70048510 0.4387614491320446 0.045643166905356206
70049005 0.44511794979277586 0.04094724899218242
70049500 0.4425353535100628 0.037559834558997654
70049995 0.4529948696806623 0.04730037592380663
70050490 0.44205428443299055 0.04395263022191268
70050985 0.44588190205769795 0.043231956709080754
70051480 0.44494614959928097 0.04599248834310912
70051975 0.4544167857963243 0.04161564128578964
70052470 0.4513579663852164 0.04572650963497885
70052965 0.4443788401102154 0.041931385691117415
70053460 0.4449205333190197 0.04576532116129744
70053955 0.45099691786091384 0.045078567896378686
70054450 0.4516951427230089 0.04127186712751481
70054945 0.45358772714550605 0.043987265556872546
70055440 0.45473188627760963 0.034866489612323026
70055935 0.4555793255629785 0.04150223400728794
70056430 0.44749522070792425 0.039101174245030124
70056925 0.44577244392949195 0.04353578935612234
70057420 0.4465770500363587 0.0415920540542677
70057915 0.45125564183007216 0.04331226254273387
70058410 0.45246926621922606 0.03779969524493995
70058905 0.45353023427211425 0.0400551077308302
70059400 0.4494142428401039 0.03804943861137106
70059895 0.4455528377498873 0.04065225562248751
70060390 0.4479484733188039 0.03746522761575637
70060885 0.45050515116215323 0.049346149845546826
70061380 0.4452669126695797 0.038905282948032
70061875 0.43966623054206583 0.045274607318176584
70062370 0.4500303033185987 0.04034163116530602
70062865 0.44317321598299175 0.04568173456455329
70063360 0.4502753123004453 0.047063899394531615
70063855 0.44348616416656583 0.04475857620894167
70064350 0.4482378255822154 0.04750216763495526
70064845 0.4448255926238355 0.04959315494979848
70065340 0.4512110553980082 0.037048250955130424
70065835 0.44880208279792627 0.04263676758643995
70066330 0.44307085610660835 0.05374331964340001
70066825 0.4382277820363881 0.04038414446955439
70067320 0.44976575312013245 0.042427173345871684
70067815 0.44108218002010946 0.04341320767435737
70068310 0.4469284135730005 0.046162692814255266
70068805 0.4575445406284585 0.04351678383806022
70069300 0.4477380056534666 0.03740085498467183
70069795 0.4450517436358063 0.03637276771014519
70070290 0.45044665628644803 0.03750954335956489
70070785 0.44363980902625777 0.04025836278047746
70071280 0.44217557770545807 0.0379679544593949
70071775 0.4507812169082931 0.05206402752914022
70072270 0.4503889683415286 0.04105316468751423
70072765 0.45055909718948195 0.04000586438353059
70073260 0.4495882085323883 0.04510252161793621
70073755 0.45676718794133875 0.04856715659970961
70074250 0.4410823727986082 0.04617630976843072
70074745 0.44909378977051917 0.04099145486081549
70075240 0.452732975894782 0.044798614095766603
70075735 0.44752862659386683 0.04338929584243903
70076230 0.45273287398238937 0.051274244918983525
70076725 0.4516027154741904 0.03757727989074374
70077220 0.4482256346189272 0.045508992703772226
70077715 0.4469758077677135 0.035780803193239355
70078210 0.4496062571034199 0.0433413253776198
70078705 0.44544248237303224 0.04872292253554254
70079200 0.4458506279400737 0.0426867194590549
70079695 0.44364969260488896 0.04323034826630622
70080190 0.4531787772366132 0.046108264051617706
70080685 0.44579177532546516 0.03702393741414825
70081180 0.4550407153724804 0.04198992207129655
70081675 0.45262353207330486 0.03984652743018959
70082170 0.44554923353229264 0.04501557282793319
70082665 0.4444977225431827 0.034954693339467165
70083160 0.45094045415170175 0.04641388265930073
70083655 0.45013807938716277 0.04066905201614682
70084150 0.4457172053292486 0.036402467147682256
70084645 0.45459473877906387 0.04546106691237342
70085140 0.4475735877212187 0.04165803785542138
70085635 0.4541021635784264 0.043145285645673714
70086130 0.4463839965613156 0.03183626620976849
70086625 0.4540012411597022 0.03937223129724211
70087120 0.4452679150777545 0.04618476205190272
70087615 0.4514614344816157 0.036502268864210874
70088110 0.4483153206550709 0.03873882115190548
70088605 0.45007548609563114 0.04162581608692947
70089100 0.4386076444590112 0.041056926241034665
70089595 0.4469348362605476 0.043398071720677424
70090090 0.4518262185064025 0.03701578645910588
70090585 0.4570388560468429 0.04087067857967245
70091080 0.4530389269242529 0.0382964927752136
70091575 0.44764783902786637 0.03955562909131628
70092070 0.452370383015961 0.04049980187531334
70092565 0.44403006096812714 0.038097953382522455
70093060 0.44464522693972286 0.035655765190066545
70093555 0.44934789001766856 0.03792932589876789
70094050 0.44822483556748594 0.039213161590378694
70094545 0.44974324009273786 0.03554371199047614
70095040 0.45178476202334367 0.03423435494188299
70095535 0.457785171832688 0.0398361339391853
70096030 0.4456494866517676 0.04269730082701299
70096525 0.4485736289676138 0.045310253131466555
70097020 0.44908539481003734 0.03790561300014772
70097515 0.4417661232714828 0.038576113971342044
70098010 0.4425473031458887 0.03266555597604685
70098505 0.4551468855762009 0.03866772658390907
70099000 0.4455237965634574 0.037334153938408186
70099495 0.4527643265198093 0.03926917912391456
70099990 0.4463630492465658 0.04783108043977356
70100485 0.447729635959985 0.04630613256504059
70100980 0.44444297408169275 0.04545682096963655
70101475 0.4450333113657305 0.037150239736801746
70101970 0.4520523352274176 0.05223033614944674
70102465 0.4528481096629191 0.04562734148511349
70102960 0.437462967963677 0.04277042930629869
70103455 0.44621444747214717 0.0403610323935212
70103950 0.45022537573634125 0.04180096416959375
70104445 0.44706807359604184 0.04332286983861351
70104940 0.44371423654727754 0.04506949003285064
70105435 0.45529453619337074 0.047808637414969
70105930 0.44417474217042135 0.04859358866456293
70106425 0.4490653949256985 0.04501995666440327
70106920 0.4413617380839377 0.04801907612780759
70107415 0.4420965440352284 0.043481504226810026
70107910 0.4465229800013044 0.04550764120428136
70108405 0.4455652836865368 0.04718930007476511
70108900 0.441010687408198 0.04474489857769113
70109395 0.4468394376485314 0.045095315343103314
70109890 0.4454629099442752 0.04368084555604297
70110385 0.45186678817827997 0.04150653532963387
70110880 0.445959907650984 0.040125515120389726
70111375 0.4421527565363057 0.04300025464563168
70111870 0.4492226213812766 0.04212960184482803
70112365 0.4481417425422496 0.04315895033282734
70112860 0.4457003641751676 0.045240353913292966
70113355 0.44632415145135146 0.04274030528421746
70113850 0.44741983903296184 0.04401381533112232
70114345 0.4432120343628903 0.04770735157799397
70114840 0.4445825277620974 0.04559534166793897
70115335 0.44807430299423695 0.04534599422935963
70115830 0.44204411237479585 0.044467883938499535
70116325 0.43326417200034223 0.04637398837943118
70116820 0.44658761816413645 0.048127380555226924
70117315 0.4416694702091172 0.05015365433840017
70117810 0.4499097601074413 0.04883346060433849
70118305 0.4508148356443927 0.04764426528593223
70118800 0.44035563002297096 0.049245702985337265
70119295 0.44898753566451655 0.05317044105286987
70119790 0.4415816422503643 0.045254008096311166
70120285 0.44124855848009026 0.05056253008730837
70120780 0.4418746773740684 0.042967555936025914
70121275 0.4407366060110748 0.0560500123513259
70121770 0.4456380880023599 0.05228465915336459
70122265 0.4396402434967948 0.04765561600320388
70122760 0.43632744665333595 0.056292553696532986
70123255 0.4427753261861323 0.043760027479953875
70123750 0.4435527158920103 0.054017386045985105
70124245 0.43558001828047177 0.0466219829082297
70124740 0.4444766729590423 0.052524705765821744
70125235 0.43875519745729225 0.04174847676781817
70125730 0.4396184966603154 0.05149805260402276
70126225 0.4473160879789506 0.05645350321666934
70126720 0.4439205780615646 0.0522942419771857
70127215 0.44640536141123704 0.05181903426332438
70127710 0.44277503596023676 0.05398385721669753
70128205 0.43874530552592317 0.044992612938177454
70128700 0.4441695454602662 0.05481519271048441
70129195 0.4420458169597633 0.05838792187311563
70129690 0.43724219228641764 0.050770129746779864
70130185 0.441066559302961 0.04790831572897946
70130680 0.44139086745263234 0.04683380400089505
70131175 0.43943848523780205 0.055306498706467574
70131670 0.44051003428654517 0.04881324641510173
70132165 0.44568021539333524 0.050823458790493985
70132660 0.44300665278742474 0.04994830489768161
70133155 0.4370946729377593 0.05344593490224783
70133650 0.43430244134431784 0.049649876380680684
70134145 0.4377446999143913 0.047454014085049886
70134640 0.44073551088639296 0.05204465994089403
70135135 0.4304900661777967 0.05054523328330408
70135630 0.4388685465458255 0.048859379139870665
70136125 0.438308506049593 0.043483196612355904
70136620 0.4397970154225188 0.052792113505075
70137115 0.42641406233764745 0.04021993406904475
70137610 0.4291881722118169 0.04362825368059359
70138105 0.4366514008848665 0.046173388890786655
70138600 0.43924322491505086 0.054028049776325825
70139095 0.43901106801696094 0.05477868638524845
70139590 0.4348383728205027 0.04829539402079589
70140085 0.4310308458375695 0.05335930415382375
70140580 0.4335889515461923 0.048444624369281215
70141075 0.4273360103585705 0.04262266999734009
70141570 0.43079665086593866 0.04286366906863044
70142065 0.4333474600863895 0.05058937219679779
70142560 0.44425761653644497 0.04440894067408789
70143055 0.42886759169607064 0.049864004048411105
70143550 0.4317504611706557 0.04609749491946825
70144045 0.43425786276158246 0.041196907468689134
70144540 0.43188684597128196 0.0495680626392289
70145035 0.4295267490828413 0.044352103544890956
70145530 0.4319253782300567 0.04843682849259999
70146025 0.4271711501420298 0.047440447094224396
70146520 0.4334927373853974 0.04771831089034753
70147015 0.42905990612620387 0.043184474014366585
70147510 0.43347013086734226 0.040644307563344896
70148005 0.43375033314750916 0.047195937725371735
70148500 0.4334011664354767 0.05495421953329183
70148995 0.42623551795830944 0.04424915493403797
70149490 0.43261583509834606 0.04951700139613962
70149985 0.4239958668422365 0.04917443628879387
70150480 0.43328150550832206 0.04195516570108691
70150975 0.42943158756467664 0.039396198299334044
70151470 0.4340297955795472 0.04688738554287564
70151965 0.43105273473512024 0.04016270738788824
70152460 0.4319167997622081 0.0414577873636627
70152955 0.4309952097625361 0.040324033627760124
70153450 0.4272742322056679 0.04006773393973663
70153945 0.42953596438322433 0.04680445875532669
70154440 0.4265995386361183 0.04539896579438834
70154935 0.4275800738134359 0.04438637274934192
70155430 0.4249077592773107 0.042335753110679525
70155925 0.42634553060226044 0.040931185392129886
70156420 0.4268183854190915 0.04125016877254306
70156915 0.4265629723166827 0.04582370884458536
70157410 0.4284781377152896 0.04631463062825047
70157905 0.42558576066075227 0.04429611486520611
70158400 0.4226290449185543 0.03648877943377676
70158895 0.43091346791328494 0.04660311383768232
70159390 0.42739947619126134 0.04631101555870625
70159885 0.4275299129888516 0.04304700302134992
70160380 0.42915501171342935 0.0460498583154682
70160875 0.42658265300679615 0.04640594587166867
70161370 0.42517154807818547 0.03447737519045173
70161865 0.43576969550679534 0.048551712583769564
70162360 0.42267241412598466 0.04433622484547979
70162855 0.43013723314316527 0.044522305670025596
70163350 0.42579595409711213 0.04037512994888113
70163845 0.43544686520590814 0.039417394299410845
70164340 0.4363500021346383 0.04678469876692486
70164835 0.4353118004907553 0.04030399964096912
70165330 0.4322776155844655 0.05001350586460643
70165825 0.4233302856664821 0.047407145736799494
70166320 0.423031978308623 0.04148062053315157
70166815 0.42795159537655697 0.03841782061395878
70167310 0.42964892563739543 0.04700153933895187
70167805 0.42413424483299456 0.03351552637631923
70168300 0.43177012399591724 0.044581236033920175
70168795 0.4286328389765436 0.03781726999202047
70169290 0.4325886270514109 0.036831202681193415
70169785 0.4284970909934571 0.04135937354921806
70170280 0.43064784916196935 0.03283332339472701
70170775 0.43480351140896284 0.03844290933094471
70171270 0.43125135438829165 0.0449110867203749
70171765 0.42678806754161513 0.035564345078150456
70172260 0.4260070166175791 0.039921719005567
70172755 0.4327953191212119 0.04292316574865782
70173250 0.43604382271804254 0.03954911304537631
70173745 0.43331798994062837 0.04510780811461812
70174240 0.42572017233567844 0.04542698954966458
70174735 0.4339099785066454 0.04059988051675507
70175230 0.4324696576684106 0.03839637327567161
70175725 0.43040429180846784 0.04157906391035431
70176220 0.42608910837637093 0.03874153039247232
70176715 0.42262505634454306 0.03959092962649169
70177210 0.42727618194517153 0.04506412833736471
70177705 0.42693275788901214 0.03961496215443811
70178200 0.4317931348676081 0.0349921266445117
70178695 0.4259488128434775 0.035607631608122955
70179190 0.41954439323347426 0.03950194976121662
70179685 0.42763425297975527 0.041299475174667255
70180180 0.4302950986837897 0.03923015936113427
70180675 0.42855006776734283 0.033895036262686265
70181170 0.42395693198754597 0.04416979567618407
70181665 0.43236756728626247 0.04308614183674106
70182160 0.4270430154066787 0.04016256303846573
70182655 0.4306045202897615 0.03550065857161967
70183150 0.42420292248656705 0.0375370971044692
70183645 0.4313917027208929 0.037316987400311814
70184140 0.4247846611419218 0.041040609007884386
70184635 0.4259450705206345 0.039163433830703955
70185130 0.4289353166866851 0.03687068552511863
70185625 0.42038878999334917 0.038905968516421766
70186120 0.43014719164117676 0.04488395716903158
70186615 0.4331432541707897 0.03795736940644324
70187110 0.420107891874349 0.04330019170738303
70187605 0.43091557828042 0.039895674762490514
70188100 0.42495811801425915 0.03346411313061929
70188595 0.42246605135823806 0.04134096152196905
70189090 0.4275029339875933 0.03729916593808665
70189585 0.43236738423748183 0.04176294220435025
70190080 0.4235346510479314 0.037861519506904154
70190575 0.4303613782057457 0.035491369932969745
70191070 0.4248037082339368 0.040584169716589326
70191565 0.43192249147828166 0.03961344291013742
70192060 0.41870747321237684 0.037874298049084924
70192555 0.42460351715478795 0.036072424227603025
70193050 0.42591576785188906 0.041250410839426176
70193545 0.4233545915892906 0.04592213859252713
70194040 0.4249261196936606 0.0380887147804309
70194535 0.4175332474540931 0.04565273631655246
70195030 0.42503039016913824 0.04213895274024769
70195525 0.4245869737095485 0.04543175747349371
70196020 0.42428629712605087 0.044641239474219066
70196515 0.42453803706001625 0.04230680974113687
70197010 0.42136753672566907 0.03499479109764601
70197505 0.4274949392408191 0.0455116775796422
70198000 0.41844592234026917 0.04603099874824425
70198495 0.42570934855238346 0.04409096931819305
