# HZ S RI R 50
80000000 0.3892413745763439 0.6332101346945989
80000495 0.39383249784867547 0.6349614588642426
80000990 0.40669167064472683 0.6269410470981502
80001485 0.39780564105961214 0.6290711795509082
80001980 0.4019573308536065 0.636146488048966
80002475 0.40548411030464265 0.6334636095105881
80002970 0.40197494950081103 0.6305827879613113
80003465 0.3996016538682212 0.6295742119085617
80003960 0.39901650414401924 0.6322751381736265
80004455 0.39621198070029134 0.6294905201082432
80004950 0.40045376467916194 0.6304458644578517
80005445 0.39892722276153936 0.6364177534878691
80005940 0.3984591332909055 0.6331980463130203
80006435 0.4000543753634967 0.6359001773978841
80006930 0.3997298613697148 0.6229318842248719
80007425 0.39872445153340497 0.6311214461618454
80007920 0.4017694061136527 0.6361538749683836
80008415 0.4027604617838198 0.6364240728598397
80008910 0.4032684252234745 0.6347946140247461
80009405 0.4063316408793439 0.6337154262596694
80009900 0.4083634242179 0.6240059135446059
80010395 0.4013595065008509 0.6242356312224485
80010890 0.4023756512276337 0.6314168479416467
80011385 0.4093577010330038 0.6282389644180673
80011880 0.3998537087242553 0.6281057663155784
80012375 0.4124604100619766 0.6276584424820811
80012870 0.40730538124939475 0.6287775720812616
80013365 0.4036484305482274 0.6327561125136963
80013860 0.39794516315360806 0.6334612483005375
80014355 0.3997816903386054 0.6320770519794289
80014850 0.4016539897318074 0.6282734941730566
80015345 0.41119660401739044 0.6341847984354162
80015840 0.40043409217516357 0.6295971801554299
80016335 0.4097770081134286 0.6325854303531232
80016830 0.4051171516951524 0.6269059033338059
80017325 0.39837023455538273 0.6315639281581992
80017820 0.40335433712311053 0.6347685621347956
80018315 0.4089142039496245 0.6289239845899685
80018810 0.39739072481533244 0.6348191005868218
80019305 0.39963760009491806 0.6262597477588633
80019800 0.4031703199733594 0.6248412596038103
80020295 0.3971542480283753 0.6262617111541622
80020790 0.407678625185984 0.6340076317234227
80021285 0.40627268240054587 0.6383570549350011
80021780 0.39723824111540423 0.6451302604186314
80022275 0.4016827044213518 0.6324892540706959
80022770 0.4025588117137259 0.6409555803542393
80023265 0.40647856895773454 0.6269470879274748
80023760 0.4032525438702536 0.6354719475361109
80024255 0.40114020047277066 0.6303148774733183
80024750 0.405276189418743 0.6236620910781916
80025245 0.4077710212689296 0.6274217088285496
80025740 0.4097058031043004 0.6288840310817176
80026235 0.40858257895882494 0.6328476632349971
80026730 0.40433269925726656 0.6341287249931451
80027225 0.41013637844467654 0.6417581862037085
80027720 0.4006514379855081 0.6264092382801099
80028215 0.40628668812102553 0.6246893554758073
80028710 0.4027441676654661 0.6413148134884777
80029205 0.4019680286392915 0.6359508813315935
80029700 0.39628233607790486 0.6308801385101884
80030195 0.40037030207761326 0.6232115196816785
80030690 0.40279215152026765 0.6274466287716474
80031185 0.41312547019794343 0.6296743562799322
80031680 0.4079457898705886 0.6379527324022026
80032175 0.4032778497148115 0.6332978171225587
80032670 0.40767262004386534 0.6281254589165652
80033165 0.39977810159646515 0.6306097062110178
80033660 0.40959583905681557 0.6281530777776468
80034155 0.40944520354116876 0.6319919191247286
80034650 0.4050623371493203 0.6365461545966367
80035145 0.4034372694349312 0.6335308385632316
80035640 0.40712619209703754 0.6258228092175918
80036135 0.41847076920558474 0.6334525232458864
80036630 0.4122646755509867 0.6301271077303113
80037125 0.40720659473912973 0.6336840774759847
80037620 0.4066816713359644 0.6265819141613568
80038115 0.4075157085590488 0.6260988490715311
80038610 0.40490807189274336 0.6378220639346921
80039105 0.40473897752187665 0.6259397721532127
80039600 0.4116363601855595 0.6303723550837161
80040095 0.41093650226503203 0.6357006585730798
80040590 0.40602593629211486 0.6402308916735111
80041085 0.4029522655270269 0.6254054420558619
80041580 0.4002528471484715 0.638860741826793
80042075 0.4158819261753903 0.635495153279412
80042570 0.40911412636052674 0.6380820200890376
80043065 0.400047264164715 0.6342206733833752
80043560 0.4040792517003137 0.631283713172546
80044055 0.4098234325766352 0.6304363815377723
80044550 0.41796228137919456 0.6306248719281031
80045045 0.40896548976697944 0.6305954326903787
80045540 0.40230884159312097 0.6325965318020276
80046035 0.40831954439879264 0.6351664848814375
80046530 0.4080999967681584 0.6331624092353918
80047025 0.4043389952217978 0.6369046456582911
80047520 0.40825076127164744 0.6364889017741792
80048015 0.40713982848817826 0.6270525556237794
80048510 0.4028595658913493 0.6294293550393665
80049005 0.4059755240693354 0.638110078200775
80049500 0.41928364753409675 0.6301352999071586
80049995 0.40750615813400987 0.6260867627550826
80050490 0.41944443294781075 0.632025689529923
80050985 0.41334406368946247 0.6325737182338804
80051480 0.4079394139991632 0.6330733778228452
80051975 0.40441210625099977 0.6372312326179257
80052470 0.4098476089933985 0.6252270357462218
80052965 0.414201162748359 0.6358279332272911
80053460 0.4061520226287168 0.6306483451811543
80053955 0.40418657522260343 0.6352445931806323
80054450 0.41776921340947587 0.6325041169052132
80054945 0.41569844487870455 0.6209484888484939
80055440 0.40657405702785565 0.6289783532937652
80055935 0.416488401203038 0.6268664243392893
80056430 0.4041568380507763 0.6286125352397474
80056925 0.4059087681602374 0.634869199695262
80057420 0.40571495879927977 0.6294961702722398
80057915 0.413980860177474 0.632072691393377
80058410 0.41461769040134794 0.6339857054696624
80058905 0.4100211811245111 0.6388089832000876
80059400 0.4054217765215135 0.6285306952097123
80059895 0.4067799370246883 0.6324937697889044
80060390 0.40401629024025243 0.6298982895162689
80060885 0.41298259311972024 0.6286113758372517
80061380 0.405126284072742 0.6261467042486969
80061875 0.4041425983668769 0.6272358694546438
80062370 0.4099926241379747 0.6276882444777863
80062865 0.40191139245058777 0.6315446229122653
80063360 0.41033301289405705 0.6246847703369438
80063855 0.4130506581214241 0.6334806029915104
80064350 0.4127909284435788 0.6395906745041866
80064845 0.40533639167602376 0.6318868914561985
80065340 0.4140765630024389 0.6334519029917979
80065835 0.40260718075703106 0.6326410104846063
80066330 0.41727941031349036 0.625531766944646
80066825 0.40965772186203253 0.6344822418369825
80067320 0.4067658551641071 0.6333378674850315
80067815 0.40861064764763066 0.6332343390673197
80068310 0.4106348098056349 0.6300823678240881
80068805 0.40829593041240625 0.6385992452242769
80069300 0.4152413307304222 0.6430583853632793
80069795 0.40733668676951784 0.6331716913825501
80070290 0.40900600824519207 0.6343240233795535
80070785 0.40110810998914 0.632936690355778
80071280 0.41255900359139913 0.625008601033189
80071775 0.41148576462155667 0.6320543215526707
80072270 0.4159903225260373 0.628815720332628
80072765 0.40648036123688686 0.6402840688128216
80073260 0.41515902571965735 0.6300509167863109
80073755 0.41337074308485877 0.6396876838082858
80074250 0.42126253064171526 0.641707020341801
80074745 0.3993734800071644 0.6355953001083178
80075240 0.4103799164661594 0.6350765686567664
80075735 0.41110845521785083 0.6426305606483614
80076230 0.40023669722840505 0.6369647739732744
80076725 0.41098344723837316 0.6338373878118415
80077220 0.41242873824486315 0.6300618641813156
80077715 0.4045896507149934 0.6408876702123258
80078210 0.40588220738073694 0.6366142070189841
80078705 0.4080740052173898 0.6401410365858987
80079200 0.4158914098030334 0.6339937370292344
80079695 0.4082535221507164 0.6310037074187091
80080190 0.415206457609636 0.6320173626041126
80080685 0.4124442683416901 0.6388394952950195
80081180 0.4129139637135758 0.6329236872289197
80081675 0.4061260367069931 0.6290243730624415
80082170 0.4128196006549086 0.6310241350356659
80082665 0.4122217916884242 0.6374806076543073
80083160 0.41323698827907446 0.6353002219365728
80083655 0.40574880825948606 0.6359692783455773
80084150 0.40140121935403894 0.6328135287250344
80084645 0.40961090659957233 0.6378880823475058
80085140 0.4112382538868601 0.630283523356575
80085635 0.41226883245863943 0.6397257333589256
80086130 0.4049062915203984 0.6255575194419285
80086625 0.40778984367792415 0.6352512576244399
80087120 0.41399125696430544 0.6272858322976378
80087615 0.41019923292013344 0.6345164004391649
80088110 0.4131306975398394 0.636700768905068
80088605 0.4203666268144934 0.6302833511469571
80089100 0.4144623681673974 0.6340193844246329
80089595 0.4130782668449645 0.6413001318517537
80090090 0.4101768355189122 0.6257738866128898
80090585 0.40676160614787704 0.6272482175210077
80091080 0.4191364464943584 0.6353166906685394
80091575 0.41221361794648215 0.6390531978756496
80092070 0.41448901048486125 0.6367596808890659
80092565 0.4075060953106561 0.629532638150093
80093060 0.4068682850440667 0.6284429097573541
80093555 0.40574510778252715 0.6384994528155092
80094050 0.40569333320219525 0.6421376583350634
80094545 0.40524818078303176 0.6447790404638655
80095040 0.40444270795149795 0.6327808860224653
80095535 0.4078840630569309 0.6437497390697162
80096030 0.4074992006874248 0.6340272776334158
80096525 0.4116961370608533 0.6320150950194838
80097020 0.4216674370305685 0.6329037324299285
80097515 0.4080233584959363 0.637639615314181
80098010 0.4168845483178867 0.6370400864656158
80098505 0.4092533685438642 0.6335345056884202
80099000 0.40890310676613995 0.6468175774354019
80099495 0.41340329175344076 0.6343664936406004
80099990 0.41230049583590594 0.6420679200225763
80100485 0.4090310963430959 0.6447698577037534
80100980 0.40996906020442087 0.6257102025895441
80101475 0.42164643078157704 0.6446377462537294
80101970 0.41129151994815155 0.6407266811204786
80102465 0.4102562813831729 0.636817667610283
80102960 0.4097907735879619 0.6498521306769566
80103455 0.4147072964707632 0.6340166082008786
80103950 0.4097234321501814 0.634150830915444
80104445 0.4075969983798369 0.6394969703484
80104940 0.4082315491386545 0.643183800812761
80105435 0.4146979109815888 0.6384496762090714
80105930 0.41783195294875 0.6388464502304062
80106425 0.41096924789824363 0.6455245562467782
80106920 0.4077632031372188 0.638492001083634
80107415 0.4197194415886469 0.6416965834548172
80107910 0.4145873090938597 0.6365948739918327
80108405 0.40859720629079777 0.6422986665081704
80108900 0.40997639903150224 0.6426366864782199
80109395 0.417240952627052 0.6355161006464234
80109890 0.41394183260937484 0.641164669437233
80110385 0.40444436243237475 0.6393559521087697
80110880 0.41654727481018744 0.6413208749401043
80111375 0.4078107243286998 0.6380901011517325
80111870 0.4004547821000758 0.6350240060309795
80112365 0.4152164950012883 0.6337470461345657
80112860 0.4151170779242878 0.6385854515650186
80113355 0.4132210034434489 0.6409075376599632
80113850 0.41016755441756075 0.635610965417335
80114345 0.41177105257770813 0.6417278076071662
80114840 0.4095053612231942 0.640157568017981
80115335 0.4138574434105115 0.6353530123587439
80115830 0.42082525171189716 0.6367299062049891
80116325 0.4114470686510434 0.6349973845436887
80116820 0.41619699893844914 0.6396466072541458
80117315 0.4121109078801666 0.6392860054296333
80117810 0.4101734366599012 0.641116639879069
80118305 0.41242390237439513 0.6431120798261496
80118800 0.41016233196741353 0.6356177310206029
80119295 0.41245191857678465 0.6391232566193308
80119790 0.4088714789242766 0.6357663714600439
80120285 0.4108790374605206 0.6417297862128374
80120780 0.4076722202813334 0.6321545270932462
80121275 0.4026647987013457 0.6384965394832952
80121770 0.41902779579461913 0.642764417306813
80122265 0.4107733296303772 0.6376171137462365
80122760 0.4163033419877121 0.6372283350759784
80123255 0.409337281159638 0.6415602721130254
80123750 0.4135361042827438 0.6391139618386509
80124245 0.4102882676514582 0.6391873994876214
80124740 0.408236734117285 0.6395514560711649
80125235 0.41210631102030293 0.6375508802724927
80125730 0.41605612907158457 0.6366184634829004
80126225 0.4064641243140701 0.6397318559919172
80126720 0.4166398452858015 0.6347766270370915
80127215 0.41250946455935256 0.6324818167018874
80127710 0.4131775990664888 0.6315352870747667
80128205 0.40530643380422526 0.6312675259211732
80128700 0.4105548126763227 0.632369821851658
80129195 0.41609685675239455 0.6430054466791439
80129690 0.4113491894935551 0.6306001068436754
80130185 0.4111841755748458 0.6299418912589316
80130680 0.40612008557329815 0.6390760992780363
80131175 0.4067679650704689 0.627311830259433
80131670 0.4061969825811739 0.6420676515491909
80132165 0.4154677660200769 0.6361015503423351
80132660 0.4128369135479631 0.6403919029067762
80133155 0.4094310054133819 0.6358799675744885
80133650 0.4127957538033886 0.6380264956870556
80134145 0.41249515255312763 0.6324191544640303
80134640 0.41175159437208836 0.6421241886410594
80135135 0.40995800396778076 0.6388683580389696
80135630 0.40821330407522544 0.6389264921891419
80136125 0.40819393923997144 0.64417751972696
80136620 0.40227431114913675 0.6273059151492408
80137115 0.4103209788286623 0.6382906949308523
80137610 0.4160611703598871 0.6405705246860257
80138105 0.40521814710173387 0.6338987802329926
80138600 0.40420348543707174 0.6300876804699861
80139095 0.41737470137064714 0.6383207415077825
80139590 0.4112611199796362 0.6262788809269291
80140085 0.4152241025709339 0.63833319389113
80140580 0.4107767089358958 0.6352320462466311
80141075 0.41257327636105007 0.636282885992521
80141570 0.40983334789797804 0.6329813291982803
80142065 0.41217878436871197 0.640329953255029
80142560 0.4071516064274237 0.6369116940526514
80143055 0.42092969197720415 0.6425131133367203
80143550 0.41396825262969117 0.6382991332887654
80144045 0.4042282823839669 0.6390462127213551
80144540 0.4060378859918877 0.6405001690333985
80145035 0.4173467154857695 0.634842416389349
80145530 0.40243388844271355 0.6359262532948922
80146025 0.40982635871905876 0.6342884247248702
80146520 0.4188642374661499 0.6407456632657189
80147015 0.41203490898691897 0.627332615573009
80147510 0.40537181202766337 0.6372448937213703
80148005 0.41753522334475646 0.6364952217272587
80148500 0.4101956854245317 0.6338924609077264
80148995 0.41711799207867434 0.6369624630718255
80149490 0.4072108453789985 0.6335656445015893
80149985 0.42059494091221405 0.6435180574981562
80150480 0.40786701136524134 0.6416902253736512
80150975 0.4060496390861936 0.6409811134771229
80151470 0.4168479522633425 0.6420162616586096
80151965 0.4162029185376563 0.636418625037446
80152460 0.4131253564375245 0.6425936448831463
80152955 0.4086657868132504 0.6422809725688381
80153450 0.4070929208793202 0.6357715416214164
80153945 0.4054043635017008 0.6331504844106591
80154440 0.4105134457794148 0.6376730954932971
80154935 0.41416713786593934 0.627601114955794
80155430 0.40735402510393964 0.6392546621325789
80155925 0.409237011622506 0.6363266201153868
80156420 0.41667630782732856 0.6342559588382654
80156915 0.4090053283783621 0.6343535178986688
80157410 0.4166600431320797 0.636052439814797
80157905 0.40685213201566395 0.632589739090359
80158400 0.41260960390532503 0.6422823763441575
80158895 0.4057797725159253 0.6430036369135012
80159390 0.4150769276447714 0.6371046725330136
80159885 0.4086230819106369 0.6378097062010329
80160380 0.40865172632732827 0.6337776876268989
80160875 0.4190306123220746 0.6319229837746969
80161370 0.4030045000398984 0.6431578153646638
80161865 0.40470287842930736 0.6318248651604443
80162360 0.4077799952553802 0.6403752724631153
80162855 0.4006066644023367 0.6305848842079748
80163350 0.4139264042653203 0.6371543577302463
80163845 0.4117531656440749 0.6389595236631452
80164340 0.4078644465315383 0.6370698740189638
80164835 0.40427751142636864 0.6393200162232411
80165330 0.4133102746819572 0.63208122017639
80165825 0.4061620762135973 0.6354888670187393
80166320 0.41007259501039556 0.6305206616030322
80166815 0.41565821849068857 0.6391321599690677
80167310 0.40283058299800983 0.6321793158409617
80167805 0.39650187519886393 0.64064656865385
80168300 0.4122570469843366 0.6342130403445437
80168795 0.4098313440085611 0.6347432864668209
80169290 0.41104439748460686 0.6305601931691912
80169785 0.4152013992802436 0.6368914391534357
80170280 0.39874663030673035 0.6360868080899871
80170775 0.4161832991342846 0.6329863515031082
80171270 0.41630612348766216 0.6345423996739225
80171765 0.4147327986400802 0.6361158193466622
80172260 0.4061956730465318 0.6369463726148429
80172755 0.4136811931512985 0.6389864686110097
80173250 0.4119936926071519 0.6294793478725178
80173745 0.41426862044150614 0.6287399873432701
80174240 0.40994403435138754 0.6373471725191232
80174735 0.4112179513004394 0.6345565120901603
80175230 0.4065939077461648 0.6407224898425274
80175725 0.40235094535356214 0.6335536775443911
80176220 0.41263889370413276 0.6249442221698858
80176715 0.41683240730163906 0.6295598545566025
80177210 0.4082549700893729 0.6455177592227482
80177705 0.4087013349293932 0.6364643725043263
80178200 0.40543667983375503 0.6440691418512983
80178695 0.4060676275901791 0.6364793501471422
80179190 0.4164538766123599 0.6385424578717753
80179685 0.41249882890439465 0.6377488204971448
80180180 0.41373819240338316 0.6426449073828829
80180675 0.40717882084333706 0.6416706215579263
80181170 0.4026042303683604 0.6312765122286469
80181665 0.4171264458494388 0.6428184026156183
80182160 0.41364046581456027 0.6335103186839129
80182655 0.4122508711103868 0.6440593293240947
80183150 0.4145635238829425 0.6342010264890205
80183645 0.4066030405199494 0.6347562025140804
80184140 0.41228184458226863 0.6351510260420434
80184635 0.4129461935766433 0.6396018969752015
80185130 0.41930960259730016 0.6366741644545588
80185625 0.40878867836623195 0.6380034310868338
80186120 0.40715961642345233 0.6357684256708959
80186615 0.40506944711594417 0.6359543662684681
80187110 0.4076486595017826 0.6320594926480556
80187605 0.41097405682810273 0.6325180918525277
80188100 0.41389139664843866 0.6437146258231656
80188595 0.415784161726371 0.6313802238458237
80189090 0.40488541417449186 0.6417055373329564
80189585 0.4102271223676838 0.6435493968479639
80190080 0.4191662141739838 0.6470547190869894
80190575 0.41385849269898267 0.6309840116686992
80191070 0.4168144194988263 0.6392593971175812
80191565 0.41633956722476556 0.6357366998106787
80192060 0.4074180191849292 0.6377033186289032
80192555 0.41828575260545564 0.6356231814747342
80193050 0.4114839700478356 0.6416793941393991
80193545 0.40632704153740734 0.6392422420691477
80194040 0.4034983395109089 0.6295008466690314
80194535 0.40809652063498086 0.6405567809360764
80195030 0.41478243904969875 0.6340870613697012
80195525 0.4121336840251221 0.6354820363156246
80196020 0.41968082385052863 0.6314776167592101
80196515 0.4123249351887935 0.6391601534565122
80197010 0.41441007375676997 0.6435240272241715
80197505 0.4119811234995613 0.6371808220230739
80198000 0.4178475096744568 0.6370349593034706
80198495 0.41294668263371226 0.6354602398200531
80198990 0.4148820349760518 0.6319516985535737
80199485 0.40625705989948585 0.6254893734554069
80199980 0.40354564045221464 0.6307185980765715
80200475 0.41652290392826485 0.638309388747956
80200970 0.4158743768457534 0.6401714347236912
80201465 0.4068766744948253 0.6389451109811286
80201960 0.40491520402971826 0.6377775562197341
80202455 0.4136400214328319 0.6387761317027917
80202950 0.4105347913717101 0.6296621900745121
80203445 0.4092711213363453 0.6394153690198254
80203940 0.4083191392110324 0.631570487368523
