# HZ S RI R 50
80000000 0.3892413745763439 0.6332101346945989 1.5517e-05 -0.005592558 0 0 0 0
80000495 0.39383249784867547 0.6349614588642426 -0.00168939 0.0019319 0 0 0 0
80000990 0.40669167064472683 0.6269410470981502 0.007849683 -0.002834472 0 0 0 0
80001485 0.39780564105961214 0.6290711795509082 0.00282265 0.00226979 0 0 0 0
80001980 0.4019573308536065 0.636146488048966 0.000787842 0.006457668 0 0 0 0
80002475 0.40548411030464265 0.6334636095105881 0.000481901 -0.000436028 0 0 0 0
80002970 0.40197494950081103 0.6305827879613113 -0.002454425 -0.001908333 0 0 0 0
80003465 0.3996016538682212 0.6295742119085617 -0.0018893 0.000145982 0 0 0 0
80003960 0.39901650414401924 0.6322751381736265 0.003522412 0.001308666 0 0 0 0
80004455 0.39621198070029134 0.6294905201082432 -0.001540855 -0.000695133 0 0 0 0
80004950 0.40045376467916194 0.6304458644578517 -0.000537322 0.001536762 0 0 0 0
80005445 0.39892722276153936 0.6364177534878691 -0.003331203 -0.003255343 0 0 0 0
80005940 0.3984591332909055 0.6331980463130203 0.006640632 -1.5709e-05 0 0 0 0
80006435 0.4000543753634967 0.6359001773978841 0.0002793 -0.005349839 0 0 0 0
80006930 0.3997298613697148 0.6229318842248719 -0.001076188 0.001015399 0 0 0 0
80007425 0.39872445153340497 0.6311214461618454 -0.000369333 0.000774686 0 0 0 0
80007920 0.4017694061136527 0.6361538749683836 0.005680158 -0.002864225 0 0 0 0
80008415 0.4027604617838198 0.6364240728598397 0.002182086 0.00267976 0 0 0 0
80008910 0.4032684252234745 0.6347946140247461 0.002922414 -0.002677473 0 0 0 0
80009405 0.4063316408793439 0.6337154262596694 0.004538859 0.002175734 0 0 0 0
80009900 0.4083634242179 0.6240059135446059 0.004141409 0.003186576 0 0 0 0
80010395 0.4013595065008509 0.6242356312224485 -4.803e-06 0.003737597 0 0 0 0
80010890 0.4023756512276337 0.6314168479416467 -0.009039014 -0.000321524 0 0 0 0
80011385 0.4093577010330038 0.6282389644180673 -0.001804035 -0.005288987 0 0 0 0
80011880 0.3998537087242553 0.6281057663155784 -0.003110273 0.005746665 0 0 0 0
80012375 0.4124604100619766 0.6276584424820811 0.000312666 0.006747589 0 0 0 0
80012870 0.40730538124939475 0.6287775720812616 -0.000335898 -0.002260836 0 0 0 0
80013365 0.4036484305482274 0.6327561125136963 -0.003820602 -0.001797116 0 0 0 0
80013860 0.39794516315360806 0.6334612483005375 -0.002425678 -0.005343751 0 0 0 0
80014355 0.3997816903386054 0.6320770519794289 0.00373558 -0.001986948 0 0 0 0
80014850 0.4016539897318074 0.6282734941730566 0.004189863 -0.000554561 0 0 0 0
80015345 0.41119660401739044 0.6341847984354162 0.001431009 -0.000164668 0 0 0 0
80015840 0.40043409217516357 0.6295971801554299 0.000565385 0.006084149 0 0 0 0
80016335 0.4097770081134286 0.6325854303531232 0.003748537 -0.002526258 0 0 0 0
80016830 0.4051171516951524 0.6269059033338059 0.004562018 -0.004565945 0 0 0 0
80017325 0.39837023455538273 0.6315639281581992 0.00368583 0.003374051 0 0 0 0
80017820 0.40335433712311053 0.6347685621347956 0.000408871 0.002786456 0 0 0 0
80018315 0.4089142039496245 0.6289239845899685 -0.003317785 0.002081283 0 0 0 0
80018810 0.39739072481533244 0.6348191005868218 -0.003234568 -0.000941365 0 0 0 0
80019305 0.39963760009491806 0.6262597477588633 0.005198969 -0.003735145 0 0 0 0
80019800 0.4031703199733594 0.6248412596038103 0.000479307 -0.003515589 0 0 0 0
80020295 0.3971542480283753 0.6262617111541622 0.000284343 0.000322183 0 0 0 0
80020790 0.407678625185984 0.6340076317234227 -0.008939425 -0.000442222 0 0 0 0
80021285 0.40627268240054587 0.6383570549350011 0.003049205 0.000237516 0 0 0 0
80021780 0.39723824111540423 0.6451302604186314 0.004052928 -0.005243158 0 0 0 0
80022275 0.4016827044213518 0.6324892540706959 -0.008537385 -0.009549442 0 0 0 0
80022770 0.4025588117137259 0.6409555803542393 0.005795736 -0.007109392 0 0 0 0
80023265 0.40647856895773454 0.6269470879274748 0.004014336 0.003240371 0 0 0 0
80023760 0.4032525438702536 0.6354719475361109 -0.010525319 -0.004343297 0 0 0 0
80024255 0.40114020047277066 0.6303148774733183 -0.000305304 0.00153021 0 0 0 0
80024750 0.405276189418743 0.6236620910781916 0.00462349 -0.002693577 0 0 0 0
80025245 0.4077710212689296 0.6274217088285496 0.006834978 0.00067342 0 0 0 0
80025740 0.4097058031043004 0.6288840310817176 -0.002366945 0.001250671 0 0 0 0
80026235 0.40858257895882494 0.6328476632349971 0.001932095 -0.001621444 0 0 0 0
80026730 0.40433269925726656 0.6341287249931451 -0.000117629 -0.004239046 0 0 0 0
80027225 0.41013637844467654 0.6417581862037085 -0.004376538 0.001552216 0 0 0 0
80027720 0.4006514379855081 0.6264092382801099 0.004772407 0.004446977 0 0 0 0
80028215 0.40628668812102553 0.6246893554758073 0.002825374 0.00024211 0 0 0 0
80028710 0.4027441676654661 0.6413148134884777 0.003110753 -0.003088773 0 0 0 0
80029205 0.4019680286392915 0.6359508813315935 -0.002432894 0.001926989 0 0 0 0
80029700 0.39628233607790486 0.6308801385101884 0.004131063 -0.003383988 0 0 0 0
80030195 0.40037030207761326 0.6232115196816785 -0.002948543 -0.007245505 0 0 0 0
80030690 0.40279215152026765 0.6274466287716474 0.003498981 0.00186205 0 0 0 0
80031185 0.41312547019794343 0.6296743562799322 -4.8736e-05 -0.001521705 0 0 0 0
80031680 0.4079457898705886 0.6379527324022026 -0.002798713 -0.001275948 0 0 0 0
80032175 0.4032778497148115 0.6332978171225587 -0.00584042 -0.002115122 0 0 0 0
80032670 0.40767262004386534 0.6281254589165652 -0.004322913 0.000741724 0 0 0 0
80033165 0.39977810159646515 0.6306097062110178 0.0019589 -0.001738906 0 0 0 0
80033660 0.40959583905681557 0.6281530777776468 0.011436034 0.000598169 0 0 0 0
80034155 0.40944520354116876 0.6319919191247286 -5.0079e-05 0.001554298 0 0 0 0
80034650 0.4050623371493203 0.6365461545966367 -0.002943343 -0.002896496 0 0 0 0
80035145 0.4034372694349312 0.6335308385632316 -0.002176165 -0.001486503 0 0 0 0
80035640 0.40712619209703754 0.6258228092175918 0.003148723 -0.006032958 0 0 0 0
80036135 0.41847076920558474 0.6334525232458864 0.001964027 0.002136569 0 0 0 0
80036630 0.4122646755509867 0.6301271077303113 0.003645454 -3.1817e-05 0 0 0 0
80037125 0.40720659473912973 0.6336840774759847 -0.004902795 0.001650714 0 0 0 0
80037620 0.4066816713359644 0.6265819141613568 -0.000804272 -0.000619799 0 0 0 0
80038115 0.4075157085590488 0.6260988490715311 -0.0004784 -0.007089362 0 0 0 0
80038610 0.40490807189274336 0.6378220639346921 -0.001199316 0.00220846 0 0 0 0
80039105 0.40473897752187665 0.6259397721532127 0.003806358 0.000733921 0 0 0 0
80039600 0.4116363601855595 0.6303723550837161 -0.002355339 0.002352465 0 0 0 0
80040095 0.41093650226503203 0.6357006585730798 -0.004558702 0.001601355 0 0 0 0
80040590 0.40602593629211486 0.6402308916735111 0.005510909 -0.001696423 0 0 0 0
80041085 0.4029522655270269 0.6254054420558619 0.003150587 -0.002634975 0 0 0 0
80041580 0.4002528471484715 0.638860741826793 0.004035514 -0.000450896 0 0 0 0
80042075 0.4158819261753903 0.635495153279412 0.001849662 -0.001372572 0 0 0 0
80042570 0.40911412636052674 0.6380820200890376 -0.002507353 -0.003293177 0 0 0 0
80043065 0.400047264164715 0.6342206733833752 -0.003998309 0.002694411 0 0 0 0
80043560 0.4040792517003137 0.631283713172546 0.001905589 -0.005935886 0 0 0 0
80044055 0.4098234325766352 0.6304363815377723 -0.002600107 -0.007110231 0 0 0 0
80044550 0.41796228137919456 0.6306248719281031 0.000157107 0.006064648 0 0 0 0
80045045 0.40896548976697944 0.6305954326903787 -0.001049542 0.000466521 0 0 0 0
80045540 0.40230884159312097 0.6325965318020276 -0.003666733 0.006036446 0 0 0 0
80046035 0.40831954439879264 0.6351664848814375 -0.000453819 -0.005054546 0 0 0 0
80046530 0.4080999967681584 0.6331624092353918 -0.00242634 -0.000919226 0 0 0 0
80047025 0.4043389952217978 0.6369046456582911 0.008192683 0.004224565 0 0 0 0
80047520 0.40825076127164744 0.6364889017741792 0.001911961 0.003129692 0 0 0 0
80048015 0.40713982848817826 0.6270525556237794 3.0657e-05 0.001232349 0 0 0 0
80048510 0.4028595658913493 0.6294293550393665 -0.000801807 0.00140841 0 0 0 0
80049005 0.4059755240693354 0.638110078200775 0.00097003 -0.000969932 0 0 0 0
80049500 0.41928364753409675 0.6301352999071586 -0.00393003 0.003106976 0 0 0 0
80049995 0.40750615813400987 0.6260867627550826 0.00252364 0.002196132 0 0 0 0
80050490 0.41944443294781075 0.632025689529923 0.002415292 -0.000450551 0 0 0 0
80050985 0.41334406368946247 0.6325737182338804 7.096e-06 0.006513962 0 0 0 0
80051480 0.4079394139991632 0.6330733778228452 -0.001308795 -0.00315207 0 0 0 0
80051975 0.40441210625099977 0.6372312326179257 0.004905215 -0.001732371 0 0 0 0
80052470 0.4098476089933985 0.6252270357462218 0.005560112 -0.004970716 0 0 0 0
80052965 0.414201162748359 0.6358279332272911 -0.003482474 0.004734204 0 0 0 0
80053460 0.4061520226287168 0.6306483451811543 -0.005979761 0.002814456 0 0 0 0
80053955 0.40418657522260343 0.6352445931806323 -0.000663263 0.004878 0 0 0 0
80054450 0.41776921340947587 0.6325041169052132 -0.00014988 0.001730509 0 0 0 0
80054945 0.41569844487870455 0.6209484888484939 -0.002098267 0.002607586 0 0 0 0
80055440 0.40657405702785565 0.6289783532937652 -0.000111618 0.001393458 0 0 0 0
80055935 0.416488401203038 0.6268664243392893 0.002082283 -0.004755807 0 0 0 0
80056430 0.4041568380507763 0.6286125352397474 0.001348767 -0.000349171 0 0 0 0
80056925 0.4059087681602374 0.634869199695262 -0.005527766 -0.002516358 0 0 0 0
80057420 0.40571495879927977 0.6294961702722398 2.3953e-05 -0.000539176 0 0 0 0
80057915 0.413980860177474 0.632072691393377 0.002487039 0.001004063 0 0 0 0
80058410 0.41461769040134794 0.6339857054696624 0.002757809 0.003244437 0 0 0 0
80058905 0.4100211811245111 0.6388089832000876 0.003553696 -0.000263402 0 0 0 0
80059400 0.4054217765215135 0.6285306952097123 -0.003671772 -0.000955561 0 0 0 0
80059895 0.4067799370246883 0.6324937697889044 -0.002106999 -0.000568577 0 0 0 0
80060390 0.40401629024025243 0.6298982895162689 0.002382573 -0.00667457 0 0 0 0
80060885 0.41298259311972024 0.6286113758372517 0.004731084 -0.000573761 0 0 0 0
80061380 0.405126284072742 0.6261467042486969 0.00411272 -0.000149698 0 0 0 0
80061875 0.4041425983668769 0.6272358694546438 -0.002836973 0.003522556 0 0 0 0
80062370 0.4099926241379747 0.6276882444777863 -0.004043805 0.001722618 0 0 0 0
80062865 0.40191139245058777 0.6315446229122653 0.003802488 0.005664745 0 0 0 0
80063360 0.41033301289405705 0.6246847703369438 0.0083276 0.001339123 0 0 0 0
80063855 0.4130506581214241 0.6334806029915104 -0.00045251 0.005207156 0 0 0 0
80064350 0.4127909284435788 0.6395906745041866 -0.004569902 -0.002452125 0 0 0 0
80064845 0.40533639167602376 0.6318868914561985 -0.002462125 -0.002559122 0 0 0 0
80065340 0.4140765630024389 0.6334519029917979 0.002043571 -0.003550768 0 0 0 0
80065835 0.40260718075703106 0.6326410104846063 0.00071276 -0.003429107 0 0 0 0
80066330 0.41727941031349036 0.625531766944646 0.009399797 -0.00048254 0 0 0 0
80066825 0.40965772186203253 0.6344822418369825 -0.001603099 0.004284744 0 0 0 0
80067320 0.4067658551641071 0.6333378674850315 -0.006141251 -0.003119664 0 0 0 0
80067815 0.40861064764763066 0.6332343390673197 -0.004899852 -0.000969223 0 0 0 0
80068310 0.4106348098056349 0.6300823678240881 0.001809452 0.000971352 0 0 0 0
80068805 0.40829593041240625 0.6385992452242769 -0.001363081 0.001747359 0 0 0 0
80069300 0.4152413307304222 0.6430583853632793 -0.003821057 0.005592927 0 0 0 0
80069795 0.40733668676951784 0.6331716913825501 -0.001070534 0.000320893 0 0 0 0
80070290 0.40900600824519207 0.6343240233795535 0.003081731 -0.005780469 0 0 0 0
80070785 0.40110810998914 0.632936690355778 -0.000374412 -0.000812314 0 0 0 0
80071280 0.41255900359139913 0.625008601033189 0.005426558 0.004444907 0 0 0 0
80071775 0.41148576462155667 0.6320543215526707 0.001713894 0.001113971 0 0 0 0
80072270 0.4159903225260373 0.628815720332628 -0.002384838 -3.697e-05 0 0 0 0
80072765 0.40648036123688686 0.6402840688128216 -0.005935238 -0.005156376 0 0 0 0
80073260 0.41515902571965735 0.6300509167863109 0.000699396 0.000299166 0 0 0 0
80073755 0.41337074308485877 0.6396876838082858 -0.003413624 -0.002862843 0 0 0 0
80074250 0.42126253064171526 0.641707020341801 0.002177335 0.006327664 0 0 0 0
80074745 0.3993734800071644 0.6355953001083178 0.000947737 0.00549698 0 0 0 0
80075240 0.4103799164661594 0.6350765686567664 -0.000280838 -7.2962e-05 0 0 0 0
80075735 0.41110845521785083 0.6426305606483614 0.000419804 -0.005791164 0 0 0 0
80076230 0.40023669722840505 0.6369647739732744 0.00115538 -0.001388743 0 0 0 0
80076725 0.41098344723837316 0.6338373878118415 0.007760862 0.000901869 0 0 0 0
80077220 0.41242873824486315 0.6300618641813156 4.029e-05 0.001968678 0 0 0 0
80077715 0.4045896507149934 0.6408876702123258 -0.001743927 -0.00433905 0 0 0 0
80078210 0.40588220738073694 0.6366142070189841 0.00467694 -0.004669141 0 0 0 0
80078705 0.4080740052173898 0.6401410365858987 0.006395873 -0.003109685 0 0 0 0
80079200 0.4158914098030334 0.6339937370292344 -0.00420336 -0.000514773 0 0 0 0
80079695 0.4082535221507164 0.6310037074187091 0.003703026 -0.004204131 0 0 0 0
80080190 0.415206457609636 0.6320173626041126 -0.002180116 0.000588194 0 0 0 0
80080685 0.4124442683416901 0.6388394952950195 -0.001761064 0.002512733 0 0 0 0
80081180 0.4129139637135758 0.6329236872289197 -0.002969401 -0.005135672 0 0 0 0
80081675 0.4061260367069931 0.6290243730624415 -0.000203907 -0.003385196 0 0 0 0
80082170 0.4128196006549086 0.6310241350356659 -0.002719654 -0.00027662 0 0 0 0
80082665 0.4122217916884242 0.6374806076543073 -0.001209189 -0.000890313 0 0 0 0
80083160 0.41323698827907446 0.6353002219365728 0.003452727 -0.001725455 0 0 0 0
80083655 0.40574880825948606 0.6359692783455773 0.001956208 -0.005856906 0 0 0 0
80084150 0.40140121935403894 0.6328135287250344 0.001054002 -0.002618593 0 0 0 0
80084645 0.40961090659957233 0.6378880823475058 0.003654643 0.00193759 0 0 0 0
80085140 0.4112382538868601 0.630283523356575 0.003291966 0.003281776 0 0 0 0
80085635 0.41226883245863943 0.6397257333589256 0.002522245 -0.002315187 0 0 0 0
80086130 0.4049062915203984 0.6255575194419285 -0.006371132 0.000683459 0 0 0 0
80086625 0.40778984367792415 0.6352512576244399 0.00543257 -0.000577269 0 0 0 0
80087120 0.41399125696430544 0.6272858322976378 0.005028245 -0.000679049 0 0 0 0
80087615 0.41019923292013344 0.6345164004391649 -0.000525744 -0.000139238 0 0 0 0
80088110 0.4131306975398394 0.636700768905068 -0.001232177 -0.002992516 0 0 0 0
80088605 0.4203666268144934 0.6302833511469571 -0.001963618 0.000375916 0 0 0 0
80089100 0.4144623681673974 0.6340193844246329 -0.002154967 0.001305779 0 0 0 0
80089595 0.4130782668449645 0.6413001318517537 0.001417244 -0.004261394 0 0 0 0
80090090 0.4101768355189122 0.6257738866128898 0.000451706 0.001770967 0 0 0 0
80090585 0.40676160614787704 0.6272482175210077 0.003719814 -0.001433372 0 0 0 0
80091080 0.4191364464943584 0.6353166906685394 -0.001661293 -0.000186114 0 0 0 0
80091575 0.41221361794648215 0.6390531978756496 -0.010642405 0.006372605 0 0 0 0
80092070 0.41448901048486125 0.6367596808890659 -0.002730912 0.003690479 0 0 0 0
80092565 0.4075060953106561 0.629532638150093 -0.001104994 -0.001107322 0 0 0 0
80093060 0.4068682850440667 0.6284429097573541 -0.001353753 0.002795899 0 0 0 0
80093555 0.40574510778252715 0.6384994528155092 -0.001052669 -0.003522798 0 0 0 0
80094050 0.40569333320219525 0.6421376583350634 0.000731396 0.000657717 0 0 0 0
80094545 0.40524818078303176 0.6447790404638655 0.002582469 -0.003487682 0 0 0 0
80095040 0.40444270795149795 0.6327808860224653 -0.004306319 -0.007416235 0 0 0 0
80095535 0.4078840630569309 0.6437497390697162 0.000416737 -0.001075964 0 0 0 0
80096030 0.4074992006874248 0.6340272776334158 0.003883941 -0.002077712 0 0 0 0
80096525 0.4116961370608533 0.6320150950194838 -0.002616415 0.00724863 0 0 0 0
80097020 0.4216674370305685 0.6329037324299285 -0.001181206 -0.000161381 0 0 0 0
80097515 0.4080233584959363 0.637639615314181 0.004222499 0.005301047 0 0 0 0
80098010 0.4168845483178867 0.6370400864656158 -0.000566628 -0.002280904 0 0 0 0
80098505 0.4092533685438642 0.6335345056884202 0.00281963 0.003668775 0 0 0 0
80099000 0.40890310676613995 0.6468175774354019 0.003186977 0.002403482 0 0 0 0
80099495 0.41340329175344076 0.6343664936406004 -0.000511252 0.002207573 0 0 0 0
80099990 0.41230049583590594 0.6420679200225763 0.002277835 0.003249024 0 0 0 0
80100485 0.4090310963430959 0.6447698577037534 -0.003685129 -0.001421287 0 0 0 0
80100980 0.40996906020442087 0.6257102025895441 -0.00320029 -0.003715385 0 0 0 0
80101475 0.42164643078157704 0.6446377462537294 -0.000771608 -0.003311112 0 0 0 0
80101970 0.41129151994815155 0.6407266811204786 -0.00188896 0.005331193 0 0 0 0
80102465 0.4102562813831729 0.636817667610283 -0.002494244 0.001855544 0 0 0 0
80102960 0.4097907735879619 0.6498521306769566 -0.004721431 -0.00245734 0 0 0 0
80103455 0.4147072964707632 0.6340166082008786 0.000150599 -0.001450108 0 0 0 0
80103950 0.4097234321501814 0.634150830915444 0.003458463 -0.002231015 0 0 0 0
80104445 0.4075969983798369 0.6394969703484 -0.00052025 0.001952196 0 0 0 0
80104940 0.4082315491386545 0.643183800812761 -0.001386904 0.000816503 0 0 0 0
80105435 0.4146979109815888 0.6384496762090714 -0.001009479 0.003006495 0 0 0 0
80105930 0.41783195294875 0.6388464502304062 -0.001507346 -0.001827674 0 0 0 0
80106425 0.41096924789824363 0.6455245562467782 0.005441632 0.002451426 0 0 0 0
80106920 0.4077632031372188 0.638492001083634 0.002573002 0.003099017 0 0 0 0
80107415 0.4197194415886469 0.6416965834548172 0.002354665 -0.001544619 0 0 0 0
80107910 0.4145873090938597 0.6365948739918327 -0.003439854 0.001389662 0 0 0 0
80108405 0.40859720629079777 0.6422986665081704 0.007973765 -0.007729804 0 0 0 0
80108900 0.40997639903150224 0.6426366864782199 0.00031726 -0.001430636 0 0 0 0
80109395 0.417240952627052 0.6355161006464234 -0.00225003 -0.001061511 0 0 0 0
80109890 0.41394183260937484 0.641164669437233 -0.00199473 0.001106221 0 0 0 0
80110385 0.40444436243237475 0.6393559521087697 4.1209e-05 0.001454843 0 0 0 0
80110880 0.41654727481018744 0.6413208749401043 -0.002794744 0.000583081 0 0 0 0
80111375 0.4078107243286998 0.6380901011517325 0.008490981 -0.002229903 0 0 0 0
80111870 0.4004547821000758 0.6350240060309795 -0.001905879 -0.002106728 0 0 0 0
80112365 0.4152164950012883 0.6337470461345657 0.000427105 0.00317486 0 0 0 0
80112860 0.4151170779242878 0.6385854515650186 0.003163702 0.004680215 0 0 0 0
80113355 0.4132210034434489 0.6409075376599632 -0.002317103 -0.005667517 0 0 0 0
80113850 0.41016755441756075 0.635610965417335 -0.002482113 -0.004703665 0 0 0 0
80114345 0.41177105257770813 0.6417278076071662 0.0017801 0.001870749 0 0 0 0
80114840 0.4095053612231942 0.640157568017981 0.005238811 0.00178843 0 0 0 0
80115335 0.4138574434105115 0.6353530123587439 0.006407171 0.006171153 0 0 0 0
80115830 0.42082525171189716 0.6367299062049891 -0.00496302 0.001142885 0 0 0 0
80116325 0.4114470686510434 0.6349973845436887 -0.005678176 -0.00160857 0 0 0 0
80116820 0.41619699893844914 0.6396466072541458 -0.000713371 0.001598114 0 0 0 0
80117315 0.4121109078801666 0.6392860054296333 0.004834873 0.000926714 0 0 0 0
80117810 0.4101734366599012 0.641116639879069 -0.004495372 0.005244729 0 0 0 0
80118305 0.41242390237439513 0.6431120798261496 0.003597079 0.002649762 0 0 0 0
80118800 0.41016233196741353 0.6356177310206029 -0.001407179 0.003398088 0 0 0 0
80119295 0.41245191857678465 0.6391232566193308 -0.004695354 -0.003331038 0 0 0 0
80119790 0.4088714789242766 0.6357663714600439 0.003250529 -0.002251064 0 0 0 0
80120285 0.4108790374605206 0.6417297862128374 0.004147898 -0.003089706 0 0 0 0
80120780 0.4076722202813334 0.6321545270932462 0.000115447 0.001906347 0 0 0 0
80121275 0.4026647987013457 0.6384965394832952 0.002693909 -0.004803447 0 0 0 0
