# HZ S RI R 50
10000000 0.9419805699381681 -0.04308868170167018 0.00735309015555403 -0.004848773096055379 0 0 0 0
10000495 1.09515928950872 0.18596914246365612 0.0029133991047531217 -0.0025590369121211614 0 0 0 0
10000990 1.005779179544104 0.0569223606400796 -0.0006790502929594778 0.005557894117783141 0 0 0 0
10001485 1.0217903357703648 0.15848923838257373 -0.004351293045390463 -0.0015848108266371566 0 0 0 0
10001980 0.985053206233242 0.1450079826076156 0.0019151265552932084 0.003983837539333305 0 0 0 0
10002475 1.0509684026936144 0.07589080106678424 0.010305203919330473 0.0033226343788799223 0 0 0 0
10002970 1.020517288089293 0.10379815938406213 -0.004643959250518147 -0.0013704102396402693 0 0 0 0
10003465 0.9896218311137487 0.04494540831825504 0.0023390063884355704 0.005482469606843871 0 0 0 0
10003960 1.0417568531456238 0.0926035648832084 -0.0008164799547260873 -0.005120445818586591 0 0 0 0
10004455 1.0244163656021974 0.09592753646414251 -0.00754697586971142 -0.0006988712405108777 0 0 0 0
10004950 1.0145652057672983 0.10645430394883804 0.008035866222268592 -0.004024005091269125 0 0 0 0
10005445 0.9755508434723582 0.08439677454718478 -0.0013949636654385672 -0.005714615147873941 0 0 0 0
10005940 1.024195102523596 0.05015305465043549 0.0015467774281593114 0.006996271296799322 0 0 0 0
10006435 0.9974865111724762 0.13904891539785277 -0.00890270148501048 0.00017462699226355978 0 0 0 0
10006930 1.018079909679686 0.09500104313132895 -0.007389457958236707 -0.0009797879818312276 0 0 0 0
10007425 1.006137409211665 0.08485972224358516 0.0013376104216441136 -0.004151244511817078 0 0 0 0
10007920 0.9969590138911825 0.051046727181364986 0.0024389261623378273 -0.01106578426354856 0 0 0 0
10008415 1.0195070586227368 0.059782906644372406 -0.004778416298033693 0.004068049945289742 0 0 0 0
10008910 0.9700131698201432 0.04327738691352455 -0.0055199683950387214 -0.004119046335092671 0 0 0 0
10009405 1.0092889243576109 0.089043932631317 0.001751332095067183 -0.004488577093540877 0 0 0 0
10009900 0.9663727188561946 0.09198942196241201 0.0008469919093408724 0.0025216663595808014 0 0 0 0
10010395 1.0212170338724162 0.07080689112297707 0.0005033741973864177 -0.005061663019774801 0 0 0 0
10010890 0.9726539067148777 0.07387713728731062 -0.003890645850795174 0.012759710664071116 0 0 0 0
10011385 1.0106026345355545 0.04966496767390043 -0.0006799215647986114 0.004137432050777949 0 0 0 0
10011880 1.0057755608402523 0.09789954731867831 0.0025160160196036198 -0.0012564536733579736 0 0 0 0
10012375 0.9756246360577026 0.08413340227196968 -0.0022791218825256544 -0.006938679664091935 0 0 0 0
10012870 0.9949061376892078 0.0896336594123153 0.004970656422436934 -0.01054547103536136 0 0 0 0
10013365 1.0043017451545104 0.061413820642182385 0.0005337840178828605 -0.0013048053848642904 0 0 0 0
10013860 1.0299276467040608 0.04833764519978033 -0.0009456629419099974 -0.0003870939064509601 0 0 0 0
10014355 1.028774881208139 0.07175947720651518 0.003680752377589605 0.0028223511274555833 0 0 0 0
10014850 1.0069946174873974 0.08398374998661146 0.0036614790374126663 -0.006668533761508388 0 0 0 0
10015345 0.9707438604624224 0.10954225669538743 -0.0008534943614922298 -0.007462279562327222 0 0 0 0
10015840 1.0307046506678132 0.09564774875458808 -0.0008335999996192567 -0.005848900635975269 0 0 0 0
10016335 0.9869021656641456 0.08692801089617584 0.0008384728537801315 -0.0011453567565564667 0 0 0 0
10016830 0.9748705148665645 0.0757649302794509 -0.007902603253423145 0.005337748918446149 0 0 0 0
10017325 0.9895031682260087 0.08187908386763203 0.0011185930685290153 -0.0010104663025091317 0 0 0 0
10017820 0.9830349568843003 0.08420854081992708 -0.006372563336447279 -0.002356393498592578 0 0 0 0
10018315 1.014951621990959 0.12041957380354469 -0.0032362918406287347 0.0034634121096486143 0 0 0 0
10018810 0.9846250575699929 0.09999852412067639 0.0030674585539080643 -0.005860203961109435 0 0 0 0
10019305 1.0118246916238631 0.11105383487163945 -0.0017049173926703502 -0.005017248844515326 0 0 0 0
10019800 0.9862586032025146 0.060104731987478864 -0.0023868842785220888 0.009878769217782126 0 0 0 0
10020295 0.999610544713962 0.09487582274194913 -0.0019908567729015666 -0.005986170651293734 0 0 0 0
10020790 0.9867530087966564 0.0817661188139524 0.008346111087830933 -0.002575697901272851 0 0 0 0
10021285 1.0025974889792229 0.04207372509932857 0.0036278931631131654 8.983671007514778e-05 0 0 0 0
10021780 1.0028358371920154 0.07487244374385145 -0.004961603210242975 -0.002354777865540724 0 0 0 0
10022275 1.0321016058316246 0.07328989850428927 0.0027159739688318242 0.0047316817321067725 0 0 0 0
10022770 0.9769336075543951 0.062026107522990155 -0.006294973202314774 -0.0041157179870429566 0 0 0 0
10023265 1.0139822351906103 0.08497861703361094 0.0015182246580007456 0.0024369855291288814 0 0 0 0
10023760 0.9969922788627649 0.029445129541096442 0.00045162187801883806 -0.008286692568831232 0 0 0 0
10024255 1.0086491268022233 0.08030409014738893 0.005172871723404192 0.010411406297038274 0 0 0 0
10024750 0.9721271956606234 0.04430918575284166 -0.0028361851765373505 0.015478523886848283 0 0 0 0
10025245 1.0213521928023284 0.07075109988138613 -0.0023998031619840957 0.00227169243216046 0 0 0 0
10025740 1.0242336725253114 0.1058930029793456 -0.0027875014563459397 -0.0027647192695482636 0 0 0 0
10026235 0.9766912301839534 0.08044773879377892 0.004966087336875085 -0.003359485879278182 0 0 0 0
10026730 0.9757177265619575 0.06651398765637342 0.0028439006201834392 0.0007754344699076599 0 0 0 0
10027225 0.981176938070755 0.05810740823210732 -0.0003219942458225564 0.00918525829824832 0 0 0 0
10027720 1.0138688764645822 0.13079540329187272 0.00471873704926995 0.005640911173599946 0 0 0 0
10028215 1.0083525930627482 0.06886062681035218 0.0040691500694514824 0.0022348410567034254 0 0 0 0
10028710 0.9970062871408224 0.15329565528722763 0.00018712401998780256 -0.014394179859037886 0 0 0 0
10029205 0.9780678037310767 0.05192127155300103 -0.0007169641740727603 -0.01020518371187017 0 0 0 0
10029700 1.1247664142087772 0.023743163931605804 0.013703502032518435 0.0009206125258856603 0 0 0 0
10030195 1.007408913776857 -0.08558911459694737 0.0028700444016847857 0.005197688287052556 0 0 0 0
10030690 1.0599614759252414 0.1306191982057874 -0.0015354774775491733 -0.00434323795333652 0 0 0 0
10031185 1.0263849540304446 0.13049233617630637 -0.001268015423367324 -0.0007717213748814586 0 0 0 0
10031680 0.9237630269631284 0.12744456395234893 -0.000686992614228412 -0.00010358777001616992 0 0 0 0
10032175 1.0550042105481074 0.06358417042441909 -0.0077252596418537775 -0.0070144321599885 0 0 0 0
10032670 1.0189540527855314 0.10048589015207851 0.006643617849267499 0.006540945441353394 0 0 0 0
10033165 1.0262529534452924 0.05849048449759612 -0.0009531260042016028 -0.0014518843631331575 0 0 0 0
10033660 1.0201445639327116 0.08267554246352715 0.0012582391065773773 -0.0008753961581725294 0 0 0 0
10034155 0.974882049281035 0.11506130923910496 0.0009072945672243351 -0.0039338592302321975 0 0 0 0
10034650 0.9734226540976785 0.09615225086139001 0.0037732066950798542 -0.0037503223728524338 0 0 0 0
10035145 0.972924784753667 0.05710523562662384 0.003459423422809378 -0.005150516414130943 0 0 0 0
10035640 1.0164060506982129 0.058711891719598244 0.001860781338255085 0.003574168679425722 0 0 0 0
10036135 1.0047917824701564 0.06177536214703465 -0.0030001589178972506 0.000760681044143727 0 0 0 0
10036630 1.010132619441922 0.07148297892336374 -0.011216211284792055 0.0012930089565487445 0 0 0 0
10037125 0.9797877304417903 0.08230151420950499 0.004538887755485991 -0.002074492011339478 0 0 0 0
10037620 1.0089305133639879 0.07829752660268505 0.007197144807111685 0.0032019564709085636 0 0 0 0
10038115 0.9963029201970636 0.07137670012116346 0.0036181242968853495 0.0033646012814785215 0 0 0 0
10038610 0.9527307365485367 0.11032502848284924 -0.003584773068947193 -0.00739580427533793 0 0 0 0
10039105 0.9806279117213959 0.08779837619582138 -0.011982399032204603 -0.005097206990634545 0 0 0 0
10039600 1.0413199169977811 -0.04768524378581637 0.0015506252052114179 -0.0038329676366621983 0 0 0 0
10040095 1.0597559400850678 0.07472119195266973 -0.008495617241622254 -0.008797501121318376 0 0 0 0
10040590 1.0592994093837844 -0.056563610630169125 0.0022207476832212013 -0.004888262037368342 0 0 0 0
10041085 1.0112376821666822 0.04078468303940669 -0.002552942444719095 0.002029571782381248 0 0 0 0
10041580 1.013858577054859 0.11610815389908313 0.002655665831550247 -9.992821050960605e-05 0 0 0 0
10042075 1.0363187494639687 0.12031885062878546 -0.006128324095881088 -0.002543302559066592 0 0 0 0
10042570 1.01136868246294 0.08390701489273066 0.01321131613870456 -0.0024729513346125045 0 0 0 0
10043065 0.9630857064992594 0.0894832145350472 0.002143236514998879 -0.00018576867724795975 0 0 0 0
10043560 0.9638255656904795 0.10068733789458435 -0.0016433457396451442 -0.004137979206046303 0 0 0 0
10044055 0.9843801767922545 0.09854114090447387 0.009422946223825522 0.0035061170208650332 0 0 0 0
10044550 0.9964490403907593 0.06847759393031928 -0.003024917734380091 -0.00422203092877529 0 0 0 0
10045045 1.005467986910079 0.02903330385882424 0.0009440924024022168 -0.0016167696550079805 0 0 0 0
10045540 0.9464468152525601 0.028171036664937477 0.006413735493827843 -0.0023567181727113156 0 0 0 0
10046035 0.9644488168477559 0.030676306714180993 0.00777823095582028 -0.0038353790295406628 0 0 0 0
10046530 1.0075988708243655 0.06120043361118323 0.0038368990780737583 0.0006651064828146357 0 0 0 0
10047025 0.98821054506938 0.0700624327908531 0.0065187780467375785 -0.0021902075446532227 0 0 0 0
10047520 1.021050774858456 0.08244860071348381 0.0017716633979664334 0.006256114496324222 0 0 0 0
10048015 1.0036851419134702 0.06214018065413714 -0.0014372156499705179 -0.004785044613135738 0 0 0 0
10048510 1.0146140832322734 0.044393870529277756 0.003946751026071007 0.0028938650981040065 0 0 0 0
10049005 0.993311338103395 0.09055813049712773 0.0020788918396782855 -0.008515194747203369 0 0 0 0
10049500 1.0329050445076347 0.09490512751096689 -0.0003470492176773346 0.006669601930449915 0 0 0 0
10049995 1.0028892153594013 0.0648549552456507 -0.005898375762966295 0.0007105435833914369 0 0 0 0
10050490 1.010073863050594 0.08548354866226816 0.002007652161329477 -0.008432499174687363 0 0 0 0
10050985 0.9989694702677167 0.07948876994979984 -0.0021582345899602597 -0.006509519110327481 0 0 0 0
10051480 1.0160495059370651 0.05265795734888223 -8.120188241692898e-05 0.0022647036598592695 0 0 0 0
10051975 0.9985935926210636 0.071243000551872 0.0077910687926372665 0.0024181959585939977 0 0 0 0
10052470 0.9763793841936005 0.06440004865323347 0.005678642345688319 0.001768068802577983 0 0 0 0
10052965 0.9904861699242787 0.053439965155290606 0.0028451642349823962 0.004371636471247437 0 0 0 0
10053460 0.9371796418787202 0.05835655920725806 -0.005631561726498346 -0.0055816673012346815 0 0 0 0
10053955 1.017164374588938 0.05640430910210843 0.0020263601725258045 0.001176091945350803 0 0 0 0
10054450 1.0205921523253776 0.09666217622813736 -0.0025133191485235983 0.006886626313923238 0 0 0 0
10054945 0.9765663550567051 0.06665925812759771 -0.0018237551370348499 0.0053984000142089685 0 0 0 0
10055440 1.0000453558884694 0.0836877522062696 -0.0020280674487790523 0.0006180417197554448 0 0 0 0
10055935 0.9811081546795282 0.0942493432420917 -0.0008425204176216864 -0.004312793139902238 0 0 0 0
10056430 1.0411017229304393 0.06423973928209972 0.006423191250617852 0.001562469591473547 0 0 0 0
10056925 1.0093591112860816 0.04044272017017949 0.0011810153768754016 0.0023962470354953968 0 0 0 0
10057420 0.9807317992214475 0.049773420136817445 0.005568229294260927 0.011291445086445036 0 0 0 0
10057915 0.9949139134690965 0.10271789555720445 -0.006866403702896017 0.002205859381997695 0 0 0 0
10058410 0.989700691915581 0.07284946529229491 0.004452447858921245 -0.0033431804832531513 0 0 0 0
10058905 1.0016760751899303 0.10140542732509307 -8.953733163731039e-06 0.0013593279533718394 0 0 0 0
10059400 0.9789659770107253 0.054508965498232566 0.008726216221044187 0.0005333439228515558 0 0 0 0
10059895 0.9677909108912798 0.09466597352669684 -0.008285448147856096 0.00015510277507942795 0 0 0 0
10060390 0.9900947128575468 0.09456547979804111 0.0022603857819041683 0.0017327116345429233 0 0 0 0
10060885 0.9738033865520394 0.07244112606599788 0.0030443131586639412 -0.010073076775993678 0 0 0 0
10061380 1.0229363555574287 0.06573033957807722 -0.0023369924504605933 0.0004864727983498572 0 0 0 0
10061875 0.999407583434544 0.04820081131459554 0.006334021856910831 -0.004190945409593234 0 0 0 0
10062370 1.0103627942975368 0.06098384831727057 0.0014962788869138154 -0.0003136939535323547 0 0 0 0
10062865 1.0009765393272958 0.028668345827094682 -0.004668874348441877 -0.0010183353075598597 0 0 0 0
10063360 1.0258376198610855 0.10203139563166876 -0.0007870863119163099 0.009439799411817622 0 0 0 0
10063855 1.0036703595806462 0.12923863727337795 0.0024054505735536928 0.001159506818736886 0 0 0 0
10064350 0.9844361076609786 0.07476985720293973 0.007348476880808759 -0.0007351443829485498 0 0 0 0
10064845 0.9969654381126941 0.046539289612084575 -0.004601433546836292 0.0008834690345910848 0 0 0 0
10065340 1.0058246304604308 0.1307524261459705 0.0012034163279528501 0.007895641077332354 0 0 0 0
10065835 0.9911118916001791 0.05097908244581409 0.007215378996570984 0.005026670516045155 0 0 0 0
10066330 1.0376795694101106 0.07273462899038716 -0.0023132717532359953 0.008468452371109532 0 0 0 0
10066825 1.0086165816904993 0.0695795503157159 0.0061179929897123096 0.0005132129921038644 0 0 0 0
10067320 1.0208974019897856 0.08435877372456363 -0.006219489929458058 -0.007174390896577321 0 0 0 0
10067815 0.9885744388655395 0.09725200147342394 0.012734066852809868 0.006119720278416522 0 0 0 0
10068310 0.9833908086846358 0.07086400342621063 0.00826714568855551 0.00015573570919061742 0 0 0 0
10068805 0.943332981092581 0.036949227759816204 -0.004125560393100662 0.002260706038562322 0 0 0 0
10069300 0.9422702378403366 0.19864368790873246 -0.0071001036853440055 0.00249835982067475 0 0 0 0
10069795 0.9447501134484898 0.08432025229928986 -0.0031696574767413163 0.001009775424296222 0 0 0 0
10070290 1.0758961139300514 0.17057063968223113 0.015917152181982266 -0.001639123023330714 0 0 0 0
10070785 0.9901998775702572 0.2157412608038298 0.013225610487106876 0.009884743777676569 0 0 0 0
10071280 0.949974514926593 0.028016360570189514 0.0038467334243901933 0.004593236428759286 0 0 0 0
10071775 0.9891775746826345 0.006468088537793799 -0.008488939223704221 0.0006179226431765834 0 0 0 0
10072270 0.9975151202735488 0.07075758731418012 0.0017925937501553958 -0.0012755180259445447 0 0 0 0
10072765 1.0183811616923222 0.05594632072196598 0.007556825585445673 -0.0034154377703498285 0 0 0 0
10073260 1.0321559962544502 0.08845885603504092 0.0010995952978120858 -0.004066549117476684 0 0 0 0
10073755 1.0205421147564349 0.04326303094502443 -0.0052011555328605776 0.013606909646701679 0 0 0 0
10074250 1.0255109218571035 0.08598496080849552 0.002029734683297875 0.008306054488626362 0 0 0 0
10074745 0.9606161544200291 0.04203549585496359 -0.008348631264439741 -0.007926083484030472 0 0 0 0
10075240 1.0026915250451673 0.10511564240029893 -0.009629399293805591 0.0032677088467731458 0 0 0 0
10075735 0.976809154260442 0.10115563595721641 0.004860858694699176 0.005368129369261077 0 0 0 0
10076230 0.9634376479176415 0.05295963121743062 0.010491810909792607 0.018708618275015274 0 0 0 0
10076725 0.9447858029676243 0.05775745306575864 -0.0006404721940050127 0.0030894856003810716 0 0 0 0
10077220 0.9791594000445839 0.05254287360500605 -0.0005748951198228621 -0.00045311500650062694 0 0 0 0
10077715 0.9706716903438738 0.06149010261829628 -0.007874088108493363 -0.0007457784108014213 0 0 0 0
10078210 1.0166254103303738 0.0873884024546303 0.00045346921713980507 -0.002296193812509015 0 0 0 0
10078705 0.9805674145581322 0.1322121186882308 -0.0016472075152650198 0.0015766850076550363 0 0 0 0
10079200 0.9683424573940246 0.07217470743195317 -0.013255673297427478 0.006120625353625879 0 0 0 0
10079695 0.9243102187428139 0.15486376669652777 0.0002946450497447241 0.006026378446313295 0 0 0 0
10080190 1.1266564407912334 0.0350835009069331 -0.009668407807261773 -0.007909165316220195 0 0 0 0
10080685 1.1177337848419544 -0.014261536906546288 0.0036458676592448325 -0.00012230270272934446 0 0 0 0
10081180 0.9703324018163626 0.13022386386746507 0.0007891753635566267 -0.005312402116253071 0 0 0 0
10081675 0.928642774258332 0.05170398017608961 0.006388340573402596 0.010419771254141752 0 0 0 0
10082170 0.972678544456813 0.10323935325211295 -0.010098689698174432 -0.0023819625180267904 0 0 0 0
10082665 0.978053668754409 0.03814522513253683 -0.007801909665746243 -0.010642536988026098 0 0 0 0
10083160 0.9477034904697617 0.07946880328829971 0.0006759463596999962 0.003025756900914981 0 0 0 0
10083655 0.9484833791943924 0.05009112080040787 0.005930415992416282 -0.012324092896342106 0 0 0 0
10084150 0.9834608513412472 0.04868165730561122 0.00712657974949928 -0.007961273386930541 0 0 0 0
10084645 1.018264546067591 0.05895951934794076 0.0009047239416172635 -0.005300297631813231 0 0 0 0
10085140 1.0150955839104392 0.022634285106567044 0.002372343104311878 -0.0014018747958987306 0 0 0 0
10085635 0.9632130049776414 0.10842749250788569 -0.004452730398994851 0.005695613797193557 0 0 0 0
10086130 0.9893304103450815 0.05218765595277721 0.0042609267344905465 -0.005684757278504157 0 0 0 0
10086625 1.0132907960655921 0.05319910296881219 0.0020422404032714 -0.006007364707950845 0 0 0 0
10087120 1.017943758702695 0.01765770914281158 -0.0005396430396984273 -0.0015638684558179048 0 0 0 0
10087615 1.0020529569332484 0.09655660980181148 0.009561347826977026 -0.005149340054002409 0 0 0 0
10088110 0.9798253712533423 0.05074959584308396 -0.004124206687774978 0.002171547359004403 0 0 0 0
10088605 1.0177211567525482 0.08409229342540343 -0.0032325452418810927 -0.004147850920510788 0 0 0 0
10089100 1.0094946180216366 0.054553758831912734 0.0012003283489345237 -0.0028887045706485442 0 0 0 0
10089595 0.9712229681902481 0.07235582010073809 0.0028829731892538904 -0.00023536048689630476 0 0 0 0
10090090 1.0253586829315833 0.07496713377559378 0.007326861946848947 0.0016552676822553603 0 0 0 0
10090585 0.984243583448037 0.0442006136183341 -0.0017131730506237347 0.0005777916390313963 0 0 0 0
10091080 0.991407414777785 0.09157422323615919 0.003722460548383721 0.002242785472218798 0 0 0 0
10091575 1.0302034213876647 0.04168217689458695 -0.0010407838217248904 -0.0011851189307631083 0 0 0 0
10092070 0.9606822349731307 0.043955345334808944 0.005690398870191097 0.003614559120412857 0 0 0 0
10092565 1.0131267957031753 0.06639432908894133 -0.0023127597425597612 0.003218968978809723 0 0 0 0
10093060 1.0208000933175998 0.026930045101174013 -0.003907621309245136 0.003922748567812364 0 0 0 0
10093555 0.9577443463497316 0.10584847880509698 -0.0017996732432620842 -0.0003989292198738475 0 0 0 0
10094050 0.9519454248908256 0.07149104001816237 9.31103774836997e-05 0.007235551540910459 0 0 0 0
10094545 1.031301394454613 0.10419850756468965 -0.006045820876690112 -0.006025624040492539 0 0 0 0
10095040 0.9818978887424178 0.06770983700025604 0.00555611032923836 0.0005411176743530957 0 0 0 0
10095535 1.003743802237108 0.05324908462124403 -0.003947082298995847 -0.005659807810691045 0 0 0 0
10096030 0.9857610147943294 0.026009671565649005 -0.0006772786391467478 8.376682513750973e-05 0 0 0 0
10096525 0.9377109478806998 0.10231548138059095 -0.002599282724207073 0.0013255942107908403 0 0 0 0
10097020 0.9667998370651587 0.05937766399298952 0.0037140543828976164 -0.0025042032577909635 0 0 0 0
10097515 0.9864034615975458 0.04546253583290188 0.005315850475587995 -0.008485767088243152 0 0 0 0
