# HZ S RI R 50
10000000 0.9419805699381681 -0.04308868170167018
10000495 1.09515928950872 0.18596914246365612
10000990 1.005779179544104 0.0569223606400796
10001485 1.0217903357703648 0.15848923838257373
10001980 0.985053206233242 0.1450079826076156
10002475 1.0509684026936144 0.07589080106678424
10002970 1.020517288089293 0.10379815938406213
10003465 0.9896218311137487 0.04494540831825504
10003960 1.0417568531456238 0.0926035648832084
10004455 1.0244163656021974 0.09592753646414251
10004950 1.0145652057672983 0.10645430394883804
10005445 0.9755508434723582 0.08439677454718478
10005940 1.024195102523596 0.05015305465043549
10006435 0.9974865111724762 0.13904891539785277
10006930 1.018079909679686 0.09500104313132895
10007425 1.006137409211665 0.08485972224358516
10007920 0.9969590138911825 0.051046727181364986
10008415 1.0195070586227368 0.059782906644372406
10008910 0.9700131698201432 0.04327738691352455
10009405 1.0092889243576109 0.089043932631317
10009900 0.9663727188561946 0.09198942196241201
10010395 1.0212170338724162 0.07080689112297707
10010890 0.9726539067148777 0.07387713728731062
10011385 1.0106026345355545 0.04966496767390043
10011880 1.0057755608402523 0.09789954731867831
10012375 0.9756246360577026 0.08413340227196968
10012870 0.9949061376892078 0.0896336594123153
10013365 1.0043017451545104 0.061413820642182385
10013860 1.0299276467040608 0.04833764519978033
10014355 1.028774881208139 0.07175947720651518
10014850 1.0069946174873974 0.08398374998661146
10015345 0.9707438604624224 0.10954225669538743
10015840 1.0307046506678132 0.09564774875458808
10016335 0.9869021656641456 0.08692801089617584
10016830 0.9748705148665645 0.0757649302794509
10017325 0.9895031682260087 0.08187908386763203
10017820 0.9830349568843003 0.08420854081992708
10018315 1.014951621990959 0.12041957380354469
10018810 0.9846250575699929 0.09999852412067639
10019305 1.0118246916238631 0.11105383487163945
10019800 0.9862586032025146 0.060104731987478864
10020295 0.999610544713962 0.09487582274194913
10020790 0.9867530087966564 0.0817661188139524
10021285 1.0025974889792229 0.04207372509932857
10021780 1.0028358371920154 0.07487244374385145
10022275 1.0321016058316246 0.07328989850428927
10022770 0.9769336075543951 0.062026107522990155
10023265 1.0139822351906103 0.08497861703361094
10023760 0.9969922788627649 0.029445129541096442
10024255 1.0086491268022233 0.08030409014738893
10024750 0.9721271956606234 0.04430918575284166
10025245 1.0213521928023284 0.07075109988138613
10025740 1.0242336725253114 0.1058930029793456
10026235 0.9766912301839534 0.08044773879377892
10026730 0.9757177265619575 0.06651398765637342
10027225 0.981176938070755 0.05810740823210732
10027720 1.0138688764645822 0.13079540329187272
10028215 1.0083525930627482 0.06886062681035218
10028710 0.9970062871408224 0.15329565528722763
10029205 0.9780678037310767 0.05192127155300103
10029700 1.1247664142087772 0.023743163931605804
10030195 1.007408913776857 -0.08558911459694737
10030690 1.0599614759252414 0.1306191982057874
10031185 1.0263849540304446 0.13049233617630637
10031680 0.9237630269631284 0.12744456395234893
10032175 1.0550042105481074 0.06358417042441909
10032670 1.0189540527855314 0.10048589015207851
10033165 1.0262529534452924 0.05849048449759612
10033660 1.0201445639327116 0.08267554246352715
10034155 0.974882049281035 0.11506130923910496
10034650 0.9734226540976785 0.09615225086139001
10035145 0.972924784753667 0.05710523562662384
10035640 1.0164060506982129 0.058711891719598244
10036135 1.0047917824701564 0.06177536214703465
10036630 1.010132619441922 0.07148297892336374
10037125 0.9797877304417903 0.08230151420950499
10037620 1.0089305133639879 0.07829752660268505
10038115 0.9963029201970636 0.07137670012116346
10038610 0.9527307365485367 0.11032502848284924
10039105 0.9806279117213959 0.08779837619582138
10039600 1.0413199169977811 -0.04768524378581637
10040095 1.0597559400850678 0.07472119195266973
10040590 1.0592994093837844 -0.056563610630169125
10041085 1.0112376821666822 0.04078468303940669
10041580 1.013858577054859 0.11610815389908313
10042075 1.0363187494639687 0.12031885062878546
10042570 1.01136868246294 0.08390701489273066
10043065 0.9630857064992594 0.0894832145350472
10043560 0.9638255656904795 0.10068733789458435
10044055 0.9843801767922545 0.09854114090447387
10044550 0.9964490403907593 0.06847759393031928
10045045 1.005467986910079 0.02903330385882424
10045540 0.9464468152525601 0.028171036664937477
10046035 0.9644488168477559 0.030676306714180993
10046530 1.0075988708243655 0.06120043361118323
10047025 0.98821054506938 0.0700624327908531
10047520 1.021050774858456 0.08244860071348381
10048015 1.0036851419134702 0.06214018065413714
10048510 1.0146140832322734 0.044393870529277756
10049005 0.993311338103395 0.09055813049712773
10049500 1.0329050445076347 0.09490512751096689
10049995 1.0028892153594013 0.0648549552456507
10050490 1.010073863050594 0.08548354866226816
10050985 0.9989694702677167 0.07948876994979984
10051480 1.0160495059370651 0.05265795734888223
10051975 0.9985935926210636 0.071243000551872
10052470 0.9763793841936005 0.06440004865323347
10052965 0.9904861699242787 0.053439965155290606
10053460 0.9371796418787202 0.05835655920725806
10053955 1.017164374588938 0.05640430910210843
10054450 1.0205921523253776 0.09666217622813736
10054945 0.9765663550567051 0.06665925812759771
10055440 1.0000453558884694 0.0836877522062696
10055935 0.9811081546795282 0.0942493432420917
10056430 1.0411017229304393 0.06423973928209972
10056925 1.0093591112860816 0.04044272017017949
10057420 0.9807317992214475 0.049773420136817445
10057915 0.9949139134690965 0.10271789555720445
10058410 0.989700691915581 0.07284946529229491
10058905 1.0016760751899303 0.10140542732509307
10059400 0.9789659770107253 0.054508965498232566
10059895 0.9677909108912798 0.09466597352669684
10060390 0.9900947128575468 0.09456547979804111
10060885 0.9738033865520394 0.07244112606599788
10061380 1.0229363555574287 0.06573033957807722
10061875 0.999407583434544 0.04820081131459554
10062370 1.0103627942975368 0.06098384831727057
10062865 1.0009765393272958 0.028668345827094682
10063360 1.0258376198610855 0.10203139563166876
10063855 1.0036703595806462 0.12923863727337795
10064350 0.9844361076609786 0.07476985720293973
10064845 0.9969654381126941 0.046539289612084575
10065340 1.0058246304604308 0.1307524261459705
10065835 0.9911118916001791 0.05097908244581409
10066330 1.0376795694101106 0.07273462899038716
10066825 1.0086165816904993 0.0695795503157159
10067320 1.0208974019897856 0.08435877372456363
10067815 0.9885744388655395 0.09725200147342394
10068310 0.9833908086846358 0.07086400342621063
10068805 0.943332981092581 0.036949227759816204
10069300 0.9422702378403366 0.19864368790873246
10069795 0.9447501134484898 0.08432025229928986
10070290 1.0758961139300514 0.17057063968223113
10070785 0.9901998775702572 0.2157412608038298
10071280 0.949974514926593 0.028016360570189514
10071775 0.9891775746826345 0.006468088537793799
10072270 0.9975151202735488 0.07075758731418012
10072765 1.0183811616923222 0.05594632072196598
10073260 1.0321559962544502 0.08845885603504092
10073755 1.0205421147564349 0.04326303094502443
10074250 1.0255109218571035 0.08598496080849552
10074745 0.9606161544200291 0.04203549585496359
10075240 1.0026915250451673 0.10511564240029893
10075735 0.976809154260442 0.10115563595721641
10076230 0.9634376479176415 0.05295963121743062
10076725 0.9447858029676243 0.05775745306575864
10077220 0.9791594000445839 0.05254287360500605
10077715 0.9706716903438738 0.06149010261829628
10078210 1.0166254103303738 0.0873884024546303
10078705 0.9805674145581322 0.1322121186882308
10079200 0.9683424573940246 0.07217470743195317
10079695 0.9243102187428139 0.15486376669652777
10080190 1.1266564407912334 0.0350835009069331
10080685 1.1177337848419544 -0.014261536906546288
10081180 0.9703324018163626 0.13022386386746507
10081675 0.928642774258332 0.05170398017608961
10082170 0.972678544456813 0.10323935325211295
10082665 0.978053668754409 0.03814522513253683
10083160 0.9477034904697617 0.07946880328829971
10083655 0.9484833791943924 0.05009112080040787
10084150 0.9834608513412472 0.04868165730561122
10084645 1.018264546067591 0.05895951934794076
10085140 1.0150955839104392 0.022634285106567044
10085635 0.9632130049776414 0.10842749250788569
10086130 0.9893304103450815 0.05218765595277721
10086625 1.0132907960655921 0.05319910296881219
10087120 1.017943758702695 0.01765770914281158
10087615 1.0020529569332484 0.09655660980181148
10088110 0.9798253712533423 0.05074959584308396
10088605 1.0177211567525482 0.08409229342540343
10089100 1.0094946180216366 0.054553758831912734
10089595 0.9712229681902481 0.07235582010073809
10090090 1.0253586829315833 0.07496713377559378
10090585 0.984243583448037 0.0442006136183341
10091080 0.991407414777785 0.09157422323615919
10091575 1.0302034213876647 0.04168217689458695
10092070 0.9606822349731307 0.043955345334808944
10092565 1.0131267957031753 0.06639432908894133
10093060 1.0208000933175998 0.026930045101174013
10093555 0.9577443463497316 0.10584847880509698
10094050 0.9519454248908256 0.07149104001816237
10094545 1.031301394454613 0.10419850756468965
10095040 0.9818978887424178 0.06770983700025604
10095535 1.003743802237108 0.05324908462124403
10096030 0.9857610147943294 0.026009671565649005
10096525 0.9377109478806998 0.10231548138059095
10097020 0.9667998370651587 0.05937766399298952
10097515 0.9864034615975458 0.04546253583290188
10098010 1.0082461969896261 0.07344645539673769
10098505 1.003340301242242 0.0435250770802162
10099000 0.991220008199276 0.0974789872253434
10099495 0.9804624725318128 0.11018156939317698
10099990 1.0021160665578035 0.15698322990416508
10100485 1.003491031693247 0.07100418509520215
10100980 0.9952529958331224 0.1223411122984241
10101475 1.0240047631017373 0.09231510808493833
10101970 0.998980990214567 0.0827245502752134
10102465 1.0160912090056626 0.10799654937175027
10102960 0.9875597282934859 0.08242058232578182
10103455 1.0084371996419217 0.12596035855919174
10103950 1.0183344650045782 0.11238142934684288
10104445 0.9746367827199314 0.10912947284729332
10104940 1.0104828347276251 0.09222356223237783
10105435 0.9841675628414303 0.11312295981308244
10105930 1.0164326706206321 0.06772612222337739
10106425 1.0114668316722244 0.08975260361039698
10106920 0.9694722342193336 0.06923250039811212
10107415 0.9849722988259976 0.12622290681008866
10107910 1.0297524781879255 0.0842355796822875
10108405 1.0221097560432961 0.0749062672865222
10108900 0.9657419511032452 0.108110076908775
10109395 0.9549356782547276 0.06422673564180743
10109890 1.068090187715442 0.06776566349396224
10110385 1.0325668130087104 0.16755973169547753
10110880 1.0401694615452097 0.0919323879665919
10111375 0.9923489115032581 0.12109591210180613
10111870 1.0262970112814425 0.07069875358930436
10112365 0.965547138328524 0.04686418205434267
10112860 1.0211217668058972 0.09815769592193074
10113355 1.0119130117253232 0.12190568600101714
10113850 0.9938905998286022 0.10735023342082009
10114345 0.9898993705199189 0.09873580476726655
10114840 1.0043329505956877 0.11884060361144437
10115335 1.008138066420394 0.08068194971380534
10115830 0.9757850349613489 0.10159278158013872
10116325 0.9928972667534751 0.09210907178392065
10116820 1.0147662851079469 0.0951616596695023
10117315 1.0083663592882854 0.0788406982375566
10117810 1.0270667393527537 0.08086224656735007
10118305 0.9914977464022382 0.14029409167551782
10118800 1.0144357328309273 0.07570153777216222
10119295 0.9982349767964394 0.08360345452130469
10119790 1.0828947070549697 0.11825143175526466
10120285 1.0890925777131306 0.08760170025657323
10120780 0.972838991680743 0.06028310387141581
10121275 0.982290921783355 0.10174901448430489
10121770 0.9707442614798707 0.08204328982503367
10122265 1.011600129122856 0.12686315336885687
10122760 0.9911813654487215 0.07944121637556832
10123255 0.9880916152080628 0.064427210256366
10123750 1.0076283389500091 0.09623968212340779
10124245 0.9694937790610093 0.05397373624657063
10124740 1.0080738182021427 0.10782578881572362
10125235 1.0166070130845026 0.06780306369383213
10125730 0.9991177161746221 0.08814066863074725
10126225 1.0251644216581157 0.09876064712602418
10126720 1.0097494770850055 0.0922786053990986
10127215 1.0047839603283033 0.08302816411161691
10127710 0.9758616529313082 0.07998311560531268
10128205 1.004068677828862 0.07537006983738077
10128700 1.0022447658172997 0.10681459785969483
10129195 0.9692778071054973 0.08571160844685946
10129690 1.0007072420867966 0.06796571686934266
10130185 1.0168194440290101 0.07368175684917307
10130680 1.0162508116656919 0.09133454209988795
10131175 1.0156307929899009 0.08453963836221053
10131670 1.0019455873455658 0.0940679149275427
10132165 1.0188223132810694 0.11005997597070895
10132660 0.9311586945008493 0.08057032476949218
10133155 0.9951121591630722 0.09068250649912435
10133650 1.0046833903711925 0.09568682040081988
10134145 1.0147675567884757 0.07185296877413618
10134640 0.9982097864984709 0.09878361485111173
10135135 1.0041474045992784 0.08136800840225576
10135630 1.022066814544656 0.08651142065582747
10136125 1.014216142513229 0.09513290055454696
10136620 0.9779496172036934 0.08231122436875264
10137115 1.0198540114064931 0.11688289428422631
10137610 1.0106771106229788 0.07477589930007862
10138105 1.0135199484719555 0.09940369723467148
10138600 1.0079153049418867 0.0677265790606696
10139095 1.0362822427684504 0.13253541146630446
10139590 0.9783825906285117 0.08535650039584931
10140085 1.0282063261270877 0.08708625724890023
10140580 0.9956652343988476 0.10008935646836438
10141075 0.974326037116545 0.08448717789458085
10141570 1.0197508337649972 0.09747545146510149
10142065 0.9807905266658798 0.09026050495255998
10142560 1.01296852907015 0.09419592982061452
10143055 1.0009349911677445 0.09953566245410202
10143550 1.0159603109058495 0.06523265322661825
10144045 1.0053549360057787 0.09397426177323888
10144540 1.044753159067471 0.07464129256045873
10145035 0.9828707635800755 0.08833569500019173
10145530 0.9975230642906325 0.0612450908815714
10146025 1.0084204204407943 0.11013073251864236
10146520 0.9892829927699764 0.0914883859635679
10147015 1.0295315966992986 0.09055303866218994
10147510 1.0042906740678619 0.06889291979866263
10148005 1.0239517441253962 0.07624963362913127
10148500 1.014046265230914 0.075438901475993
10148995 0.985130898563672 0.09165309002248374
10149490 0.9524140313800843 0.07385878360245876
10149985 1.038158398845036 0.14958193930035968
10150480 1.037606928899413 0.026116169303820515
10150975 0.9801695039898396 0.070394253267259
10151470 1.0030364515286874 0.08438901352428692
10151965 1.0189029712538926 0.048688310340754985
10152460 0.9954690390877629 0.08605068950981509
10152955 1.0224833850132329 0.10050691492398157
10153450 1.0283733082348039 0.10210992256388482
10153945 0.9689531940069516 0.08393912656805486
10154440 0.9825462553548796 0.11669000221256769
10154935 1.0158394536322177 0.07947831429018185
10155430 1.0020729004446822 0.10066676567475245
10155925 1.0090669573925612 0.12367286834951227
10156420 1.002382965987175 0.06714640206676364
10156915 1.035913984040191 0.0907479841491031
10157410 0.989983367463049 0.048057285364731576
10157905 0.9962832991584555 0.12101019298901111
10158400 0.9804466256694786 0.10084417500211841
10158895 0.969772952712132 0.07382959669628977
10159390 0.9895529916031228 0.09961140988438805
10159885 1.079712372325515 0.1069824858634406
10160380 1.015412335209873 0.20020234242054555
10160875 1.0294155534984681 0.11388718876460194
10161370 1.0359268362390126 0.10142013712662251
10161865 1.011181823609475 0.05754492671026843
10162360 1.0077033339912242 0.1252772609680368
10162855 0.9870151598588801 0.10508683538617301
10163350 0.9628830099153322 0.08438942649655885
10163845 0.9603776746129412 0.08052844927137853
10164340 1.0047204051998078 0.06901908560720593
10164835 0.9932506758893364 0.07568308025784534
10165330 0.9790775885916138 0.11300577682721612
10165825 0.9991434332119252 0.08028216039556084
10166320 0.9856550029470338 0.11982303507618267
10166815 1.0008120260496625 0.09666132512174981
10167310 1.0107569630757995 0.11208250268533487
10167805 1.0103051211934824 0.07672541676660236
10168300 1.0019916502137445 0.11891416760751575
10168795 0.9772158838615365 0.09340728775347307
10169290 1.0095550305279446 0.06422435648980657
10169785 1.1110015733635066 0.037282313754265335
10170280 1.0020103109210978 0.16280202881128863
10170775 1.0101699777646789 0.11425678572629834
10171270 1.0102282901480548 0.10569900521577208
10171765 1.0066599575396071 0.07762827548170209
10172260 1.0050320847950363 0.08715797602313986
10172755 1.0377104145709164 0.0935631185941236
10173250 1.02166331173315 0.03542381918416981
10173745 0.9366259325087176 0.1237229551052673
10174240 0.9867713756160383 0.09708692739357765
10174735 1.0157570250560248 0.10490393222332356
10175230 1.024275147509419 0.07927767390520656
10175725 1.0169711738293103 0.06818404723701144
10176220 1.0290022796898626 0.09846590823714811
10176715 0.9903464319203744 0.08865503927384326
10177210 0.9673928077105852 0.11408804017816296
10177705 1.0140896037715978 0.09547828771472419
10178200 1.0300603913134276 0.09154259296722167
10178695 0.9847704244173604 0.10523177298470329
10179190 1.0326703356331666 0.09188006107983705
10179685 0.9850780127205345 0.08537415890089925
10180180 1.0180011131402875 0.06189056409776476
10180675 1.039206610532116 0.14024721800102782
10181170 1.01721924037887 0.09296067150516635
10181665 1.0011503824894867 0.10797812459270714
10182160 1.0005222426999953 0.06543096782322022
10182655 1.014082810794791 0.08402823142285705
10183150 0.9997820640806883 0.0986054425352125
10183645 0.9828855735360279 0.08877270850427717
10184140 0.9792257355355792 0.09370216334094811
10184635 1.0097613594524606 0.08805367724525454
10185130 0.998709909068532 0.0652391680868098
10185625 1.020145741754132 0.06933096730819789
10186120 0.978696524198261 0.06449112634305441
10186615 1.0058991304987173 0.08736912450493134
10187110 1.009401026589382 0.06951009129026683
10187605 1.003261984491521 0.04816839798143087
10188100 0.9798185784190344 0.08486229312479289
10188595 1.0162255292702416 0.06401228369505227
10189090 1.0199049912929208 0.10552534015566647
10189585 0.9997330182163681 0.10851760784257401
10190080 1.0204380000297328 0.15261193510146256
10190575 0.9710734265709176 0.047572650908141334
10191070 0.9965454823605175 0.08443656896731912
10191565 0.992812313998856 0.08715428465930537
10192060 1.0045407904477448 0.0882620712033183
10192555 1.0138072694750835 0.1037891434358506
10193050 1.0032063979287256 0.08529268334739679
10193545 1.0326898315717037 0.0733864337037157
10194040 0.9947656043770541 0.08909460117080416
10194535 0.9936893980258953 0.09824757839980648
10195030 0.9742507894201818 0.08453703110711135
10195525 0.9973336801571231 0.10422571212275614
10196020 0.9978541885050671 0.07720174813219531
10196515 1.0041036512549255 0.08442932741757675
10197010 1.0121843661250263 0.06986927991915398
10197505 0.9863111993964289 0.09029901429582532
10198000 0.9764335213295338 0.07561364022246696
10198495 1.0035481601058267 0.1721841539068781
10198990 1.0013258948847834 0.09684903625500244
10199485 1.0024146635805051 0.11141456647785089
10199980 1.023512815159254 0.043194032076023445
10200475 0.9754388108290342 0.1576273432326568
10200970 0.981304109520393 0.13115063797398033
10201465 1.0042343116836274 0.09481092794962104
10201960 0.9953746730985548 0.12716027994718543
