# HZ S RI R 50
1000000 0.22677109427867712 0.79720607979345
1002393 0.1279661277756632 0.9704152228537194
1004786 0.1482941834815347 1.0332654564551045
1007179 0.1512747724308963 1.02542009825687
1009572 -0.02586981237250267 1.020961773862455
1011965 0.1347855210599648 1.0501178471678394
1014358 0.15486424989511624 1.0349586079324735
1016751 0.1544709613541024 1.0208366074040531
1019144 0.1503311486532957 1.0165313936268925
1021537 0.1748420600665169 0.997025537797299
1023930 0.15862615908167357 1.0082432397554186
1026323 0.1477520657971815 1.0274857125227423
1028716 0.13688995440519908 1.005915842870368
1031109 0.15630322738046395 1.01526845553229
1033502 0.16100081386485235 1.014239146032265
1035895 0.17956474478502568 1.017743720799506
1038288 0.1561495757353846 0.999418603065787
1040681 0.17444230480381331 1.0254749773945981
1043074 0.18765736554392023 0.99337536582312
1045467 0.17122827243510133 1.0226803536238065
1047860 0.19410133784727138 1.0152591519119458
1050253 0.16445035662152016 0.969673893510071
1052646 0.1725587444802574 1.0135672852016817
1055039 0.18511210982782955 1.0125651169865584
1057432 0.1990396821473385 1.0126241797085316
1059825 0.19796157296882064 1.0078508266899038
1062218 0.19181918236537301 1.0071578306775466
1064611 0.18629439456985275 1.0092012440026097
1067004 0.1979347919387364 0.9858879158165087
1069397 0.21389453795167518 0.966108719445745
1071790 0.21517735771886398 1.0175751897938123
1074183 0.19937677414503285 1.0125753838761404
1076576 0.207152467883981 1.0095033380216105
1078969 0.20584165121893475 1.002271849962819
1081362 0.217935285707409 0.9837992283751724
1083755 0.2051039181827792 1.0221098700443643
1086148 0.2230099777012488 1.0148263260468406
1088541 0.21713134140529508 1.0113870653264556
1090934 0.22444402218911416 1.0015718425946147
1093327 0.23258454184501623 1.0055885892079872
1095720 0.228870429778996 1.0030008451639063
1098113 0.2238764752481588 0.9911046889379936
1100506 0.2357448660431154 1.0051358590522486
1102899 0.222936841145236 0.989846945934275
1105292 0.21564945942666688 1.0124822870941672
1107685 0.2226193152562176 0.9980080672277776
1110078 0.2167054491612594 1.020130426276802
1112471 0.230896377425518 1.012503708282578
1114864 0.24622537607044614 1.0094753586325707
1117257 0.2425337425803768 0.999829535720471
1119650 0.31598961677261833 0.9869857665107279
1122043 0.2571824176760094 0.9920633579815874
1124436 0.26247550526032937 0.984047629110625
1126829 0.2413143550667687 0.9962652825648843
1129222 0.2388130036880447 1.0156499666040941
1131615 0.27775625152876077 0.9896731303679102
1134008 0.2697325537903053 1.0117698729139637
1136401 0.2559789769152208 0.9975062207913167
1138794 0.2764693004866292 0.9996593018107802
1141187 0.2827824966389356 0.9886607602011575
1143580 0.2744850521153773 0.9960047964779403
1145973 0.27371429758154137 0.9836797053658435
1148366 0.26624194555239816 0.9965263157791004
1150759 0.26770426984597706 0.9778350191773093
1153152 0.2775441822001707 0.9975782834695085
1155545 0.27497645263097087 0.9931711366901939
1157938 0.28441180010761474 0.9970156538262062
1160331 0.28916972488380155 0.9946621585025157
1162724 0.2652746859780702 0.9867380745570846
1165117 0.2842732617729501 0.983624625518136
1167510 0.29796363252619085 0.9914360821637458
1169903 0.28546385140048547 1.0020919840421267
1172296 0.29399392768731986 0.9910918960551989
1174689 0.29347878686751383 0.9990608019649764
1177082 0.3012540146800352 0.9835681088095346
1179475 0.29356909579542034 0.9843898119682964
1181868 0.30497201826168596 0.9890282347275544
1184261 0.3065226636592002 0.9898544364619758
1186654 0.29402675568164827 0.9774339616773972
1189047 0.3103991529824387 0.9877692880576504
1191440 0.3046940689071562 0.9937103642398232
1193833 0.2997197101201859 0.9858406393943188
1196226 0.31321670750567343 0.9870728443688828
1198619 0.31735791546634035 0.9773621709936196
1201012 0.3254799470103731 0.980395226115493
1203405 0.3179482051117624 0.9702945829181306
1205798 0.31652829229907453 0.9688565721035439
1208191 0.3162733378768772 0.9806596364614775
1210584 0.3240619356160123 0.981595090921714
1212977 0.3221233588246926 0.9755645096817782
1215370 0.3385035097486049 0.9835246137577728
1217763 0.33981971854490306 0.970988625727139
1220156 0.40058692345657687 0.979301694997434
1222549 0.32739684473443437 0.9907105742533601
1224942 0.34318867427190114 0.9599823754176343
1227335 0.3205054560068793 0.9574174617408936
1229728 0.3683978715633384 0.9939834328725602
1232121 0.34256379642672097 0.958182289442091
1234514 0.32992150584904634 0.9756344145886227
1236907 0.3488500732231598 0.9606885608746807
1239300 0.34119868901437767 0.9734624605190686
1241693 0.3357931341956431 0.948360813465033
1244086 0.35348799247560164 0.9643621030195957
1246479 0.33874244868603665 0.9590532183268137
1248872 0.3356761078108326 0.9770050730249983
1251265 0.34851584347912146 0.9886505408765709
1253658 0.3566986248116106 0.9596260925316135
1256051 0.3712186298999606 0.9739028073386435
1258444 0.3608461825920406 0.978100362131633
1260837 0.36574830015281473 0.9566700546110626
1263230 0.36327429415334794 0.9574705071502018
1265623 0.3698140263302556 0.9514625335418796
1268016 0.36487709524053463 0.9531384637710122
1270409 0.36716982418064625 0.9704806491722929
1272802 0.3662049525609972 0.9652758047516691
1275195 0.3748979522247789 0.9792874222183079
1277588 0.3739188042287371 0.9699629312083723
1279981 0.4199574804479876 0.9698726519104823
1282374 0.36250322052503775 0.9511959239788214
1284767 0.380508481504425 0.9513520072100309
1287160 0.37876013829320415 0.9522531094184244
1289553 0.3818253287519349 0.9683450023364921
1291946 0.3818707637331009 0.964389213313369
1294339 0.37175413214888575 0.9840764568933582
1296732 0.37284194241915225 0.9482863585743336
1299125 0.42599789724681963 0.9709315215909784
1301518 0.3621172583264413 0.9397357141954981
1303911 0.3888390267028135 0.956785613758081
1306304 0.39681656786977954 0.9393810930025394
1308697 0.39388299244893166 1.0115205107325893
1311090 0.38146027730214976 0.9453612128751865
1313483 0.4047973865165786 0.9516041127889178
1315876 0.4002227662153693 0.9524367628065643
1318269 0.40052705924903603 0.953626629703136
1320662 0.405120050229854 0.9227026929255296
1323055 0.4219008523040462 0.9474653503899126
1325448 0.40715797588027963 0.9488274450072761
1327841 0.3969071159490526 0.9437947628544764
1330234 0.4046491406951403 0.9567832083447643
1332627 0.4200782044797929 0.9556240561543698
1335020 0.40762375255854816 0.9413248967678938
1337413 0.4162056177962999 0.9417031385712624
1339806 0.41927416756035957 0.9484056135948112
1342199 0.4039610518948985 0.9454009367054528
1344592 0.4180883256710448 0.9365559489681248
1346985 0.4234288045577854 0.946695435029066
1349378 0.4301402390307536 0.9770389853284115
1351771 0.4363873356159959 0.9392869943601346
1354164 0.4399403136432941 0.938758953537101
1356557 0.4459072928916459 0.9373005058221691
1358950 0.4268868818243213 0.9339421362472423
1361343 0.43112953225700285 0.9311827765943688
1363736 0.4244166513730204 0.947838838632871
1366129 0.44130281186609294 0.9331487906057435
1368522 0.44504365531998913 0.9418604684750422
1370915 0.43727254724262155 0.9270658882865712
1373308 0.4473948667206049 0.9453018274115763
1375701 0.44252613747189057 0.9282023094166492
1378094 0.42696745305555134 0.9252293423144582
1380487 0.44578200329255346 0.9196348287722242
1382880 0.4352934326071718 0.9209610684306342
1385273 0.44106893087499344 0.9267378764420552
1387666 0.44124016327674875 0.9349293802004924
1390059 0.4256441581418822 0.8899449395011614
1392452 0.4558804127072341 0.9315036065823192
1394845 0.44805994340967953 0.9212060095912548
1397238 0.43834894769508576 0.9161420103878152
1399631 0.44016854377300196 0.9209078834023743
1402024 0.45417659710058483 0.9067168025928888
1404417 0.44822131078694444 0.9266635157704656
1406810 0.456794674224913 0.9200797863591443
1409203 0.46178860662624016 0.9154111058404183
1411596 0.4550170647959566 0.895417675815147
1413989 0.4805999631097325 0.9142757840008948
1416382 0.4708358217592445 0.9192360831927754
1418775 0.4817464969235668 0.9211993672808267
1421168 0.45880512671842466 0.9080825641275962
1423561 0.4786069780562936 0.9111344236865073
1425954 0.45772035229899405 0.9003805316735387
1428347 0.4766968843830193 0.9270783431587402
1430740 0.47783439236907144 0.9128260847611398
1433133 0.4664347607414386 0.9102876318923231
1435526 0.4679030197824613 0.910399373541418
1437919 0.47651368721558973 0.9230469215049342
1440312 0.4920984791573705 0.9212914809311649
1442705 0.47349716102528455 0.9055404709670933
1445098 0.48844301211716246 0.9151531837774478
1447491 0.49080515664328195 0.9006370552532263
1449884 0.4782959390645171 0.9100560058774944
1452277 0.48331242217933934 0.9155335273292984
1454670 0.481610894288804 0.9115947595227835
1457063 0.47982592371359206 0.9047725300045923
1459456 0.47434953526371365 0.8967704593693213
1461849 0.47939780881004895 0.9113384176878225
1464242 0.481767051102265 0.908558112371508
1466635 0.4879897508820632 0.9135788863591685
1469028 0.5044386955019511 0.9076533313971611
1471421 0.48627828773062715 0.9182847908350807
1473814 0.5049803837600207 0.9081959493506894
1476207 0.493816895661067 0.8914737793513913
1478600 0.49557310101512864 0.9067548411772086
1480993 0.48166174379022925 0.8896620479665872
1483386 0.5040730985517672 0.9145199974059398
1485779 0.5194000686061084 0.898863685790414
1488172 0.5190886029849588 0.9111832085115391
1490565 0.5202001930621383 0.8880210868778713
1492958 0.5065994049246658 0.8934625207765409
1495351 0.5061398076060966 0.8949726143903646
1497744 0.5038158803289636 0.8752650946825683
1500137 0.5479484935225705 0.8783325877196294
1502530 0.5287235320204171 0.8823636267376457
1504923 0.4921521414623324 0.8882101958538441
1507316 0.5061417677237219 0.8784932586146752
1509709 0.5349418710222615 0.8936398151533517
1512102 0.5117552363768952 0.8919526458125515
1514495 0.5237415295601064 0.8795638284790284
1516888 0.5109089372051115 0.8689444074054605
1519281 0.5310188942388453 0.885994885108993
1521674 0.517652386616467 0.8964799314499883
1524067 0.5568622550481186 0.8911780478785601
1526460 0.5022805183750032 0.9112428277030516
1528853 0.525862674279373 0.889822850666108
1531246 0.5178596283736165 0.8860412421445264
1533639 0.5235055491898629 0.8790562450930574
1536032 0.5388249995970127 0.8830219246860773
1538425 0.5227018172986871 0.8618654499201343
1540818 0.512912501523878 0.8776756252523273
1543211 0.5315202550632154 0.8789558739564918
1545604 0.5416328257746333 0.8887175950972908
1547997 0.5520723805636121 0.8873656791772763
1550390 0.5298602561257747 0.9124851413012743
1552783 0.5507667149513326 0.8869029759741331
1555176 0.5329734630965017 0.8762566797917917
1557569 0.5460318968524732 0.8903747227508295
1559962 0.5117426649571561 0.875689865264451
1562355 0.5272510905125082 0.8795611658127436
1564748 0.5396618474974276 0.8604625681829959
1567141 0.5402031545558809 0.8652654074062597
1569534 0.5450240940455412 0.8859626417712338
1571927 0.5578249811583461 0.8695803197536939
1574320 0.5417531422143912 0.8947649844026098
1576713 0.5431783428341399 0.8637229374668518
1579106 0.5504603408716239 0.8592480156815973
1581499 0.5616490953913567 0.8779098034784611
1583892 0.5462461706044663 0.8574200781165922
1586285 0.5406207880018707 0.872347812356708
1588678 0.5492609059372556 0.861681439061263
1591071 0.5458243403117005 0.8480369530528299
1593464 0.5578309728962864 0.8700997124312083
1595857 0.5472602971115671 0.8660029738931723
1598250 0.5510361410161105 0.8739894855152359
1600643 0.5487877799181716 0.8670720283687734
1603036 0.5643409913588261 0.8532193997451311
1605429 0.5633119331951679 0.8791329145392638
1607822 0.5801739295906886 0.8599979682999703
1610215 0.5560372490384285 0.8586340564324741
1612608 0.5509568581038887 0.8617282966366051
1615001 0.559772694580769 0.8640528992331572
1617394 0.5758686623122429 0.8956874262116614
1619787 0.5633631553981682 0.8593734474429903
1622180 0.5784740083700156 0.8528963070966487
1624573 0.5694501489284212 0.8520673781545599
1626966 0.5585895832603005 0.8655970094657125
1629359 0.591472157420237 0.838754160884645
1631752 0.574932601601853 0.8460421664124806
1634145 0.5839048063655572 0.8388018174494402
1636538 0.5699741120171513 0.8579766783896778
1638931 0.5713979567724051 0.8517805526592901
1641324 0.5786545416496235 0.8466021634644856
1643717 0.5783050886348555 0.8731786797527652
1646110 0.5838505083041431 0.8426592122917982
1648503 0.5866087152143972 0.8426854078250168
1650896 0.5755396802137963 0.8436918600722072
1653289 0.5824986405279244 0.857409901619617
1655682 0.5832250194827017 0.8482554860707441
1658075 0.5845530182075764 0.8398783312833394
1660468 0.5780055321713715 0.8540013813774797
1662861 0.5731971758658481 0.8511995363258241
1665254 0.5920204935420134 0.8366356395565889
1667647 0.5887113816049063 0.8630587278204576
1670040 0.6008922814605321 0.8559051466779412
1672433 0.6054123069135294 0.849315972681876
1674826 0.6098791820782781 0.841533113783414
1677219 0.5945679834665992 0.8324880297132314
1679612 0.5784978089680631 0.8321176448278074
1682005 0.5946979212067163 0.8298404115898323
1684398 0.5949655081666723 0.8382808530209763
1686791 0.6004624884073587 0.8393426855520612
1689184 0.6137840477885572 0.8376724026664026
1691577 0.5920954251601852 0.844737688196877
1693970 0.5976328903368677 0.8395760713371494
1696363 0.6099493125875156 0.8510522130045743
1698756 0.6034786977691627 0.8254201154856604
1701149 0.6050749801844818 0.8190358899590027
1703542 0.6029329378357121 0.832051604678023
1705935 0.6038911644304309 0.8329639952853225
1708328 0.5970858125231318 0.8259939711025179
1710721 0.6027978191241908 0.8375108423685327
1713114 0.6120642481264822 0.8237819493745698
1715507 0.6234405476619688 0.8105122733620519
1717900 0.6149684195724298 0.8162122035663832
1720293 0.6158980284033275 0.8502097637628874
1722686 0.6099405422342881 0.8131831332344235
1725079 0.6156079254603485 0.8234737346780923
1727472 0.6066659038805566 0.8191288728426552
1729865 0.6136939341092821 0.834285825826447
1732258 0.6035128579547795 0.8344593433904323
1734651 0.6170143753091968 0.8202491744025798
1737044 0.6150120625857661 0.8396915680562161
1739437 0.6197286008104426 0.8167796709600347
1741830 0.6240321818170739 0.828142107618671
1744223 0.5998656989390124 0.8174089909446964
1746616 0.6043263042668087 0.8122221687820579
1749009 0.6153699061336005 0.8217278103585689
1751402 0.6337240922199899 0.8086743014073425
1753795 0.6266346880536551 0.8235139917476967
1756188 0.633723241742562 0.8200180762610488
1758581 0.6317149554628266 0.8102093932663545
1760974 0.6232841728569787 0.8075493833105735
1763367 0.6243364994354881 0.8096737399022295
1765760 0.6312951643771098 0.8098135432283661
1768153 0.6251887025976085 0.8072473591432522
1770546 0.6198123824483317 0.815926562678679
1772939 0.6356245314730942 0.8349484658641175
1775332 0.6395474241915284 0.8101468978604862
1777725 0.6279882922920513 0.8096203438914643
1780118 0.6289218807811596 0.8132402209728995
1782511 0.5954156265519969 0.8066965094075751
1784904 0.6354335470914698 0.7969194399655043
1787297 0.6068696646732827 0.7957840478489834
1789690 0.6200941912855639 0.7993246432847252
1792083 0.6396116600668276 0.8008347170420894
1794476 0.642086052304099 0.8163412766033552
1796869 0.6360793341756289 0.8047273901579443
1799262 0.6510921952110716 0.8181332368983616
1801655 0.6449850382920131 0.8002540615798718
1804048 0.6486516842078676 0.8085703770820443
1806441 0.6407961403429452 0.7987270496826263
1808834 0.6392519882985845 0.8075133126820545
1811227 0.6582973202450679 0.7977602430663507
1813620 0.6337697223118596 0.790822974250526
1816013 0.6418388407059178 0.8157803389634928
1818406 0.6520525611473628 0.8093806888956862
1820799 0.6482118910515879 0.8070833427370672
1823192 0.6463443963274993 0.8122430683807527
1825585 0.6508099067566646 0.7839859204606545
1827978 0.6479366559856778 0.7905991315139145
1830371 0.6481722402570071 0.7908225010381406
1832764 0.6591923937085651 0.7971712309137948
1835157 0.6511160881025749 0.8011417323118935
1837550 0.6560498472199365 0.7962550775299597
1839943 0.6578286193582816 0.8067522092285649
1842336 0.6649551548252525 0.7986947005743296
1844729 0.6601818239541536 0.7840827791559559
1847122 0.6627668086233879 0.7840504051779986
1849515 0.6357040923012126 0.7866163980896826
1851908 0.6475598626409637 0.7828436025438148
1854301 0.6613324612765658 0.7790358034151695
1856694 0.6581203765139602 0.8000122102603034
1859087 0.6553794647620655 0.7943620671751794
1861480 0.6522821249977517 0.7865353591302036
1863873 0.6648172374696985 0.7959872957055403
1866266 0.6573995795596653 0.7730984035023452
1868659 0.6564141632752758 0.7855051681104419
1871052 0.6674477908168291 0.7884982109838731
1873445 0.6485207217646742 0.7793793019738577
1875838 0.6736934684477097 0.7814293754666181
1878231 0.6382002657521026 0.785855146835771
1880624 0.6633150550704903 0.7785973197655989
1883017 0.6683692886025463 0.7924290771077528
1885410 0.6778527312856284 0.7878679031247946
1887803 0.667352645278919 0.7526113715805922
1890196 0.6952680410960069 0.778726678057436
1892589 0.6829344343364622 0.7695099623069991
1894982 0.6648161813626456 0.7799524561233204
1897375 0.6665684332887033 0.7664579946706137
1899768 0.6825620735207173 0.7956018852498303
1902161 0.6727676262228317 0.7809385451545529
1904554 0.7118647003537885 0.7775887260051755
1906947 0.6760731632081338 0.7814545439551607
1909340 0.6789998494090871 0.764507529670806
1911733 0.6695871447487834 0.7721337139288434
1914126 0.6738433875081681 0.7835545929997599
1916519 0.6728276121451099 0.7653107292791906
1918912 0.6655688264278171 0.7637914231819516
1921305 0.6773755915265061 0.7729254424698232
1923698 0.6832203703675304 0.778272719001587
1926091 0.683264063064908 0.7758911852873525
1928484 0.6715646646917875 0.7628489771696322
1930877 0.6842581890977015 0.7657404200080334
1933270 0.6731324586576323 0.7526576852557647
1935663 0.682931880557956 0.7770362477787055
1938056 0.6881515803920767 0.7722519663402486
1940449 0.6836549851776941 0.7780108426056259
1942842 0.6749869071109657 0.7506695083641248
1945235 0.7047658204117315 0.7565895461728394
1947628 0.6858724638068933 0.7845523558215627
1950021 0.7146328459890741 0.8453391105284969
1952414 0.7046484664467529 0.7640656625095065
1954807 0.6816166309389812 0.8038284286472146
1957200 0.6774831313789246 0.759535381343302
1959593 0.6111460268123222 0.6901329819509254
1961986 0.6959096641276085 0.753961733034116
1964379 0.6883211389291147 0.7841199032827709
1966772 0.6907929816145613 0.759114666558353
1969165 0.7066295628809893 0.7534443217517228
1971558 0.6959479271528836 0.7481495794420223
1973951 0.7018798843836334 0.7483592407367027
1976344 0.6744372844740308 0.7513576484511026
1978737 0.7008991733687651 0.7546724627152922
1981130 0.6983580778601476 0.7587342772821951
1983523 0.704587930855681 0.7604001787440574
1985916 0.7302532645526091 0.7532547617814433
1988309 0.703268522106212 0.7574628510163454
1990702 0.6894272888235383 0.753969434594346
1993095 0.7037144863203485 0.7407940490263651
1995488 0.7180987191459395 0.7569519238298966
1997881 0.7046369469708006 0.7617870720885077
2000274 0.6853762022096365 0.751593145743784
2002667 0.7201588032897186 0.7450401303605596
2005060 0.705047736633854 0.7597881898090307
2007453 0.7014912909681695 0.7442863035309282
2009846 0.6988521612849938 0.7565955906205939
2012239 0.6977424382805181 0.7458455135447258
