# HZ S RI R 50
1000000 0.36489500855126195 0.7667456188115106
1004346 0.043113472967644145 1.043971127590186
1008692 0.1720009597274656 0.9950227717653795
1013038 0.1435835430507792 1.0463645973851994
1017384 0.13464401222787176 1.01720281118534
1021730 0.17530836415330048 1.0552864905344095
1026076 0.16773063417340947 1.0144844924679537
1030422 0.209390169730955 0.9762443077351112
1034768 0.17135325121619965 1.009741402845924
1039114 0.15682869204902675 1.0041792923453148
1043460 0.15348456430367172 1.0075625858720383
1047806 0.1838986005139938 1.024567804132996
1052152 0.1831872940765286 1.0303535378136983
1056498 0.17715586755402107 1.015052743617266
1060844 0.15731627044184127 1.0136302841799512
1065190 0.18285269332081266 1.0104376582050267
1069536 0.16047467899105952 1.041762353165222
1073882 0.19556727458032416 1.0211004206298397
1078228 0.18972819000049576 1.0106164543992833
1082574 0.20023902760473414 1.0335143382741891
1086920 0.21394622554038362 1.0009053614677828
1091266 0.26416714826034765 0.9997813820237779
1095612 0.19019200488014135 0.9855025725161173
1099958 0.2955787729320278 1.23887742219196
1104304 0.22342024711476324 1.006086425920245
1108650 0.19333531017122618 1.0133222481635868
1112996 0.2418332290960532 1.002705704706088
1117342 0.2398857403983733 0.9873727080697682
1121688 0.23237576023856793 1.0062531870766274
1126034 0.22983763400331064 1.00599151757461
1130380 0.28356572511992206 1.0147123462839556
1134726 0.25760565664631513 0.9987877647548343
1139072 0.24456044685808262 1.003362829646238
1143418 0.26687804812006527 0.9986179147897986
1147764 0.27476603665575705 0.9922192708775809
1152110 0.27258799806301215 0.9851437173511198
1156456 0.2727452624787638 0.990308228018721
1160802 0.2592318069644561 0.9832998794543143
1165148 0.25781246952068937 0.9948009124773429
1169494 0.24805636574524637 0.9720335154293986
1173840 0.28873781977337026 0.9941347232427153
1178186 0.2745532379102338 1.0044765453735762
1182532 0.2858385278245976 1.0059776798919302
1186878 0.29496143633697713 0.9852058618146862
1191224 0.30696123349795384 0.9832007224513376
1195570 0.2798183950543596 1.001309522115668
1199916 0.348862763589725 0.9672780266312248
1204262 0.30123314611104335 0.9750260010374464
1208608 0.3280835127038525 0.9892221713868034
1212954 0.3106537437278968 0.9812952990640835
1217300 0.31332120388513196 0.9841426776131044
1221646 0.32049164111130557 0.9554898702514002
1225992 0.3153069885232102 0.9616089813429674
1230338 0.33081164169463234 0.9965191275194002
1234684 0.312553590213308 0.9845884926532282
1239030 0.3343327955378094 0.9716979141692266
1243376 0.3377790135167419 0.9691485027003217
1247722 0.339671766280757 0.9709140226755646
1252068 0.34150970839518613 0.9841271802843858
1256414 0.3396129994408622 0.9732253209310757
1260760 0.35530913334430514 0.9991854002092216
1265106 0.35692467260056104 0.9583231751072083
1269452 0.3787136781952039 0.987684809386045
1273798 0.3776411665132727 0.9633615732078132
1278144 0.3587236471650328 0.9983061175621877
1282490 0.3531142652069779 0.971555313520065
1286836 0.3788064669819791 0.9498470196920518
1291182 0.37521090105378185 0.9659305262839958
1295528 0.37190808428515293 0.9473618133591563
1299874 0.46642391921743015 0.8824002597100414
1304220 0.38120719511071266 0.9469844218741571
1308566 0.40336807376979866 0.926100319257725
1312912 0.4066353315974165 0.9465253899620093
1317258 0.38047013983328587 0.9635414986847112
1321604 0.3852158612587921 0.9684903601462064
1325950 0.40391227200128893 0.955456397075925
1330296 0.5528385259268802 1.0417997157641319
1334642 0.40598075587248234 0.9388128302846104
1338988 0.4015868285163785 0.9532501517241557
1343334 0.4254998458082969 0.9231049702250194
1347680 0.44333959369242315 0.9179674879534175
1352026 0.4353011270537188 0.9490569502354345
1356372 0.40533875750930953 0.9404277484898994
1360718 0.4406389416732296 0.9966077576914767
1365064 0.43087232116798874 0.9304686351188238
1369410 0.42435391233850556 0.8773904863510537
1373756 0.44849098422713446 0.9305401865174697
1378102 0.4188484222626349 0.9520218582446105
1382448 0.41624527539282147 0.9362009940336712
1386794 0.4415568651258537 0.9502893723499352
1391140 0.4251258830202771 0.9233274593462404
1395486 0.4452033114587227 0.9151294346227514
1399832 0.3813921116995197 0.9381342725371123
1404178 0.4440270951962872 0.9208091465211633
1408524 0.4213070678116311 0.9326322429921862
1412870 0.4633045343253405 0.9343536992510579
1417216 0.4466421096899534 0.9147277010631999
1421562 0.45975922387213974 0.9319544583732857
1425908 0.4835781004179289 0.9033733180622523
1430254 0.4335534215246765 0.9034996121187447
1434600 0.45326132671596453 0.9323660200077414
1438946 0.4542838043306098 0.8942257503173582
1443292 0.4772032493117128 0.9384695047906022
1447638 0.4582544868792901 0.91089148360065
1451984 0.47653388958406395 0.9043714647938768
1456330 0.4938922931469896 0.9121157218921326
1460676 0.4973022563492992 0.9003564137286552
1465022 0.4709209854776578 0.9037592086388816
1469368 0.47728926744990013 0.8840767377784147
1473714 0.48364263700810417 0.8992445611425722
1478060 0.4910226131036439 0.9006790027716582
1482406 0.4905073760632784 0.9117839225759852
1486752 0.4957137892465008 0.8990711724848043
1491098 0.4854471761278806 0.9211913190670515
1495444 0.512789333467506 0.9000011474403132
1499790 0.5597549799676286 0.8142328462184676
1504136 0.5098994563414714 0.8910519872248761
1508482 0.5055302541849385 0.9272237564318954
1512828 0.4861950099318773 0.8937103964285934
1517174 0.5049774498687714 0.9021998228633075
1521520 0.4753466575464962 0.8833363931595698
1525866 0.5237371294911565 0.9006504949815423
1530212 0.5101425651403776 0.9442213649217865
1534558 0.5242569066531556 0.8900898650612734
1538904 0.5182291235805396 0.8957332393023357
1543250 0.4990252947842897 0.8777881170168756
1547596 0.5119943018496607 0.8904287185553239
1551942 0.5181023519293818 0.8852929204423161
1556288 0.5239623080796 0.8885073917033316
1560634 0.49760339528931086 0.8864088787695352
1564980 0.5502655689616882 0.8751916265882157
1569326 0.550429669830426 0.8414296256726748
1573672 0.5196668347309348 0.8831534665852934
1578018 0.5397821835541089 0.8617247108660093
1582364 0.5226574426733468 0.8688978397406681
1586710 0.5465967839582859 0.8839270399174957
1591056 0.5469578725727373 0.872165844814888
1595402 0.5057345031365901 0.8713184304257026
1599748 0.5317658950708013 0.8876108118187339
1604094 0.5660168193393068 0.8645582705377663
1608440 0.5567494699946162 0.854221814544281
1612786 0.5664078934576807 0.850300795579828
1617132 0.5506653821695937 0.8553845470831201
1621478 0.5482548710030298 0.8559182356045771
1625824 0.5589663851518787 0.8638727861946444
1630170 0.5323297440135264 0.8777293922321842
1634516 0.5718129112588834 0.867725331563257
1638862 0.5751547803928011 0.865430207025518
1643208 0.566776433503328 0.8479307543936591
1647554 0.5981017228295264 0.8398238190124564
1651900 0.5873374543268967 0.8467625832644666
1656246 0.573357298154027 0.8543419362865051
1660592 0.5933481859344364 0.8385841128255803
1664938 0.586611392501078 0.8607076133604983
1669284 0.5558971256809125 0.8393147209026844
1673630 0.597834645871277 0.8387266248940975
1677976 0.5987879783023091 0.8477162485837353
1682322 0.5875335747803921 0.8401737340633869
1686668 0.5865011091969974 0.8342182775676029
1691014 0.5933399402157787 0.8415687441576829
1695360 0.5919076417628027 0.8374706989772681
1699706 0.5832163431236973 0.8264411116489203
1704052 0.5959324353666058 0.8301098176147055
1708398 0.6026037774358327 0.8323801542591348
1712744 0.6141206933453789 0.8349843894233788
1717090 0.5969110236005298 0.8291019275787647
1721436 0.6073943497343303 0.8257903465911199
1725782 0.5946201192709814 0.8307364903761449
1730128 0.5970613023669101 0.8322349137677167
1734474 0.6120967743302816 0.8286610673344501
1738820 0.6056254014510916 0.8333500677130145
1743166 0.601739360228173 0.834013019090941
1747512 0.6139243813168207 0.8309725168929516
1751858 0.6207250733642568 0.784212360527738
1756204 0.6224982269360805 0.8276533126963173
1760550 0.6255894056694365 0.8159218010193671
1764896 0.627188154127875 0.8143712618563451
1769242 0.6190401764931681 0.8230136520472219
1773588 0.6221510618452386 0.8198474584452966
1777934 0.6205476351246805 0.8030621896580945
1782280 0.6206566664939464 0.8124574612214438
1786626 0.6201101839992061 0.7882414462656284
1790972 0.5935120396323397 0.8573747152343919
1795318 0.6223531356988568 0.7817294099245665
1799664 0.6397009430989133 0.8213924358399761
1804010 0.6364560927013643 0.7940442920452946
1808356 0.6307350260184194 0.7956044376139371
1812702 0.6459155896131108 0.8249954251989435
1817048 0.6485828741168754 0.8221239654715199
1821394 0.6254448261578617 0.8168052018871355
1825740 0.6505321935144441 0.810157927700452
1830086 0.6334827929613565 0.8099332788234647
1834432 0.6396063208105208 0.7871001093745481
1838778 0.6329379004324731 0.8148341037542008
1843124 0.6489439592700165 0.7878116192876208
1847470 0.6412118029062525 0.777433843897317
1851816 0.6488483881853403 0.7824135089901396
1856162 0.6581884835199157 0.8067208410028734
1860508 0.6479510885951406 0.8121169880904874
1864854 0.6447658050301762 0.787303469904537
1869200 0.64527735764027 0.7843981273990599
1873546 0.661701263495036 0.7925088793556372
1877892 0.673515920531056 0.7691941346909345
1882238 0.6407499326952298 0.7781820698257236
1886584 0.6685216966697279 0.7795720601371194
1890930 0.650589139709718 0.7735918090836473
1895276 0.6623531286095706 0.7670026918704443
1899622 0.6678542606777991 0.7956847046123113
1903968 0.6715332385691961 0.7735915141964806
1908314 0.6814525209831896 0.7759756515281202
1912660 0.6533397542164471 0.7894885352423899
1917006 0.6755093943025717 0.7742288546980768
1921352 0.6693457007100875 0.7704958102997156
1925698 0.6876905897517847 0.7783916629143597
1930044 0.6374593147927387 0.7949863757540018
1934390 0.6810928498001164 0.7692159110583217
1938736 0.6771718209900661 0.7728695444190484
1943082 0.687412262303535 0.7770684548171898
1947428 0.6811860547849499 0.773614098414763
1951774 0.6876813802313785 0.7654877885030823
1956120 0.6713443921627497 0.7653927793060297
1960466 0.6843176690174725 0.7611482342439995
1964812 0.683969257726423 0.7647067620254614
1969158 0.6968453800092214 0.7747117229406578
1973504 0.7015378676728964 0.7557547473241852
1977850 0.6956433113035349 0.7597994155284727
1982196 0.6880398407763583 0.7536518068600836
1986542 0.6973609637841275 0.7678624499164226
1990888 0.7065247908590074 0.7520018990838604
1995234 0.6937015974163613 0.7653502148895448
1999580 0.701950284413874 0.7325428679491887
2003926 0.6955368521123181 0.7634960795109862
2008272 0.6931551781459782 0.7450500349838575
2012618 0.69677426003437 0.764861203220214
2016964 0.6864401968181038 0.7552999864929079
2021310 0.708300830799395 0.756119528095682
2025656 0.7046189124134401 0.7523371137963489
2030002 0.7058327987423332 0.7378440939528779
2034348 0.7098785179359804 0.7544532819379901
2038694 0.7069256215935207 0.7484811492871326
2043040 0.7024909008179667 0.7379421382892059
2047386 0.6981891569004212 0.730156484743664
2051732 0.7111051523033566 0.7366045849594242
2056078 0.711165765413845 0.7401644147154268
2060424 0.7118265211798186 0.730099249165662
2064770 0.6820776137350503 0.7402933056210697
2069116 0.7060822913839351 0.7349511077971242
2073462 0.7121463992331761 0.7340003180807204
2077808 0.7030857890662504 0.7477895079983914
2082154 0.7235073154065726 0.7424842034262351
2086500 0.709826636591592 0.7433615907156094
2090846 0.729972077483912 0.7329919156981323
2095192 0.7195717753214302 0.7085492206219764
2099538 0.7283828774031883 0.7244194353842868
2103884 0.7330526684545363 0.7296903820861167
2108230 0.733890688430033 0.7208496057412185
2112576 0.7306913896369521 0.7316544385266792
2116922 0.7296844471169518 0.712235764007801
2121268 0.7282649224692678 0.7122319107518343
2125614 0.736549304077125 0.7227693404474897
2129960 0.7368133918959032 0.7168630648993344
2134306 0.7436662422829886 0.7131581927154221
2138652 0.7333559499754112 0.7058360953172884
2142998 0.7279773832657858 0.7198403307779859
2147344 0.7092991670957394 0.7417752127274054
2151690 0.7322095271362842 0.7134563123920543
2156036 0.7480728266754871 0.7231302390675763
2160382 0.7134347523768495 0.7158588450667789
2164728 0.7305252179305329 0.7103594445543285
2169074 0.7395838010375209 0.7080639122882021
2173420 0.7276358399627864 0.7149361302166876
2177766 0.754677407255683 0.6902241663182727
2182112 0.7408201372360075 0.6921293234735608
2186458 0.7570301449824383 0.7227321426195004
2190804 0.7370939236762265 0.6929259526288464
2195150 0.7425056322106484 0.7050089172969172
2199496 0.7366711597704518 0.6943492821532621
2203842 0.731553291349425 0.7012063900505602
2208188 0.7462209822375807 0.6833995152595581
2212534 0.7469354263836959 0.6985618756337958
2216880 0.7515381828187702 0.7032136466519713
2221226 0.7339200792892113 0.6989559534161845
2225572 0.7597534603124385 0.6560866086659564
2229918 0.7414625169760738 0.7468536629753144
2234264 0.7635921530450268 0.7058103035604698
2238610 0.7224756094362363 0.6961863833956409
2242956 0.7551066476015221 0.6755913678117741
2247302 0.762525638515895 0.6931597164200372
2251648 0.7683320641458581 0.6865744046228445
2255994 0.761246533052674 0.6930390299255331
2260340 0.7523247814267607 0.682962897940098
2264686 0.7629901269749554 0.690906755207916
2269032 0.7689249568778801 0.693549592884747
2273378 0.7690007217118642 0.6890381279980743
2277724 0.7642720421026895 0.6780125198727309
2282070 0.7731932743862183 0.6868755446815659
2286416 0.7550000775152406 0.6822557929533356
2290762 0.7760212481195071 0.6855365468024465
2295108 0.758502046436936 0.6835299974041809
2299454 0.7642858434817137 0.676021699910246
2303800 0.7718029034916996 0.6764852997305468
2308146 0.7753416874593756 0.6692056404908991
2312492 0.769045046696577 0.6930566480430852
2316838 0.7681422550899276 0.6668086147352589
2321184 0.7789909753442171 0.6790317150843287
2325530 0.7849544036102727 0.6856272766329413
2329876 0.7666281138148394 0.6847334091041315
2334222 0.7633137772176054 0.6613065361143731
2338568 0.8095806162581596 0.674709426592606
2342914 0.7982552835391618 0.689467704050317
2347260 0.7725672355863891 0.6668985918962452
2351606 0.774987882005281 0.6649510921959054
2355952 0.7725502030442036 0.6786368038233327
2360298 0.8046353114923056 0.6816881636995008
2364644 0.7647705998720404 0.6917839346259631
2368990 0.7731539604366446 0.6613375848626571
2373336 0.8087834638820007 0.6323340011742579
2377682 0.7893146421672004 0.6649176596532819
2382028 0.7678613621751995 0.6512336306644226
2386374 0.7921554738684522 0.6731183711442584
2390720 0.7840256494138051 0.6492385745130148
2395066 0.7821387265092189 0.6633471385851099
2399412 0.7776106277325652 0.6723776003468683
2403758 0.7839958932505661 0.665588044924095
2408104 0.781184643086213 0.6520862559899011
2412450 0.7946571229099076 0.6666262094701563
2416796 0.7892416388790476 0.6586372459734313
2421142 0.7761238118794103 0.6590582499687235
2425488 0.7827311354745158 0.6603610039770278
2429834 0.7857645934984395 0.6479337985334093
2434180 0.7867005286319295 0.6415788913191309
2438526 0.7905997725427932 0.6516243560007248
2442872 0.7937106477032217 0.6454122615393482
2447218 0.8005492411740274 0.6365621353701814
2451564 0.7775367040732255 0.6540588056300984
2455910 0.780423683627691 0.6478439664740705
2460256 0.8023661262317897 0.6626860484788429
2464602 0.7966474274469323 0.6446320322389543
2468948 0.7838856569238857 0.633237520934104
2473294 0.8074821019861059 0.6465811979981935
2477640 0.7969851211812038 0.6482382139876581
2481986 0.8083528542145085 0.6427306912261662
2486332 0.7940102204110366 0.6410367160042202
2490678 0.7822681271150905 0.6489654779024806
2495024 0.8094375952622612 0.6243345572838154
2499370 0.7946045610914745 0.6431032093401889
2503716 0.8209187173114574 0.6486824188530229
2508062 0.8070494642380865 0.6343199883081655
2512408 0.7889604618778562 0.638166065089068
2516754 0.8174674530132442 0.6258897853117719
2521100 0.7980094818085323 0.6287444487759485
2525446 0.8024987830649486 0.6464106565893933
2529792 0.8100266170140866 0.6392277126701604
2534138 0.7969792820830164 0.6449243305468516
2538484 0.8089933295699603 0.6237847363307832
2542830 0.8179514781614748 0.639246914520418
2547176 0.8257377615916099 0.6225684673536304
2551522 0.8074243923612402 0.6284680799365989
2555868 0.8035405986072265 0.6332956543663022
2560214 0.8111555768855881 0.6327197384904151
2564560 0.8172413952865564 0.6192170042932276
2568906 0.7575145441392409 0.6389804868934608
2573252 0.8135014867122099 0.6323711966402804
2577598 0.828443937892385 0.62581856116317
2581944 0.8136875519305782 0.6143459966257454
2586290 0.8093852146704611 0.6300159519834209
2590636 0.825525569525136 0.6256955415811369
2594982 0.8098020428897392 0.62249969804325
2599328 0.8161920196137964 0.6171302945495628
2603674 0.815171092780147 0.6205224507105935
2608020 0.8302516694704342 0.6143327245254092
2612366 0.827500486901339 0.6188036624538171
2616712 0.8162841414411885 0.6089530414675323
2621058 0.819439134515815 0.6206898667516932
2625404 0.8274832281979895 0.6165392109717077
2629750 0.8083594464883329 0.6387746179798834
2634096 0.8365700222488491 0.6168332969544319
2638442 0.8271339975892018 0.6197463374826971
2642788 0.8145423560706035 0.6215084681302767
2647134 0.8518480570267202 0.6117249761473534
2651480 0.802498152003089 0.627947118928446
2655826 0.8285489432603654 0.6071099643405615
2660172 0.8206837396631702 0.6281801257012141
2664518 0.8260979995070824 0.5940379434622004
2668864 0.8348564685115438 0.6140825238163875
2673210 0.8268547914717227 0.6073146843424009
2677556 0.8217786426931825 0.6146125832371678
2681902 0.8290964281962544 0.596940710866735
2686248 0.8307288282068127 0.6113245741287108
2690594 0.8211600265194257 0.5913002950666711
2694940 0.8353624598154509 0.600001408876966
2699286 0.8472755170744602 0.5931656850918688
2703632 0.8124728789799192 0.6047770437875953
2707978 0.8276251251866222 0.5912948746846338
2712324 0.8429354558251928 0.5839231445612977
2716670 0.8467901057102122 0.6067539932313452
2721016 0.8406471574836515 0.5999608960404593
2725362 0.8349459580111608 0.6208368510172061
2729708 0.8521368823178961 0.5787809729449226
2734054 0.8297205734831263 0.5977211642166407
2738400 0.8333413243551606 0.6037123699163589
2742746 0.8391031022187561 0.601042526287699
2747092 0.8376859670294863 0.5866663761446415
2751438 0.8345401624027928 0.5997702340034258
2755784 0.8326977592925431 0.6224229791138794
2760130 0.8067818786595063 0.5504677251935246
2764476 0.8378005123234309 0.6087369455582341
2768822 0.8573980048237481 0.5872767823157592
2773168 0.836194759853909 0.5983964468465275
2777514 0.8199782448294486 0.580083038387748
2781860 0.8395586599292337 0.5810443973097128
2786206 0.8492856518831339 0.5984303592252997
2790552 0.8595479425266302 0.568397539841922
2794898 0.8371317287438481 0.5684969578822181
2799244 0.8306441092053325 0.5857756494413501
2803590 0.8464554019244709 0.5833843453256325
2807936 0.8314255614258964 0.5828887387105222
2812282 0.8410884804924046 0.5716182384870933
2816628 0.850501657325615 0.5752960733247324
2820974 0.8439032634440253 0.5904572804255894
2825320 0.8508561261648027 0.5697870194993099
2829666 0.8297525737682769 0.58696485792003
2834012 0.8513982027977731 0.5708088302758402
2838358 0.8312819473695989 0.5862004080428623
2842704 0.8648320371738695 0.5711328702638101
2847050 0.8738556768800319 0.5704122510559301
