# HZ S RI R 50
1000000 0.36489500855126195 0.7667456188115106 -0.0028666723473884776 0.00688456373484783 0 0 0 0
1004346 0.043113472967644145 1.043971127590186 0.011276892160959612 0.007654941092985526 0 0 0 0
1008692 0.1720009597274656 0.9950227717653795 0.0040855756987424495 -0.00816484654674718 0 0 0 0
1013038 0.1435835430507792 1.0463645973851994 0.005191300523575814 -0.0016097941845421614 0 0 0 0
1017384 0.13464401222787176 1.01720281118534 0.006893408777795136 0.0015408479622113218 0 0 0 0
1021730 0.17530836415330048 1.0552864905344095 -0.0042900829966891745 -0.0008228532415577729 0 0 0 0
1026076 0.16773063417340947 1.0144844924679537 0.004534070171213878 0.010694210588826664 0 0 0 0
1030422 0.209390169730955 0.9762443077351112 0.00099184990080546 -0.006605468156305632 0 0 0 0
1034768 0.17135325121619965 1.009741402845924 -0.005032210586137757 -0.005477992616561709 0 0 0 0
1039114 0.15682869204902675 1.0041792923453148 0.0026190650207368643 -0.005090002447304304 0 0 0 0
1043460 0.15348456430367172 1.0075625858720383 -0.006870029491539406 0.0008495232217356537 0 0 0 0
1047806 0.1838986005139938 1.024567804132996 -0.0009610418413377752 0.007077366045287556 0 0 0 0
1052152 0.1831872940765286 1.0303535378136983 -0.0012497678674822238 -0.003992131425329709 0 0 0 0
1056498 0.17715586755402107 1.015052743617266 -0.002672985616083683 0.0057192529781821926 0 0 0 0
1060844 0.15731627044184127 1.0136302841799512 -0.0010161011465969665 -0.0033909018620011766 0 0 0 0
1065190 0.18285269332081266 1.0104376582050267 -0.007819541607613594 -0.003408619881666203 0 0 0 0
1069536 0.16047467899105952 1.041762353165222 -0.002977328001953488 -0.0007362960014980879 0 0 0 0
1073882 0.19556727458032416 1.0211004206298397 -0.003429268994848669 0.004715623968977294 0 0 0 0
1078228 0.18972819000049576 1.0106164543992833 0.0027670853298787973 -0.001974087571927609 0 0 0 0
1082574 0.20023902760473414 1.0335143382741891 -0.0013936777146535612 -0.004342487432316379 0 0 0 0
1086920 0.21394622554038362 1.0009053614677828 0.0006508099360472859 -0.0016928575167733054 0 0 0 0
1091266 0.26416714826034765 0.9997813820237779 -0.0003364243465342227 0.002159290444684102 0 0 0 0
1095612 0.19019200488014135 0.9855025725161173 -0.00667597592932558 -0.005964581526243094 0 0 0 0
1099958 0.2955787729320278 1.23887742219196 0.00844132722285041 -0.0013576727753893843 0 0 0 0
1104304 0.22342024711476324 1.006086425920245 0.0006041450051903786 0.0008439014137338727 0 0 0 0
1108650 0.19333531017122618 1.0133222481635868 -0.0019519804611695362 0.0015290225237928655 0 0 0 0
1112996 0.2418332290960532 1.002705704706088 0.004815235489222906 -0.0020655389787826678 0 0 0 0
1117342 0.2398857403983733 0.9873727080697682 -0.006432707514552284 -0.0038061223450693697 0 0 0 0
1121688 0.23237576023856793 1.0062531870766274 0.006746581591718981 7.304972385676871e-05 0 0 0 0
1126034 0.22983763400331064 1.00599151757461 -0.0032505951790128785 -0.0002191510500341326 0 0 0 0
1130380 0.28356572511992206 1.0147123462839556 -0.0024904299264438333 0.001061071514595459 0 0 0 0
1134726 0.25760565664631513 0.9987877647548343 0.002328921353006551 0.005358207542119139 0 0 0 0
1139072 0.24456044685808262 1.003362829646238 0.0023717046089702185 -0.004076948664688642 0 0 0 0
1143418 0.26687804812006527 0.9986179147897986 0.00570485525285788 0.0011279207675090957 0 0 0 0
1147764 0.27476603665575705 0.9922192708775809 -0.002861056337026101 -0.0013246947634260222 0 0 0 0
1152110 0.27258799806301215 0.9851437173511198 0.0037686526830039823 -0.0021119255415484434 0 0 0 0
1156456 0.2727452624787638 0.990308228018721 -0.006245029310206808 -0.004589821948078704 0 0 0 0
1160802 0.2592318069644561 0.9832998794543143 0.002674650258040807 0.009918726832274107 0 0 0 0
1165148 0.25781246952068937 0.9948009124773429 0.0021330243501793845 -0.0028296452567709534 0 0 0 0
1169494 0.24805636574524637 0.9720335154293986 0.003567465653133384 0.003711555825220587 0 0 0 0
1173840 0.28873781977337026 0.9941347232427153 0.009751106456020191 -0.006712780048238712 0 0 0 0
1178186 0.2745532379102338 1.0044765453735762 -0.0006678948967789802 0.0012116441896927142 0 0 0 0
1182532 0.2858385278245976 1.0059776798919302 -0.005573282351655117 -0.0009523522525624162 0 0 0 0
1186878 0.29496143633697713 0.9852058618146862 0.004485114981261972 -0.0014951335618450148 0 0 0 0
1191224 0.30696123349795384 0.9832007224513376 -0.002353772321358497 0.001046943301394924 0 0 0 0
1195570 0.2798183950543596 1.001309522115668 -0.0026591524935799036 -0.0009122064823468257 0 0 0 0
1199916 0.348862763589725 0.9672780266312248 0.0006171183333121946 -0.008257610908436989 0 0 0 0
1204262 0.30123314611104335 0.9750260010374464 -0.010218217268863105 0.0028849118480575153 0 0 0 0
1208608 0.3280835127038525 0.9892221713868034 -0.0023930238420667395 -0.006311240328733843 0 0 0 0
1212954 0.3106537437278968 0.9812952990640835 -0.0009888452085354332 0.005250082348176383 0 0 0 0
1217300 0.31332120388513196 0.9841426776131044 -0.0006144977647965917 -0.004100167116597047 0 0 0 0
1221646 0.32049164111130557 0.9554898702514002 -0.004488686292957619 0.0014107747185441348 0 0 0 0
1225992 0.3153069885232102 0.9616089813429674 0.0049494062260539845 -0.005070234336594955 0 0 0 0
1230338 0.33081164169463234 0.9965191275194002 0.0031888917075462526 -0.0017339351188229318 0 0 0 0
1234684 0.312553590213308 0.9845884926532282 0.0022346788954816913 0.004375120810620559 0 0 0 0
1239030 0.3343327955378094 0.9716979141692266 -0.0049325299897879085 -0.0020962116985717956 0 0 0 0
1243376 0.3377790135167419 0.9691485027003217 -0.0066568107129191 0.0070802578351230544 0 0 0 0
1247722 0.339671766280757 0.9709140226755646 0.006863426313428118 -0.0012924235015328697 0 0 0 0
1252068 0.34150970839518613 0.9841271802843858 -7.790478113756858e-06 -0.00013250891904078934 0 0 0 0
1256414 0.3396129994408622 0.9732253209310757 0.004471098955376378 0.007117558552047501 0 0 0 0
1260760 0.35530913334430514 0.9991854002092216 0.006474355254352728 -0.001469386317937015 0 0 0 0
1265106 0.35692467260056104 0.9583231751072083 -0.0032019923412835607 0.0041273062882222905 0 0 0 0
1269452 0.3787136781952039 0.987684809386045 -0.00021803175974770422 0.006076067213960596 0 0 0 0
1273798 0.3776411665132727 0.9633615732078132 0.0009837500276949716 0.0034911700322035047 0 0 0 0
1278144 0.3587236471650328 0.9983061175621877 0.010460156935643068 -0.0029581376723738545 0 0 0 0
1282490 0.3531142652069779 0.971555313520065 -0.005695858683366365 -0.0009942303027181787 0 0 0 0
1286836 0.3788064669819791 0.9498470196920518 -0.001205838861999052 0.0013286144344490949 0 0 0 0
1291182 0.37521090105378185 0.9659305262839958 -0.0050641543342717695 0.002400172722197157 0 0 0 0
1295528 0.37190808428515293 0.9473618133591563 0.00597377869447753 0.003580951308738507 0 0 0 0
1299874 0.46642391921743015 0.8824002597100414 -0.0002611568434957455 -0.0021097239032628503 0 0 0 0
1304220 0.38120719511071266 0.9469844218741571 -0.002831418152900827 0.004918589262240153 0 0 0 0
1308566 0.40336807376979866 0.926100319257725 -0.0027585579352472976 0.0006104029605131771 0 0 0 0
1312912 0.4066353315974165 0.9465253899620093 0.0076415725694558645 -0.0005473466263200281 0 0 0 0
1317258 0.38047013983328587 0.9635414986847112 -0.0030495703478665074 -0.0013284767675435705 0 0 0 0
1321604 0.3852158612587921 0.9684903601462064 -0.002292663013511777 -0.00730379748654741 0 0 0 0
1325950 0.40391227200128893 0.955456397075925 0.001774214446511244 -0.003316320698998726 0 0 0 0
1330296 0.5528385259268802 1.0417997157641319 -0.0032625597520638877 0.001449691561426163 0 0 0 0
1334642 0.40598075587248234 0.9388128302846104 -0.0032635666717063315 0.005920842033716304 0 0 0 0
1338988 0.4015868285163785 0.9532501517241557 0.0010879088181320533 -0.0010316829557700709 0 0 0 0
1343334 0.4254998458082969 0.9231049702250194 0.005407090533524505 0.0035015866344389216 0 0 0 0
1347680 0.44333959369242315 0.9179674879534175 0.0019935999337395618 0.003713265479895782 0 0 0 0
1352026 0.4353011270537188 0.9490569502354345 0.001999706649769538 0.0029263310080159077 0 0 0 0
1356372 0.40533875750930953 0.9404277484898994 0.006261107449799911 0.006803404493719602 0 0 0 0
1360718 0.4406389416732296 0.9966077576914767 -0.00044837225155724714 -0.004134270940892737 0 0 0 0
1365064 0.43087232116798874 0.9304686351188238 0.00010842880036863366 -1.6677443922952627e-05 0 0 0 0
1369410 0.42435391233850556 0.8773904863510537 0.0007269391696344476 -0.0047729583502775464 0 0 0 0
1373756 0.44849098422713446 0.9305401865174697 0.004513654809890425 0.0006505521647971076 0 0 0 0
1378102 0.4188484222626349 0.9520218582446105 -0.001933889728807061 0.00017256369899341042 0 0 0 0
1382448 0.41624527539282147 0.9362009940336712 0.0039019055521850366 0.0045462837314583235 0 0 0 0
1386794 0.4415568651258537 0.9502893723499352 0.0036490481152849897 0.00597065161603615 0 0 0 0
1391140 0.4251258830202771 0.9233274593462404 0.0012628388491228344 0.0024903077799692044 0 0 0 0
1395486 0.4452033114587227 0.9151294346227514 0.0033282034478056134 -0.00032063007623459614 0 0 0 0
1399832 0.3813921116995197 0.9381342725371123 0.0021625980860900565 -0.00020635391119489305 0 0 0 0
1404178 0.4440270951962872 0.9208091465211633 -0.004213527331005335 -0.003295402021110415 0 0 0 0
1408524 0.4213070678116311 0.9326322429921862 0.0032285131855384285 0.000967218742802428 0 0 0 0
1412870 0.4633045343253405 0.9343536992510579 -0.006458771182065735 -0.003076379268996648 0 0 0 0
1417216 0.4466421096899534 0.9147277010631999 0.0008009056404819212 0.006348078346294543 0 0 0 0
1421562 0.45975922387213974 0.9319544583732857 0.0026839876738415204 -0.008190709897921611 0 0 0 0
1425908 0.4835781004179289 0.9033733180622523 -0.006702351967390883 0.002374307094851913 0 0 0 0
1430254 0.4335534215246765 0.9034996121187447 -0.005360054278002846 0.003237652747276463 0 0 0 0
1434600 0.45326132671596453 0.9323660200077414 -0.0005762805801622449 -0.002568124103705218 0 0 0 0
1438946 0.4542838043306098 0.8942257503173582 -0.003001005304744277 0.002524208066836028 0 0 0 0
1443292 0.4772032493117128 0.9384695047906022 -0.001760295973725433 -0.002207146820964823 0 0 0 0
1447638 0.4582544868792901 0.91089148360065 0.006320325731473073 -0.008101918667246535 0 0 0 0
1451984 0.47653388958406395 0.9043714647938768 -0.0007573308753954879 0.0024150129929407325 0 0 0 0
1456330 0.4938922931469896 0.9121157218921326 -0.002772455063045432 0.00036597297078568323 0 0 0 0
1460676 0.4973022563492992 0.9003564137286552 0.007579481988582883 0.0056086941494495335 0 0 0 0
1465022 0.4709209854776578 0.9037592086388816 -0.0034174953437978474 0.004876548260784295 0 0 0 0
1469368 0.47728926744990013 0.8840767377784147 0.003129062064773605 -0.0030117533701012437 0 0 0 0
1473714 0.48364263700810417 0.8992445611425722 -0.004681514015798508 -0.001959260998809853 0 0 0 0
1478060 0.4910226131036439 0.9006790027716582 -0.0029800013813294345 -0.004739489625856429 0 0 0 0
1482406 0.4905073760632784 0.9117839225759852 -0.004351092295517421 -0.009060584297967363 0 0 0 0
1486752 0.4957137892465008 0.8990711724848043 0.0074414956240493515 -0.00868717738432163 0 0 0 0
1491098 0.4854471761278806 0.9211913190670515 -0.0010245416543657535 0.0011048181801309525 0 0 0 0
1495444 0.512789333467506 0.9000011474403132 -0.0045781906963855545 -0.004261726216243124 0 0 0 0
1499790 0.5597549799676286 0.8142328462184676 -0.0059759707068975645 9.571313453117977e-05 0 0 0 0
1504136 0.5098994563414714 0.8910519872248761 -0.0022684312489973575 -0.0025285150896774303 0 0 0 0
1508482 0.5055302541849385 0.9272237564318954 -0.003215393781857753 0.003382026266613145 0 0 0 0
1512828 0.4861950099318773 0.8937103964285934 -0.0007098963395126451 -0.0016581561409958635 0 0 0 0
1517174 0.5049774498687714 0.9021998228633075 -0.0007094642417703351 0.004885963422131352 0 0 0 0
1521520 0.4753466575464962 0.8833363931595698 0.0010378053293134731 0.009602605630639211 0 0 0 0
1525866 0.5237371294911565 0.9006504949815423 -0.004221738398977834 0.007156562851244579 0 0 0 0
1530212 0.5101425651403776 0.9442213649217865 -0.004178235630678523 -0.0006410560402495188 0 0 0 0
1534558 0.5242569066531556 0.8900898650612734 0.01019536266170341 -0.0033892626959568756 0 0 0 0
1538904 0.5182291235805396 0.8957332393023357 0.007303713400092432 -0.0077725448042514165 0 0 0 0
1543250 0.4990252947842897 0.8777881170168756 -0.0026327720637823564 0.0072123547944065855 0 0 0 0
1547596 0.5119943018496607 0.8904287185553239 0.003694676649095632 -0.004619763987683158 0 0 0 0
1551942 0.5181023519293818 0.8852929204423161 -0.002516338320287985 0.0011939524078661038 0 0 0 0
1556288 0.5239623080796 0.8885073917033316 0.001350678733754412 0.0040877531243960945 0 0 0 0
1560634 0.49760339528931086 0.8864088787695352 0.004171269771178591 0.002243063958660717 0 0 0 0
1564980 0.5502655689616882 0.8751916265882157 -0.003258646163825866 0.006932841040466831 0 0 0 0
1569326 0.550429669830426 0.8414296256726748 0.0026050261109240055 0.0011855008723439097 0 0 0 0
1573672 0.5196668347309348 0.8831534665852934 -0.005563738279752902 0.00453230781626032 0 0 0 0
1578018 0.5397821835541089 0.8617247108660093 -0.0009716589233061616 0.007564020660318013 0 0 0 0
1582364 0.5226574426733468 0.8688978397406681 -0.0012085755457611812 -0.008180302975830733 0 0 0 0
1586710 0.5465967839582859 0.8839270399174957 0.001267817592490895 0.010118860100600938 0 0 0 0
1591056 0.5469578725727373 0.872165844814888 0.0010035542467199548 -0.009891519642459518 0 0 0 0
1595402 0.5057345031365901 0.8713184304257026 -0.005011475966726891 -8.420451308570506e-05 0 0 0 0
1599748 0.5317658950708013 0.8876108118187339 -0.00016111622511413411 0.0016763245423733284 0 0 0 0
1604094 0.5660168193393068 0.8645582705377663 0.00238389153850085 0.0015751848263927208 0 0 0 0
1608440 0.5567494699946162 0.854221814544281 -0.0014807726500572988 -0.00527121836644436 0 0 0 0
1612786 0.5664078934576807 0.850300795579828 -0.0015976730189508478 -0.007841100665869155 0 0 0 0
1617132 0.5506653821695937 0.8553845470831201 0.004131212864370746 0.004411450549740813 0 0 0 0
1621478 0.5482548710030298 0.8559182356045771 0.002133065026393132 -0.005853316428770811 0 0 0 0
1625824 0.5589663851518787 0.8638727861946444 0.0074505306990970705 -0.0023815657995289448 0 0 0 0
1630170 0.5323297440135264 0.8777293922321842 -0.0009839202416901257 0.003025938997976947 0 0 0 0
1634516 0.5718129112588834 0.867725331563257 -0.0013692310620507448 -0.002888383632095759 0 0 0 0
1638862 0.5751547803928011 0.865430207025518 -0.00351635024939141 -0.005619235250669578 0 0 0 0
1643208 0.566776433503328 0.8479307543936591 0.0015388372715859383 -0.0036239574090880518 0 0 0 0
1647554 0.5981017228295264 0.8398238190124564 0.003290982035054437 0.0046580923341013715 0 0 0 0
1651900 0.5873374543268967 0.8467625832644666 0.003110267751398674 0.0002980954322646078 0 0 0 0
1656246 0.573357298154027 0.8543419362865051 0.005211965866983631 -0.0007188955826053227 0 0 0 0
1660592 0.5933481859344364 0.8385841128255803 0.009520575999981734 0.007837695443175566 0 0 0 0
1664938 0.586611392501078 0.8607076133604983 0.006283591105963387 -0.008524393735885285 0 0 0 0
1669284 0.5558971256809125 0.8393147209026844 0.0023334705030145647 0.009672920422035833 0 0 0 0
1673630 0.597834645871277 0.8387266248940975 0.0025109177950668584 0.008097771414144462 0 0 0 0
1677976 0.5987879783023091 0.8477162485837353 0.0033431051410882902 -0.0014770654879070692 0 0 0 0
1682322 0.5875335747803921 0.8401737340633869 0.005009876298003364 0.011156258401504731 0 0 0 0
1686668 0.5865011091969974 0.8342182775676029 -0.003813876094842557 -0.0031396190021762255 0 0 0 0
1691014 0.5933399402157787 0.8415687441576829 -0.0008580542914276268 0.004712915141404515 0 0 0 0
1695360 0.5919076417628027 0.8374706989772681 0.007503662484778031 0.0004087292261334799 0 0 0 0
1699706 0.5832163431236973 0.8264411116489203 -0.000996455215535036 0.0021765855239291114 0 0 0 0
1704052 0.5959324353666058 0.8301098176147055 0.0018154649618360207 3.405459837186018e-05 0 0 0 0
1708398 0.6026037774358327 0.8323801542591348 0.0035204694260240316 0.00022604709595385906 0 0 0 0
1712744 0.6141206933453789 0.8349843894233788 -0.002435974317296811 -0.004650960888485158 0 0 0 0
1717090 0.5969110236005298 0.8291019275787647 0.003087839669775009 -0.0004465031976534368 0 0 0 0
1721436 0.6073943497343303 0.8257903465911199 -0.0007116017882363045 -0.0008747081634502666 0 0 0 0
1725782 0.5946201192709814 0.8307364903761449 0.007986880454059559 -0.0032227020834725835 0 0 0 0
1730128 0.5970613023669101 0.8322349137677167 0.00973180100218343 -0.0038556058455914855 0 0 0 0
1734474 0.6120967743302816 0.8286610673344501 -0.0022085217394043908 0.005774555987562188 0 0 0 0
1738820 0.6056254014510916 0.8333500677130145 -0.005036749183659861 -0.0004951144011681925 0 0 0 0
1743166 0.601739360228173 0.834013019090941 0.000112635428126688 0.004042620112765403 0 0 0 0
1747512 0.6139243813168207 0.8309725168929516 -0.0015617733165821878 0.0033329445975259406 0 0 0 0
1751858 0.6207250733642568 0.784212360527738 0.004911019357439691 -0.004327921757587269 0 0 0 0
1756204 0.6224982269360805 0.8276533126963173 0.00026568978550633814 0.00023687882988613588 0 0 0 0
1760550 0.6255894056694365 0.8159218010193671 0.004870208069620683 -0.00020113991151188146 0 0 0 0
1764896 0.627188154127875 0.8143712618563451 0.0010397994831845018 0.009063374054707344 0 0 0 0
1769242 0.6190401764931681 0.8230136520472219 0.00021305432841187868 0.002645791251741905 0 0 0 0
1773588 0.6221510618452386 0.8198474584452966 0.002168277943511064 -0.00020739398646489585 0 0 0 0
1777934 0.6205476351246805 0.8030621896580945 0.0010446165153173825 0.003438223997979375 0 0 0 0
1782280 0.6206566664939464 0.8124574612214438 -0.009246420819049533 -0.0033433584105574937 0 0 0 0
1786626 0.6201101839992061 0.7882414462656284 0.0015322115476324285 -0.0018517150191656561 0 0 0 0
1790972 0.5935120396323397 0.8573747152343919 0.0018213960058583872 0.0019592464604983864 0 0 0 0
1795318 0.6223531356988568 0.7817294099245665 -0.0032469449300849204 0.007001115342599619 0 0 0 0
1799664 0.6397009430989133 0.8213924358399761 0.0034720192898912774 -0.0005955404663635708 0 0 0 0
1804010 0.6364560927013643 0.7940442920452946 0.0007789318290213842 0.010820417202504038 0 0 0 0
1808356 0.6307350260184194 0.7956044376139371 -0.001282786903914964 -0.0014421084123374477 0 0 0 0
1812702 0.6459155896131108 0.8249954251989435 -0.004797310547382961 -0.0035801337397047286 0 0 0 0
1817048 0.6485828741168754 0.8221239654715199 -0.002789728962052642 -0.004965127526374322 0 0 0 0
1821394 0.6254448261578617 0.8168052018871355 -0.0026078499509196644 0.0012570124469087902 0 0 0 0
1825740 0.6505321935144441 0.810157927700452 0.002667839170137148 0.0026926409902668508 0 0 0 0
1830086 0.6334827929613565 0.8099332788234647 0.005966861876974235 -0.0010979534741384187 0 0 0 0
1834432 0.6396063208105208 0.7871001093745481 -0.0001980027279046424 -0.008516139931166315 0 0 0 0
1838778 0.6329379004324731 0.8148341037542008 -0.0016989929924003811 0.00168447329026755 0 0 0 0
1843124 0.6489439592700165 0.7878116192876208 0.006984471103315545 0.0038203727805284087 0 0 0 0
1847470 0.6412118029062525 0.777433843897317 -0.010021847452749613 0.0007984022592140884 0 0 0 0
1851816 0.6488483881853403 0.7824135089901396 -0.012848502468513998 -0.0026700376361567706 0 0 0 0
1856162 0.6581884835199157 0.8067208410028734 0.007318134653145353 -0.0007731004111891103 0 0 0 0
1860508 0.6479510885951406 0.8121169880904874 -0.00038917921849788517 -0.006364848476079593 0 0 0 0
1864854 0.6447658050301762 0.787303469904537 -0.0055224993474117775 0.008171086540634073 0 0 0 0
1869200 0.64527735764027 0.7843981273990599 -0.0018382869032119514 -0.004546069346510686 0 0 0 0
