# HZ S RI R 50
1000000 0.22677109427867712 0.79720607979345 -0.00025596432366817534 -0.0005330033808225574 0 0 0 0
1002393 0.1279661277756632 0.9704152228537194 0.006190140485713778 0.005488843126380129 0 0 0 0
1004786 0.1482941834815347 1.0332654564551045 -0.00795528362456324 -0.007045131569314248 0 0 0 0
1007179 0.1512747724308963 1.02542009825687 -0.0051485997693922324 0.002321719862270644 0 0 0 0
1009572 -0.02586981237250267 1.020961773862455 0.00047252787344706043 -0.005479219556204552 0 0 0 0
1011965 0.1347855210599648 1.0501178471678394 -0.007086652944460065 0.005191989814231586 0 0 0 0
1014358 0.15486424989511624 1.0349586079324735 0.0003067354619504173 0.006141108367697577 0 0 0 0
1016751 0.1544709613541024 1.0208366074040531 -0.003949938329589615 -0.0031941430607899594 0 0 0 0
1019144 0.1503311486532957 1.0165313936268925 -0.0005635105727159596 0.004935273876514441 0 0 0 0
1021537 0.1748420600665169 0.997025537797299 0.005263425839144985 0.000494842502274288 0 0 0 0
1023930 0.15862615908167357 1.0082432397554186 -0.0021210688833773806 -0.001923133083243047 0 0 0 0
1026323 0.1477520657971815 1.0274857125227423 0.0019628277866155846 -0.005249325517969436 0 0 0 0
1028716 0.13688995440519908 1.005915842870368 0.001595790175259993 -0.005863051940978819 0 0 0 0
1031109 0.15630322738046395 1.01526845553229 -0.0043626951582494316 -0.00032702701169078774 0 0 0 0
1033502 0.16100081386485235 1.014239146032265 -0.0008249631742095629 0.0015504187150775334 0 0 0 0
1035895 0.17956474478502568 1.017743720799506 -0.008934599426353452 3.863460759222655e-05 0 0 0 0
1038288 0.1561495757353846 0.999418603065787 0.0056627888524287155 -0.0020053954026987555 0 0 0 0
1040681 0.17444230480381331 1.0254749773945981 -0.0006628838427222146 0.004836576656812569 0 0 0 0
1043074 0.18765736554392023 0.99337536582312 0.0062820204148962035 -0.009029320153319116 0 0 0 0
1045467 0.17122827243510133 1.0226803536238065 0.010981429510728792 -0.005741783623678498 0 0 0 0
1047860 0.19410133784727138 1.0152591519119458 -0.004276815583084512 -0.002781362660421795 0 0 0 0
1050253 0.16445035662152016 0.969673893510071 -0.004385562803137131 -0.0006388951425071967 0 0 0 0
1052646 0.1725587444802574 1.0135672852016817 0.0008138266037262821 -0.0014958532743571114 0 0 0 0
1055039 0.18511210982782955 1.0125651169865584 -0.004646401097140597 -0.00025310471741577233 0 0 0 0
1057432 0.1990396821473385 1.0126241797085316 0.010060133031973739 -0.0038013896747283666 0 0 0 0
1059825 0.19796157296882064 1.0078508266899038 0.0017255397606465287 0.0019361489744176544 0 0 0 0
1062218 0.19181918236537301 1.0071578306775466 -0.00692592023433067 -0.002935925009766682 0 0 0 0
1064611 0.18629439456985275 1.0092012440026097 0.00797777119327263 -0.005582206134309722 0 0 0 0
1067004 0.1979347919387364 0.9858879158165087 -0.0032166835677167583 -0.005896978651696685 0 0 0 0
1069397 0.21389453795167518 0.966108719445745 -0.0027969577773254736 -0.001641281155382792 0 0 0 0
1071790 0.21517735771886398 1.0175751897938123 -0.004350685479441079 -0.012050125656615425 0 0 0 0
1074183 0.19937677414503285 1.0125753838761404 0.007835808178605665 0.0030107126973270833 0 0 0 0
1076576 0.207152467883981 1.0095033380216105 0.006257412919277834 0.001827528689026734 0 0 0 0
1078969 0.20584165121893475 1.002271849962819 0.009641838316692394 -0.0006344501905108055 0 0 0 0
1081362 0.217935285707409 0.9837992283751724 -0.0047704108079194086 0.0009016045488637684 0 0 0 0
1083755 0.2051039181827792 1.0221098700443643 -0.003979002521729372 -0.0013890388575801742 0 0 0 0
1086148 0.2230099777012488 1.0148263260468406 -0.005879659306893942 -0.0014643228881614362 0 0 0 0
1088541 0.21713134140529508 1.0113870653264556 0.004674249307040281 0.002674050245518751 0 0 0 0
1090934 0.22444402218911416 1.0015718425946147 -0.00790353969363748 -0.009554844280962666 0 0 0 0
1093327 0.23258454184501623 1.0055885892079872 -0.001147983080099396 0.0017700315308042764 0 0 0 0
1095720 0.228870429778996 1.0030008451639063 -0.00159795848550826 -0.0014405529313064188 0 0 0 0
1098113 0.2238764752481588 0.9911046889379936 0.010001770376098762 -0.001847017710232419 0 0 0 0
1100506 0.2357448660431154 1.0051358590522486 0.004155794008587773 -0.013273048944277693 0 0 0 0
1102899 0.222936841145236 0.989846945934275 0.002169674033630018 0.0018226942654093066 0 0 0 0
1105292 0.21564945942666688 1.0124822870941672 0.004442842701820666 -0.0013809145974316014 0 0 0 0
1107685 0.2226193152562176 0.9980080672277776 -0.008998908411816692 -0.0005550792458183755 0 0 0 0
1110078 0.2167054491612594 1.020130426276802 0.0007330545549027869 0.0026302493695383997 0 0 0 0
1112471 0.230896377425518 1.012503708282578 0.0023540422898655974 0.008702195025941826 0 0 0 0
1114864 0.24622537607044614 1.0094753586325707 0.0017222970085926188 0.0005397691908935828 0 0 0 0
1117257 0.2425337425803768 0.999829535720471 0.008601067309634815 0.0060002881631506634 0 0 0 0
1119650 0.31598961677261833 0.9869857665107279 0.005818611484677037 0.0016547343161962855 0 0 0 0
1122043 0.2571824176760094 0.9920633579815874 0.002228258611947981 -0.010667025051506268 0 0 0 0
1124436 0.26247550526032937 0.984047629110625 0.0006442304445338453 0.002874510770934701 0 0 0 0
1126829 0.2413143550667687 0.9962652825648843 -0.002679614190077936 -0.0058148739203927316 0 0 0 0
1129222 0.2388130036880447 1.0156499666040941 -0.012496167535341057 -0.004653762075811169 0 0 0 0
1131615 0.27775625152876077 0.9896731303679102 -0.006434072107841372 0.004254586597117932 0 0 0 0
1134008 0.2697325537903053 1.0117698729139637 -0.010687508972619199 -0.0022067201485715003 0 0 0 0
1136401 0.2559789769152208 0.9975062207913167 -0.010562658265124493 0.0012076117741560077 0 0 0 0
1138794 0.2764693004866292 0.9996593018107802 -0.0073028682987800455 0.0019081801333314292 0 0 0 0
1141187 0.2827824966389356 0.9886607602011575 -0.00954682327256477 -0.001672000109375144 0 0 0 0
1143580 0.2744850521153773 0.9960047964779403 -0.012095618898380171 -0.004827083088813849 0 0 0 0
1145973 0.27371429758154137 0.9836797053658435 0.0016160990195199071 -0.007134587490313386 0 0 0 0
1148366 0.26624194555239816 0.9965263157791004 0.00045276111712479823 -0.0081453441088738 0 0 0 0
1150759 0.26770426984597706 0.9778350191773093 -0.0027165923558822645 0.0025174097134717617 0 0 0 0
1153152 0.2775441822001707 0.9975782834695085 -0.0034519117980136554 0.016489190292455845 0 0 0 0
1155545 0.27497645263097087 0.9931711366901939 0.0010271349204205096 -0.0017028787726509544 0 0 0 0
1157938 0.28441180010761474 0.9970156538262062 0.00370413570941457 0.0072383584515228454 0 0 0 0
1160331 0.28916972488380155 0.9946621585025157 -0.0005674913842713341 0.008622154717184098 0 0 0 0
1162724 0.2652746859780702 0.9867380745570846 0.005498924397317829 -0.0007922008078042748 0 0 0 0
1165117 0.2842732617729501 0.983624625518136 0.003986227662070871 -0.006024349310141221 0 0 0 0
1167510 0.29796363252619085 0.9914360821637458 -0.007116501617320768 -0.0005845900460356813 0 0 0 0
1169903 0.28546385140048547 1.0020919840421267 0.004361677733251164 0.002623715508511416 0 0 0 0
1172296 0.29399392768731986 0.9910918960551989 0.0018328803851090393 0.001730369292630115 0 0 0 0
1174689 0.29347878686751383 0.9990608019649764 -0.011493282317569355 0.006856682041177985 0 0 0 0
1177082 0.3012540146800352 0.9835681088095346 0.0030543800565658403 -0.0012881299339084931 0 0 0 0
1179475 0.29356909579542034 0.9843898119682964 0.002683439384121836 0.0015643036199091468 0 0 0 0
1181868 0.30497201826168596 0.9890282347275544 0.01090852302022588 -0.00021343619070915212 0 0 0 0
1184261 0.3065226636592002 0.9898544364619758 -0.001658059887143611 0.004671161183881945 0 0 0 0
1186654 0.29402675568164827 0.9774339616773972 0.0009502074377339912 -0.005177263267613767 0 0 0 0
1189047 0.3103991529824387 0.9877692880576504 -0.0009938904660140115 0.009658901312309072 0 0 0 0
1191440 0.3046940689071562 0.9937103642398232 -0.008794720693170487 -0.003255418440252295 0 0 0 0
1193833 0.2997197101201859 0.9858406393943188 -0.00670126302526015 0.002383041342138541 0 0 0 0
1196226 0.31321670750567343 0.9870728443688828 0.001626797499462039 0.003656173039283641 0 0 0 0
1198619 0.31735791546634035 0.9773621709936196 0.004423265560811462 0.0025069463986454876 0 0 0 0
1201012 0.3254799470103731 0.980395226115493 0.005199090055753305 0.012119878360801422 0 0 0 0
1203405 0.3179482051117624 0.9702945829181306 0.003597443509031102 -0.006010607192514896 0 0 0 0
1205798 0.31652829229907453 0.9688565721035439 0.0024821840723798657 0.0014323642112063157 0 0 0 0
1208191 0.3162733378768772 0.9806596364614775 -0.0009621528781510378 0.003191894448085202 0 0 0 0
1210584 0.3240619356160123 0.981595090921714 0.003078638146699783 0.0008406445542139654 0 0 0 0
1212977 0.3221233588246926 0.9755645096817782 0.004888680465666298 -4.402119686598462e-05 0 0 0 0
1215370 0.3385035097486049 0.9835246137577728 -0.0008967308302974148 -0.002930342568339172 0 0 0 0
1217763 0.33981971854490306 0.970988625727139 0.0015063045674985711 0.007955407770099806 0 0 0 0
1220156 0.40058692345657687 0.979301694997434 -0.002616228359592163 0.004050270862563437 0 0 0 0
1222549 0.32739684473443437 0.9907105742533601 0.00203510178750308 -0.00630760016051566 0 0 0 0
1224942 0.34318867427190114 0.9599823754176343 -0.004852689288522415 -0.005437726554052914 0 0 0 0
1227335 0.3205054560068793 0.9574174617408936 0.0024308918736255444 -0.008768519934125245 0 0 0 0
1229728 0.3683978715633384 0.9939834328725602 -0.004565350084050541 -0.005284493091931828 0 0 0 0
1232121 0.34256379642672097 0.958182289442091 -0.00031242031960514486 -0.005244797920795525 0 0 0 0
1234514 0.32992150584904634 0.9756344145886227 -0.0015561043076825513 0.006984076637881298 0 0 0 0
1236907 0.3488500732231598 0.9606885608746807 -0.005109376192966676 0.001815821786005031 0 0 0 0
1239300 0.34119868901437767 0.9734624605190686 0.001606368182916445 0.0017619724013142163 0 0 0 0
1241693 0.3357931341956431 0.948360813465033 0.004299352518383338 0.0007827460908899797 0 0 0 0
1244086 0.35348799247560164 0.9643621030195957 9.146530277256893e-05 0.0022786915900525123 0 0 0 0
1246479 0.33874244868603665 0.9590532183268137 0.006567807442613509 0.0025250776539732494 0 0 0 0
1248872 0.3356761078108326 0.9770050730249983 0.002824482650347981 -0.006901703270969907 0 0 0 0
1251265 0.34851584347912146 0.9886505408765709 -0.001982001946356133 -0.0030306159707448833 0 0 0 0
1253658 0.3566986248116106 0.9596260925316135 -0.002375472268947803 0.007613087390592026 0 0 0 0
1256051 0.3712186298999606 0.9739028073386435 -0.0004265339198275729 0.001203521132648238 0 0 0 0
1258444 0.3608461825920406 0.978100362131633 0.004803346988663671 0.0008990251055637395 0 0 0 0
1260837 0.36574830015281473 0.9566700546110626 0.006945978303175261 -0.005212379651875297 0 0 0 0
1263230 0.36327429415334794 0.9574705071502018 -0.0009046696685795853 -0.004821813481890045 0 0 0 0
1265623 0.3698140263302556 0.9514625335418796 -0.0014135342568648067 -0.005433086107758077 0 0 0 0
1268016 0.36487709524053463 0.9531384637710122 -0.0002467892674787118 -0.006088108631788303 0 0 0 0
1270409 0.36716982418064625 0.9704806491722929 -0.009330300844832752 -0.005082410841832416 0 0 0 0
1272802 0.3662049525609972 0.9652758047516691 -0.0005771866544250525 -0.007307271696496159 0 0 0 0
1275195 0.3748979522247789 0.9792874222183079 -0.00782807263403415 0.003506134983546453 0 0 0 0
1277588 0.3739188042287371 0.9699629312083723 0.004587303200934384 -0.0028859049054836146 0 0 0 0
1279981 0.4199574804479876 0.9698726519104823 0.0028603222211343953 0.0009632957485766226 0 0 0 0
1282374 0.36250322052503775 0.9511959239788214 0.0045858180089749 0.003341037320450689 0 0 0 0
1284767 0.380508481504425 0.9513520072100309 0.002956665543606974 -0.002222722301358294 0 0 0 0
1287160 0.37876013829320415 0.9522531094184244 0.0009597162681621526 0.0007911785979285015 0 0 0 0
1289553 0.3818253287519349 0.9683450023364921 -0.0010334556246923623 -0.009136231023811286 0 0 0 0
1291946 0.3818707637331009 0.964389213313369 -0.0037105228863494855 0.0013990540535641933 0 0 0 0
1294339 0.37175413214888575 0.9840764568933582 -0.0036541549686575437 0.005514090718485468 0 0 0 0
1296732 0.37284194241915225 0.9482863585743336 -0.00664699756662769 0.005507223920930856 0 0 0 0
1299125 0.42599789724681963 0.9709315215909784 0.008974916952598241 -0.0026674525763749368 0 0 0 0
1301518 0.3621172583264413 0.9397357141954981 0.0031332391421072885 -0.0008857189306682256 0 0 0 0
1303911 0.3888390267028135 0.956785613758081 -0.00421340163440289 -0.008493952391626898 0 0 0 0
1306304 0.39681656786977954 0.9393810930025394 0.004793414510712077 -0.004085011027637844 0 0 0 0
1308697 0.39388299244893166 1.0115205107325893 0.005885329113530994 -0.0074247217290256025 0 0 0 0
1311090 0.38146027730214976 0.9453612128751865 -0.003408634091727471 -0.004334295198262393 0 0 0 0
1313483 0.4047973865165786 0.9516041127889178 0.0007415134871800965 0.00657169918548509 0 0 0 0
1315876 0.4002227662153693 0.9524367628065643 -0.0071276687695461995 -0.002394464631789809 0 0 0 0
1318269 0.40052705924903603 0.953626629703136 0.0029471446819830404 0.00040685002770895665 0 0 0 0
1320662 0.405120050229854 0.9227026929255296 0.009101297449812504 -0.012940345319404904 0 0 0 0
1323055 0.4219008523040462 0.9474653503899126 -0.004937081472431176 -0.0023852469558982314 0 0 0 0
1325448 0.40715797588027963 0.9488274450072761 -0.00902621037847212 0.00014086510670399243 0 0 0 0
1327841 0.3969071159490526 0.9437947628544764 0.0026487823316466087 -0.004251140315942274 0 0 0 0
1330234 0.4046491406951403 0.9567832083447643 -0.0006902646012890895 -0.010045624717985788 0 0 0 0
1332627 0.4200782044797929 0.9556240561543698 0.0017801159932058007 0.006446786391423136 0 0 0 0
1335020 0.40762375255854816 0.9413248967678938 -0.0024333177887861323 0.006149503347338151 0 0 0 0
1337413 0.4162056177962999 0.9417031385712624 -0.0010373021178992725 0.004548891585615385 0 0 0 0
1339806 0.41927416756035957 0.9484056135948112 -0.0013829081391619692 -0.002031182045729882 0 0 0 0
1342199 0.4039610518948985 0.9454009367054528 0.005404328031664259 0.00029335385563381244 0 0 0 0
1344592 0.4180883256710448 0.9365559489681248 -0.004243557627560827 0.0006680904036133253 0 0 0 0
1346985 0.4234288045577854 0.946695435029066 -0.0037749356435932586 -0.005592323912466145 0 0 0 0
1349378 0.4301402390307536 0.9770389853284115 -0.011783868742642808 -0.00520528359999335 0 0 0 0
1351771 0.4363873356159959 0.9392869943601346 -0.005783787179505062 -0.0009792250726332896 0 0 0 0
1354164 0.4399403136432941 0.938758953537101 0.009241559193605763 -0.003180283356455618 0 0 0 0
1356557 0.4459072928916459 0.9373005058221691 0.00228396382571615 0.008620371548979551 0 0 0 0
1358950 0.4268868818243213 0.9339421362472423 -0.0032292847511763718 0.00023782105235992267 0 0 0 0
1361343 0.43112953225700285 0.9311827765943688 0.0034003790558625293 -0.008781562753583062 0 0 0 0
1363736 0.4244166513730204 0.947838838632871 -0.0009678064643250076 -0.0046803863759455186 0 0 0 0
1366129 0.44130281186609294 0.9331487906057435 -0.006736999807085718 0.004210570195251746 0 0 0 0
1368522 0.44504365531998913 0.9418604684750422 0.004188969838423193 -0.005051781748425681 0 0 0 0
1370915 0.43727254724262155 0.9270658882865712 -0.010023223660053997 0.002355685067623361 0 0 0 0
1373308 0.4473948667206049 0.9453018274115763 -0.00042602822132870803 0.002323790317486565 0 0 0 0
1375701 0.44252613747189057 0.9282023094166492 -0.004050547355102824 0.009595138787374523 0 0 0 0
1378094 0.42696745305555134 0.9252293423144582 0.006560317307995149 -0.0001819867858904868 0 0 0 0
1380487 0.44578200329255346 0.9196348287722242 0.007849064660189602 0.0014695661558414964 0 0 0 0
1382880 0.4352934326071718 0.9209610684306342 -0.010542948932945247 -0.002711672673593136 0 0 0 0
1385273 0.44106893087499344 0.9267378764420552 -0.0008187749093150664 0.0007769264648760347 0 0 0 0
1387666 0.44124016327674875 0.9349293802004924 -0.01176249116766593 0.006014924904132433 0 0 0 0
1390059 0.4256441581418822 0.8899449395011614 -0.0019615096086006197 0.01012965882643462 0 0 0 0
1392452 0.4558804127072341 0.9315036065823192 -0.0028035322924395063 -0.0009515762227239257 0 0 0 0
1394845 0.44805994340967953 0.9212060095912548 -0.0019147043420647454 -0.005027819216565126 0 0 0 0
1397238 0.43834894769508576 0.9161420103878152 0.0023041249752957455 -0.0013946994069537492 0 0 0 0
1399631 0.44016854377300196 0.9209078834023743 0.0015418056817197788 0.001526179225502706 0 0 0 0
1402024 0.45417659710058483 0.9067168025928888 0.009208837367548564 -0.004953755556964883 0 0 0 0
1404417 0.44822131078694444 0.9266635157704656 -0.0027514919806209495 -0.010266276973988867 0 0 0 0
1406810 0.456794674224913 0.9200797863591443 -0.009640718071453561 -0.004649459290161058 0 0 0 0
1409203 0.46178860662624016 0.9154111058404183 0.003932923505385163 0.003319272169249969 0 0 0 0
1411596 0.4550170647959566 0.895417675815147 0.0007362823142337248 0.008408279156251463 0 0 0 0
1413989 0.4805999631097325 0.9142757840008948 0.008984411958716177 -0.0017214719988531903 0 0 0 0
1416382 0.4708358217592445 0.9192360831927754 0.006617708881884465 0.003754452763203984 0 0 0 0
1418775 0.4817464969235668 0.9211993672808267 -0.006643119968837354 -0.0014456022631416574 0 0 0 0
1421168 0.45880512671842466 0.9080825641275962 0.01043181018125831 -0.0015264460272596486 0 0 0 0
1423561 0.4786069780562936 0.9111344236865073 0.0016913366775368431 -0.004407467795013511 0 0 0 0
1425954 0.45772035229899405 0.9003805316735387 -0.0007110509276617251 -0.0034173201867901265 0 0 0 0
1428347 0.4766968843830193 0.9270783431587402 0.0020014275845736825 -0.003528414215398408 0 0 0 0
1430740 0.47783439236907144 0.9128260847611398 -0.0077989025495828895 -0.0038410490601398627 0 0 0 0
1433133 0.4664347607414386 0.9102876318923231 0.0013304495132378143 0.001724432456371142 0 0 0 0
1435526 0.4679030197824613 0.910399373541418 0.004861307460438189 0.006829281396155806 0 0 0 0
1437919 0.47651368721558973 0.9230469215049342 -0.0036484213601082477 -0.008400064857063592 0 0 0 0
1440312 0.4920984791573705 0.9212914809311649 0.005978251060187846 -0.012094382180148357 0 0 0 0
1442705 0.47349716102528455 0.9055404709670933 -0.004170696804078052 0.00013150188517204635 0 0 0 0
1445098 0.48844301211716246 0.9151531837774478 -0.007044142213500925 0.0004975363903838826 0 0 0 0
1447491 0.49080515664328195 0.9006370552532263 -0.0007036903480138686 0.002421944989131158 0 0 0 0
1449884 0.4782959390645171 0.9100560058774944 0.009162834749217422 -0.0015579261144715727 0 0 0 0
1452277 0.48331242217933934 0.9155335273292984 0.005975041594702777 0.010340304733169844 0 0 0 0
1454670 0.481610894288804 0.9115947595227835 -0.00826373945169292 -0.0023960649331984073 0 0 0 0
1457063 0.47982592371359206 0.9047725300045923 -0.002318558581238117 -0.005256406528725102 0 0 0 0
1459456 0.47434953526371365 0.8967704593693213 -0.004016006198306693 0.0009647165056178481 0 0 0 0
1461849 0.47939780881004895 0.9113384176878225 0.00030311406097181066 0.00023838781705493104 0 0 0 0
1464242 0.481767051102265 0.908558112371508 -0.009838946196185312 -0.007926833489016632 0 0 0 0
1466635 0.4879897508820632 0.9135788863591685 -0.0016511901997366524 0.001615528515361026 0 0 0 0
1469028 0.5044386955019511 0.9076533313971611 -0.006029501000463504 1.9324070603542242e-05 0 0 0 0
1471421 0.48627828773062715 0.9182847908350807 -0.0003476400433049808 0.008640718873626703 0 0 0 0
1473814 0.5049803837600207 0.9081959493506894 0.001020625356496927 0.002130759440533883 0 0 0 0
1476207 0.493816895661067 0.8914737793513913 0.0026970476986487063 0.0014332223058059878 0 0 0 0
1478600 0.49557310101512864 0.9067548411772086 0.00598039547948907 -0.0020043545824836102 0 0 0 0
