# HZ S RI R 50
15000000 1.0325466583911274 -0.017372590770889457
15000550 0.9848185122877305 0.06412305829349113
15001100 1.011245253667637 0.056587848615320686
15001650 1.021604418323271 0.05905233755079587
15002200 0.9976246009070018 0.027746215514800613
15002750 1.039568099270599 0.048712626698968614
15003300 1.0054745613898306 0.0301442283787419
15003850 1.0324197795364722 0.030682547280628872
15004400 1.0071739230110126 0.023384914573043574
15004950 1.0007726585949104 0.024140747463913363
15005500 1.0235691015505313 0.04828782776436391
15006050 1.0017681598328783 0.03048575002500156
15006600 1.0095492139884867 0.04879337799725988
15007150 1.001185778796303 0.05181868556385028
15007700 1.049876931707529 0.06058965617312931
15008250 1.0229177777824359 0.05376844907033773
15008800 1.0180168550264073 0.04522019528074437
15009350 1.0385315353335758 0.045763774301341535
15009900 1.0019760335157835 0.05908837080149424
15010450 1.0141636987924623 0.049512086921915915
15011000 1.0314760448876608 0.03861099541007265
15011550 0.9961153007578749 0.036016872319244844
15012100 1.0009748532150864 0.0667471548524203
15012650 1.0183580445133342 0.036431706021171524
15013200 1.0106118400330513 0.038694360299275296
15013750 1.020502923465884 0.04613887355043217
15014300 1.0162282562789144 0.045276639748938155
15014850 1.00816400098015 0.05635192774464005
15015400 1.0131341095727386 0.030492874106850008
15015950 1.0129726555036584 0.035950723899957224
15016500 1.0134960418613657 0.05211945651797818
15017050 1.0065199831768814 0.059863126492360134
15017600 1.0154199497175291 0.048747031932069466
15018150 1.010738327458658 0.03403222546775618
15018700 1.005033428419967 0.061904059510843434
15019250 1.0285367836326043 0.04392571127377334
15019800 1.021098019419854 0.04419935704465161
15020350 1.0060831031538746 0.0295699228804972
15020900 1.0427650701770277 0.04005188884928827
15021450 1.0126323645475113 0.030524235155997198
15022000 1.0293660110076857 0.0347401587469397
15022550 1.0173742419382712 0.052049475466147486
15023100 1.0064640357461556 0.056291034289556244
15023650 1.0261189042974292 0.045009213970238035
15024200 1.0166775524001326 0.06739359508377192
15024750 1.0080031912811935 0.04819498696417034
15025300 1.0332619021986251 0.05915320069900878
15025850 1.0203953236697088 0.04983564504158026
15026400 1.019525161431651 0.0560312658384091
15026950 1.0170510769626258 0.053130970329886486
15027500 1.0088329266073206 0.05001509316545047
15028050 1.015701560196302 0.04207098659886516
15028600 0.999106494643391 0.07783428313420748
15029150 1.032789421075811 0.05109538608482083
15029700 1.049490944554335 0.012858080651920883
15030250 0.9757697532378914 0.017788179428126133
15030800 1.0526083185368935 0.07880671875361199
15031350 1.0216409091326628 0.0680281876307753
15031900 1.037590926805977 0.06551881089738548
15032450 1.0164104923629211 0.05654268904147683
15033000 1.0352987632865414 0.0362313924790111
15033550 1.0074461554276137 0.07550724722193239
15034100 1.0144509153694499 0.046592677093818015
15034650 1.0187630537420154 0.04016919487049373
15035200 1.0116314257419292 0.04317319090519223
15035750 1.0257197567707161 0.06292827617276758
15036300 1.009273633365837 0.03694681323329114
15036850 1.0235238226225511 0.06196201554950316
15037400 1.0197139015140375 0.045046007218018866
15037950 1.017032297483955 0.04059844659297206
15038500 1.0509307321146615 0.03398090945503053
15039050 1.0001850914234232 0.06616433411786293
15039600 1.0022417562913772 0.012684320136073849
15040150 1.0548654314941968 0.08022074168602604
15040700 1.0369804029545286 0.021277795191580417
15041250 1.0394474577595623 0.02969641805813156
15041800 1.0167669441323535 0.026870977319715984
15042350 1.032825164411402 0.05663906633487696
15042900 1.00070388152705 0.03025415956861198
15043450 0.9975148903115364 0.03839333252825163
15044000 1.025698598141313 0.04133880087818948
15044550 1.0343538006113349 0.051142317202431994
15045100 1.041189143643272 0.030962691234888567
15045650 1.0382213383770826 0.04304486033122683
15046200 0.987228991164498 0.0383809724867258
15046750 1.0337268721649753 0.019600484646964723
15047300 1.0259308526851674 0.03435759842283647
15047850 1.013073596867687 0.049051515039541985
15048400 1.0075580853610129 0.06988044765018693
15048950 1.0220619845909498 0.03544036208305996
15049500 1.0311507859291773 0.039127167491866365
15050050 1.032583500909595 0.05811760730861794
15050600 0.9994037510648428 0.046971953447438146
15051150 1.026901532218534 0.05737056851834129
15051700 1.0124141756194196 0.05440950539513775
15052250 1.0256162366746364 0.03319019240733914
15052800 1.0342227110429667 0.03980350625751302
15053350 0.9960584679995493 0.04828354823448775
15053900 1.0163343398598081 0.04397690784383064
15054450 1.0249794819612665 0.03706507222529381
15055000 1.0290327818104232 0.038227206659687527
15055550 1.0300053544289052 0.02593451387165517
15056100 1.0393487503794265 0.05557830009152848
15056650 1.0646248342801465 -0.02882217819610953
15057200 1.0047491211790742 0.03508324937134032
15057750 1.1631927643308735 0.03335436428949574
15058300 1.033003796492564 0.06615940935087408
15058850 0.9850865186328952 0.053203751783836094
15059400 1.0090561393807724 0.05113266162355777
15059950 1.0594411003923598 0.05822214395095121
15060500 1.0248166001080865 0.06639992450388028
15061050 1.0224718233863117 0.03254529295557235
15061600 1.0421188244353778 -0.008045671932779766
15062150 1.0816017600301935 0.1155935106623482
15062700 0.9949397502815445 0.11986161601255181
15063250 1.2812350814312772 0.10449752754943245
15063800 1.3520990106525903 -0.0008213933289834299
15064350 0.8498554871820188 0.06885305653227038
15064900 0.9259877988887221 0.1526886998182995
15065450 0.8333839638853475 0.16849618119497686
15066000 1.1707137743724423 -0.11207110575052519
15066550 0.5585366858127806 0.011975317973180341
15067100 1.1184953885301374 0.2729731554498051
15067650 1.0405027105773064 -0.10701490107723015
15068200 1.0108917564349575 0.10090359606900373
15068750 0.8698761301815653 0.20815264648216847
15069300 0.8094297659628178 -0.2595868794288219
15069850 1.1101308985323524 0.11029731041186787
15070400 0.9514729536714144 -0.06601670236311169
15070950 0.9029443800180559 0.022895458691665073
15071500 0.9225037839170095 0.1220744398217325
15072050 0.7872887419451281 0.09243056458583632
15072600 1.0284287759408428 0.025196620925527487
15073150 1.0164836885401412 -0.003042223456826986
15073700 1.0477656980153984 0.15554145372310457
15074250 1.0138649498320869 -0.09341729094187018
15074800 1.0506157263272806 -0.014473424856402513
15075350 1.024952093758559 0.08725847719827745
15075900 1.1102389219478355 0.001360662631274652
15076450 1.0510815416285355 -0.08167625264399248
15077000 0.9861316248647622 0.031126976774535735
15077550 1.0219038061703625 0.039794547984086916
15078100 1.0274487311716392 0.05173919367700625
15078650 1.0204303687520477 0.0887776427277003
15079200 1.0188483870323728 0.0449262543817676
15079750 1.002504675916525 -0.0009447343796611748
15080300 1.0322720499195788 0.09308470248423774
15080850 1.0360067614882118 0.03392755468396612
15081400 1.0304291893185507 0.05145261630719379
15081950 1.0226689074758102 0.0406350373460023
15082500 1.0227420887681022 0.039701614465632105
15083050 1.0186726055695026 0.0525517384192575
15083600 1.0268465756919674 0.03267887558439604
15084150 0.995437156607481 0.03547343764697683
15084700 1.0159302445738472 0.025760238663399
15085250 1.0090507781216447 0.03984356005763596
15085800 1.0301055479938679 0.03679369014096075
15086350 1.003458262563901 0.04728257233290459
15086900 1.0103454749973093 0.04754761198159742
15087450 0.99806627639014 0.03507605117260074
15088000 1.0096841797160376 0.04047130042622062
15088550 1.0138643892820172 0.04185602929591667
15089100 1.0037357342640225 0.055063125526382976
15089650 1.017750676999988 0.047025409227018596
15090200 1.0132535648422933 0.038230058507503925
15090750 1.0182926772255654 0.04142756912701677
15091300 1.0226334208458523 0.05565488769779392
15091850 1.0338385672989812 0.04624476037341
15092400 1.009261398224969 0.04404648070809771
15092950 1.013092022646858 0.03961020634702896
15093500 1.016789026180874 0.040083884853246654
15094050 1.0199513204976214 0.03921907790421018
15094600 1.020605290764044 0.04819166295441077
15095150 1.0158828515260547 0.061135722672131194
15095700 1.0039801581530328 0.031046386480803222
15096250 1.0182524990361144 0.03929815561321194
15096800 1.0235409547208973 0.04501125123956768
15097350 1.0144143681898465 0.04925224887795206
15097900 1.0190965848136748 0.04615321562697192
15098450 1.0291073207477632 0.048490808669681196
15099000 1.0096831772051222 0.04527361034643464
15099550 1.0104225045610187 0.0476976147502209
15100100 1.0096426255447892 0.03875797965754102
15100650 1.0093652185420294 0.07520025616656541
15101200 1.0281745637915176 0.038198548962295506
15101750 1.0218841105246257 0.044784548980020246
15102300 1.0373837487337256 0.04380023389329661
15102850 1.0158090640968116 0.03432779927022241
15103400 1.0181212557309447 0.05482545472650545
15103950 1.0132152970588455 0.0348084491124456
15104500 1.0150415365935792 0.03150476097116523
15105050 1.024995861384434 0.06272890197525532
15105600 1.0132949541637477 0.0661804013915141
15106150 1.0039933461492152 0.03808712372738365
15106700 1.0345572495348951 0.055284536683256405
15107250 1.0184172249932744 0.03234240361053626
15107800 1.022772116559804 0.04113792779269954
15108350 1.0263165391420126 0.06238167838841205
15108900 1.0071979899968557 0.04799729223158959
15109450 1.0134379983154314 0.020397450123594854
15110000 0.9872366963475468 0.013729734293102352
15110550 1.0130223449318563 0.07212360342974332
15111100 1.0339780514703005 0.030507123395589586
15111650 1.0098089402152812 0.06245595625158111
15112200 1.0152499929803553 0.05314238215797716
15112750 0.9971502557534605 0.04310520912079893
15113300 1.017956115746679 0.019189789309671197
15113850 1.0053229096162304 0.04428838822169259
15114400 1.0167225064039234 0.044006422715189925
15114950 1.0138287393384477 0.028555380874521263
15115500 1.0163921437211891 0.04001586884271318
15116050 1.0154392594043307 0.040583256651608474
15116600 1.0051418460609813 0.04556700753993764
15117150 1.0099652778397645 0.05008030070374179
15117700 1.0066575621287748 0.0531814940096187
15118250 1.0035202248718658 0.032278823413088756
15118800 1.0181449837151002 0.03244198198390805
15119350 1.0279893815320065 0.043329412158001776
15119900 0.9792482622498915 0.04786860225143381
15120450 1.0671162725428192 0.031021664090732485
15121000 1.0085087454834656 0.04258857318756196
15121550 1.0059951325300005 0.018334193907251686
15122100 1.0171044978236146 0.03568018700472996
15122650 1.0187996449020746 0.04254516789528113
15123200 1.005955735009448 0.04650007476125311
15123750 1.0198732207627945 0.03848601729100409
15124300 1.0109812704375662 0.05580563654887904
15124850 1.02882340032072 0.03592401793509152
15125400 1.0173036433228893 0.05834669539941614
15125950 1.0134963245562814 0.05313251810568665
15126500 1.0141703145172685 0.03849939301067787
15127050 1.0324126815584762 0.05064563573926969
15127600 1.0171837543358777 0.04334075671946942
15128150 1.024108082478505 0.06014625271497665
15128700 1.010532430072975 0.05239659333483714
15129250 1.016300482797006 0.03289093951331268
15129800 1.0151401226146888 0.03168693083688961
15130350 1.0178352901133556 0.05539194464988384
15130900 1.0243864519112817 0.04910239589741376
15131450 1.0101173484842003 0.02771024035482226
15132000 1.0121346876380872 0.048980245332855436
15132550 1.0211371851711397 0.040049214563438164
15133100 1.0224835455277776 0.05606925589743041
15133650 1.0110931170262354 0.03437982497404599
15134200 1.008452340568296 0.04380050068153931
15134750 1.0392661923198814 0.03432325331826827
15135300 1.0287460925989613 0.032405922289304216
15135850 1.0218329407079623 0.042229354251710025
15136400 1.0080838192410568 0.04541434201132844
15136950 1.0195623928284725 0.03926163183482937
15137500 1.0191823707420213 0.03475891270018865
15138050 1.0077195484846142 0.03834420917491408
15138600 1.014079212232991 0.04333920151759467
15139150 1.009250058843073 0.03591690353728481
15139700 1.0248239109177335 0.05549239529303026
15140250 1.007978321224112 0.05281320073264951
15140800 1.0047798710166869 0.030711143317301157
15141350 1.0090282581203898 0.03279770827557209
15141900 1.0180321692284149 0.041083774004156755
15142450 1.0010545172108631 0.04277100503690776
15143000 1.0285740762495121 0.03616655824540385
15143550 1.030394768520649 0.03619417112388668
15144100 1.0138863389274193 0.02813894014586776
15144650 1.011691990954481 0.029616467754031813
15145200 1.023862929537523 0.044715553623280085
15145750 1.0195854598875793 0.02657054244550124
15146300 1.0031173624317942 0.03568406816370534
15146850 1.0250424594198244 0.04774227545927453
15147400 1.0177280432082667 0.034507288321764584
15147950 1.030873338683326 0.027858063481201185
15148500 1.0390915644179117 0.03319486105739615
15149050 1.0274535797216922 0.043772950573218034
15149600 1.0117461702185278 0.016275945990836867
15150150 0.9668716209189393 0.04390429510492927
15150700 1.0096173000063255 0.061381261739903714
15151250 1.0206317546938475 0.03143232724649777
15151800 1.0138932603059745 0.043523514424504986
15152350 1.0117220563866767 0.05113934603581928
15152900 1.0191759842053025 0.042857448733927925
15153450 1.0148607544265627 0.027544696257672696
15154000 1.003220599762284 0.043567741018117244
15154550 1.007029786525502 0.045010813691522156
15155100 1.0262558320362927 0.038271638010783766
15155650 1.0126107164133715 0.046891034500160335
15156200 1.0134033774764262 0.056498314469793934
15156750 1.0311851021065486 0.04605827033893408
15157300 1.022553326614998 0.04669202180535887
15157850 1.0142044395997483 0.05091592094117459
15158400 1.0170477641023903 0.052403309354396625
15158950 1.0187010177885991 0.029620896326616134
15159500 0.9984035044105595 0.02967774027002262
15160050 1.0320391721770588 -0.021177200732542218
15160600 1.0287859424017605 0.06833626376758044
15161150 1.0135159940063851 0.04625443284895747
15161700 1.0292811726163917 0.04916562067944071
15162250 1.004244042909893 0.03533340579092637
15162800 1.0210420219874536 0.05796239085725239
15163350 1.0189571593001248 0.049348713178538055
15163900 1.0136279118682776 0.04250891036798589
15164450 1.0123466066770253 0.047692806025448224
15165000 1.024042263045611 0.04098164256777672
15165550 1.0098161579057436 0.027330871622332182
15166100 1.0235596497925372 0.04662660123130149
15166650 1.029311504074518 0.06204925594750527
15167200 0.9912795672414713 0.05129093647378639
15167750 1.0148197991969348 0.03574852819784797
15168300 1.017991938595895 0.029758766481545688
15168850 1.0214611895030106 0.04776774656844204
15169400 1.0088256811542715 0.031929051742236356
15169950 1.010178172103886 0.02824351200150707
15170500 1.004791403848259 0.03857345692488517
15171050 1.006326342332659 0.04162260846122446
15171600 1.0245704825699247 0.03225662093227161
15172150 1.0264481278788744 0.04681131058844871
15172700 1.0295626310760626 0.049699650292907294
15173250 0.9975215954887032 0.03858979702859359
15173800 1.0252784069893373 0.04373910827597882
15174350 1.0291100136448568 0.03006929445796071
15174900 1.021619865218405 0.03597613049453569
15175450 1.0154600341582196 0.039364456395638
15176000 1.0156350800107352 0.03488617212595423
15176550 1.0206653065060602 0.023306550483202113
15177100 1.0162692278556424 0.037047599902138954
15177650 1.0117785711085419 0.05037036818432463
15178200 1.000984653207681 0.05305423771033384
15178750 1.0174251120078852 0.037207462397554715
15179300 1.010392947093552 0.025370951342208275
15179850 1.014115095226353 0.032119234264633215
15180400 1.009775580567821 0.04567100368748349
15180950 1.016028027972353 0.03195254990576967
15181500 1.024270160758299 0.020952899149978037
15182050 1.0145196838660289 0.03728784086297347
15182600 1.0201813007472054 0.02748833007838984
15183150 1.0144307738490388 0.05031945528050251
15183700 0.9994415337389053 0.03670333216338982
15184250 1.0247406720164036 0.0198770658058706
15184800 1.0244826894314991 0.04781024450751263
15185350 1.0144372297930326 0.04322245027031223
15185900 1.0355429628668906 0.04169864560522333
15186450 1.0122507213018914 0.029565902138954814
15187000 1.0099975345684133 0.04027244263862622
15187550 1.023632809281977 0.03334901112557223
15188100 1.0152309940295383 0.07015606616963126
15188650 1.0147566776040071 0.05210781582813842
15189200 0.9950964094555773 0.06147272678471836
15189750 0.9681217562940674 0.04104383422504292
15190300 0.9824693574143368 0.06428662311755302
15190850 1.0286990976901969 0.06628187650611198
15191400 1.0156204819349615 0.04643042426031979
15191950 1.0159228803426614 0.03796859553918703
15192500 1.0301272600319935 0.04071189216619012
15193050 1.0118025443755798 0.02584463888861194
15193600 1.03164480205771 0.025385060075552815
15194150 1.008619214650169 0.03881905425426545
15194700 1.0000120111168254 0.025094492416936228
15195250 1.0270307351872618 0.043589609004029466
15195800 1.008670989179022 0.04927327415619294
15196350 1.013979935069871 0.06539961935371509
15196900 1.0131097578512276 0.034860392137017644
15197450 1.0226295460782242 0.04721589945471607
15198000 1.0220603450450494 0.04890327727876814
15198550 1.022188899320409 0.03352179096838519
15199100 1.0159322084874447 0.04432823688507711
15199650 1.0132322933881093 0.07587303834307822
15200200 0.9641838348000599 0.05370972663718576
15200750 0.9983674353692847 0.028854936678205493
15201300 0.9998600984677651 0.034492816793869896
15201850 1.0167192703256802 0.04935284366731922
15202400 1.0137379600860221 0.052690715588840364
15202950 1.0198186442003976 0.039311549135865695
15203500 1.0020352178383796 0.047989998056780676
15204050 1.0254321623960652 0.032877733779291
15204600 1.0125226284219657 0.04673339903257921
15205150 1.0074696599494724 0.04433901909500701
15205700 1.0099888238822257 0.035278098884786974
15206250 1.0043977679420364 0.042536501831497944
15206800 1.027104066420851 0.026565380215010648
15207350 1.0146588241973553 0.04479311551965668
15207900 1.0029762138018037 0.040764919722312776
15208450 0.9808734686562797 0.038244574324388124
15209000 1.0309785585909066 0.036992390755434805
15209550 1.0209141145096219 0.05057281368668735
15210100 1.0118199322221713 0.01921574446097298
15210650 1.0250669571443987 0.038520963845930234
15211200 1.0050861637905446 0.02723418915779393
15211750 1.0171572079209081 0.022118914069989132
15212300 1.0285256717900166 0.02827794248553965
15212850 1.0064228125776917 0.045610191826856446
15213400 1.0249187512442797 0.04228831896042689
15213950 1.019924106343218 0.03395438800745071
15214500 1.011545227765885 0.040751626901414734
15215050 1.031567516602857 0.050513059994703444
15215600 1.009091353336134 0.04573634433401229
15216150 1.0097612793035644 0.058734178079137646
15216700 1.002242454807287 0.037797757534348275
15217250 1.025486102409872 0.021297109602844616
15217800 1.0203516457194817 0.0395814207218477
15218350 1.025299714064896 0.03246928927155742
15218900 1.0062520220644735 0.03807308023757701
15219450 1.0086205565290234 0.029945543995586715
15220000 1.0108088410451743 0.05033865263743321
15220550 1.016574991357137 0.03410776936029348
15221100 1.0098739555197367 0.029676085077290856
15221650 1.0072264522427974 0.03622551449843818
15222200 0.999314648547866 0.04613284035547922
15222750 1.0047721744397666 0.028682641513267507
15223300 1.0208439690319007 0.030486933309385646
