# HZ S RI R 50
15000000 1.0325466583911274 -0.017372590770889457 0.008808346454890658 0.007748890943728151 0 0 0 0
15000550 0.9848185122877305 0.06412305829349113 -0.015042402830442843 -0.001012224271175679 0 0 0 0
15001100 1.011245253667637 0.056587848615320686 -0.0016788163139117044 0.006531004763910251 0 0 0 0
15001650 1.021604418323271 0.05905233755079587 0.007432746586385397 0.004845030658197106 0 0 0 0
15002200 0.9976246009070018 0.027746215514800613 0.006757483459597416 -0.01038338864986957 0 0 0 0
15002750 1.039568099270599 0.048712626698968614 -0.001414735413005299 0.012440762506109067 0 0 0 0
15003300 1.0054745613898306 0.0301442283787419 -0.014673705331390206 0.00709954170303147 0 0 0 0
15003850 1.0324197795364722 0.030682547280628872 -0.003506427407642751 0.0027639050944277006 0 0 0 0
15004400 1.0071739230110126 0.023384914573043574 0.0031372754137397496 -0.006918106950867616 0 0 0 0
15004950 1.0007726585949104 0.024140747463913363 0.006490952213851583 -0.000673775628434975 0 0 0 0
15005500 1.0235691015505313 0.04828782776436391 0.001167320989210926 0.0022775192924918983 0 0 0 0
15006050 1.0017681598328783 0.03048575002500156 -0.008474577969553355 0.010049586641168284 0 0 0 0
15006600 1.0095492139884867 0.04879337799725988 0.0036796444070806367 -0.009542156974320232 0 0 0 0
15007150 1.001185778796303 0.05181868556385028 0.005813710328300652 -0.00035575184125324986 0 0 0 0
15007700 1.049876931707529 0.06058965617312931 0.0024422751765825813 0.005013405634891341 0 0 0 0
15008250 1.0229177777824359 0.05376844907033773 -0.0008156926362153841 -0.0015046373160465974 0 0 0 0
15008800 1.0180168550264073 0.04522019528074437 0.00161542203671287 0.003453439515904169 0 0 0 0
15009350 1.0385315353335758 0.045763774301341535 -0.004070583999724364 -0.0010530367065630538 0 0 0 0
15009900 1.0019760335157835 0.05908837080149424 -0.00205838811788537 -0.002168006561049719 0 0 0 0
15010450 1.0141636987924623 0.049512086921915915 0.007808781510623984 -0.004594066080363157 0 0 0 0
15011000 1.0314760448876608 0.03861099541007265 0.01118410817779061 0.004651678464339996 0 0 0 0
15011550 0.9961153007578749 0.036016872319244844 -0.014394526975968764 -0.011759556717454505 0 0 0 0
15012100 1.0009748532150864 0.0667471548524203 0.0018389702933906855 0.0022664327347175243 0 0 0 0
15012650 1.0183580445133342 0.036431706021171524 0.008112190698626648 -0.0035930579929989363 0 0 0 0
15013200 1.0106118400330513 0.038694360299275296 0.0007318983093770511 -0.0027354003218477215 0 0 0 0
15013750 1.020502923465884 0.04613887355043217 -0.0034892891765389983 0.0003100051044729616 0 0 0 0
15014300 1.0162282562789144 0.045276639748938155 -0.0069254499884814445 0.014937519468039487 0 0 0 0
15014850 1.00816400098015 0.05635192774464005 0.005151372108999213 0.0055914589100662495 0 0 0 0
15015400 1.0131341095727386 0.030492874106850008 0.00010045292823066312 -0.0034067260819762484 0 0 0 0
15015950 1.0129726555036584 0.035950723899957224 0.006057478960691597 0.00477582297213213 0 0 0 0
15016500 1.0134960418613657 0.05211945651797818 -0.0007227594153941351 0.00958943670326085 0 0 0 0
15017050 1.0065199831768814 0.059863126492360134 0.004458608884643143 0.0023481555809826606 0 0 0 0
15017600 1.0154199497175291 0.048747031932069466 -0.00351025950791218 0.0008589713433913259 0 0 0 0
15018150 1.010738327458658 0.03403222546775618 0.006599322088889564 -0.008651129557935277 0 0 0 0
15018700 1.005033428419967 0.061904059510843434 -0.009288975081753166 -0.001100572135067208 0 0 0 0
15019250 1.0285367836326043 0.04392571127377334 0.002737300747997784 0.0085185010559083 0 0 0 0
15019800 1.021098019419854 0.04419935704465161 0.0013953238895816876 0.003654800927761399 0 0 0 0
15020350 1.0060831031538746 0.0295699228804972 -0.0009248378876792391 -0.0055979527816798985 0 0 0 0
15020900 1.0427650701770277 0.04005188884928827 -0.0010868461135504933 -0.008688081128300006 0 0 0 0
15021450 1.0126323645475113 0.030524235155997198 0.009089521670190684 -0.006579751661843512 0 0 0 0
15022000 1.0293660110076857 0.0347401587469397 -0.006762332867382099 0.000774480307854603 0 0 0 0
15022550 1.0173742419382712 0.052049475466147486 -0.00506522415284927 -0.005140705465107003 0 0 0 0
15023100 1.0064640357461556 0.056291034289556244 -0.007986222872944206 -0.003272754849112433 0 0 0 0
15023650 1.0261189042974292 0.045009213970238035 -6.02574150437447e-05 -0.006306500555461 0 0 0 0
15024200 1.0166775524001326 0.06739359508377192 0.0012537646942949498 -0.0073195339886168685 0 0 0 0
15024750 1.0080031912811935 0.04819498696417034 -0.00377519256863902 -0.0018028541295627633 0 0 0 0
15025300 1.0332619021986251 0.05915320069900878 0.0027020535696208373 -0.007305756561732757 0 0 0 0
15025850 1.0203953236697088 0.04983564504158026 -0.0021767008207167187 -0.0009366094800905836 0 0 0 0
15026400 1.019525161431651 0.0560312658384091 0.007763389200786899 -0.0019912270762552117 0 0 0 0
15026950 1.0170510769626258 0.053130970329886486 0.007261486228267119 -0.00031124231244189233 0 0 0 0
15027500 1.0088329266073206 0.05001509316545047 -0.0027890076253610434 0.0020163552771823127 0 0 0 0
15028050 1.015701560196302 0.04207098659886516 0.002489584352340257 0.003230940582374024 0 0 0 0
15028600 0.999106494643391 0.07783428313420748 -0.006263292434763411 -0.002283162215587317 0 0 0 0
15029150 1.032789421075811 0.05109538608482083 0.005815842897637918 0.0008905312494136337 0 0 0 0
15029700 1.049490944554335 0.012858080651920883 0.009723606749591268 0.00502786677218508 0 0 0 0
15030250 0.9757697532378914 0.017788179428126133 -0.007716511645227548 -0.00017289937776059035 0 0 0 0
15030800 1.0526083185368935 0.07880671875361199 -0.0028213478410224523 0.008690085486286999 0 0 0 0
15031350 1.0216409091326628 0.0680281876307753 -0.00746250558639233 -0.0034658630096361313 0 0 0 0
15031900 1.037590926805977 0.06551881089738548 0.0006984466266561926 -0.007604808082401413 0 0 0 0
15032450 1.0164104923629211 0.05654268904147683 0.010357267769381614 0.011102062379134947 0 0 0 0
15033000 1.0352987632865414 0.0362313924790111 0.0011782013977029555 0.006108794314486496 0 0 0 0
15033550 1.0074461554276137 0.07550724722193239 -0.002798760918424693 0.0013758987248483042 0 0 0 0
15034100 1.0144509153694499 0.046592677093818015 -0.013792395175495093 -0.005201572134828915 0 0 0 0
15034650 1.0187630537420154 0.04016919487049373 0.006475707660798982 -0.0008339679702440531 0 0 0 0
15035200 1.0116314257419292 0.04317319090519223 0.004143661252968628 -0.006272050930228574 0 0 0 0
15035750 1.0257197567707161 0.06292827617276758 -0.002804673312062363 -0.0011418339869709165 0 0 0 0
15036300 1.009273633365837 0.03694681323329114 0.0004985230547532089 -0.0013148068621527031 0 0 0 0
15036850 1.0235238226225511 0.06196201554950316 -0.0050501692376522115 0.003192737013614134 0 0 0 0
15037400 1.0197139015140375 0.045046007218018866 0.008260415798458317 -0.011458208057601265 0 0 0 0
15037950 1.017032297483955 0.04059844659297206 0.009932103503701693 -0.00203595867833167 0 0 0 0
15038500 1.0509307321146615 0.03398090945503053 0.005258814224093831 0.0088949324022756 0 0 0 0
15039050 1.0001850914234232 0.06616433411786293 0.0010358599633422368 0.005886215413649192 0 0 0 0
15039600 1.0022417562913772 0.012684320136073849 -0.010284404461825734 -0.00805324794593231 0 0 0 0
15040150 1.0548654314941968 0.08022074168602604 7.713954858227961e-05 -0.007193667868242642 0 0 0 0
15040700 1.0369804029545286 0.021277795191580417 0.0065259897453655204 -0.0014692379003340107 0 0 0 0
15041250 1.0394474577595623 0.02969641805813156 -0.007638933922072432 0.006031682094814275 0 0 0 0
15041800 1.0167669441323535 0.026870977319715984 0.00248961919101385 -0.0018964881084231095 0 0 0 0
15042350 1.032825164411402 0.05663906633487696 0.0020793945402016274 -0.0018772563105125875 0 0 0 0
15042900 1.00070388152705 0.03025415956861198 0.004270490141433833 0.0033790865378732085 0 0 0 0
15043450 0.9975148903115364 0.03839333252825163 0.00688383637317419 0.013997586521919942 0 0 0 0
15044000 1.025698598141313 0.04133880087818948 0.00020539771491839373 0.009338131825905172 0 0 0 0
15044550 1.0343538006113349 0.051142317202431994 -0.0029819141660949837 -0.00043283474464770027 0 0 0 0
15045100 1.041189143643272 0.030962691234888567 -0.003419680733675356 -0.005738551254327562 0 0 0 0
15045650 1.0382213383770826 0.04304486033122683 0.010323775770426867 0.006047831077980806 0 0 0 0
15046200 0.987228991164498 0.0383809724867258 0.002596946909509554 0.009386090809169417 0 0 0 0
15046750 1.0337268721649753 0.019600484646964723 0.005258035651614743 0.007302227476456521 0 0 0 0
15047300 1.0259308526851674 0.03435759842283647 -0.0029983169310434307 -0.002957022866488166 0 0 0 0
15047850 1.013073596867687 0.049051515039541985 0.0007951480238712723 -0.006075752118520559 0 0 0 0
15048400 1.0075580853610129 0.06988044765018693 -0.005429145017399118 -0.005466238385405089 0 0 0 0
15048950 1.0220619845909498 0.03544036208305996 0.0053181896931525354 0.004520684358672137 0 0 0 0
15049500 1.0311507859291773 0.039127167491866365 0.0015984909591760228 0.006330095285681761 0 0 0 0
15050050 1.032583500909595 0.05811760730861794 -0.001365590362043002 -0.002685280847565472 0 0 0 0
15050600 0.9994037510648428 0.046971953447438146 -0.004571774757908151 -0.0015367965017434157 0 0 0 0
15051150 1.026901532218534 0.05737056851834129 0.004772507476092436 0.0034368653365093494 0 0 0 0
15051700 1.0124141756194196 0.05440950539513775 0.004792740141071524 -0.00018469444575171338 0 0 0 0
15052250 1.0256162366746364 0.03319019240733914 0.0029708388843602772 0.010056884492996108 0 0 0 0
15052800 1.0342227110429667 0.03980350625751302 -0.00817964362528352 0.006185672204925011 0 0 0 0
15053350 0.9960584679995493 0.04828354823448775 -0.002531457157739456 -0.0016125065146163067 0 0 0 0
15053900 1.0163343398598081 0.04397690784383064 0.00270472676181878 -0.003194735792860098 0 0 0 0
15054450 1.0249794819612665 0.03706507222529381 0.013608629875174973 -0.0029126885109060363 0 0 0 0
15055000 1.0290327818104232 0.038227206659687527 -0.006056119031128047 0.0048416629473291995 0 0 0 0
15055550 1.0300053544289052 0.02593451387165517 0.0008853007871856045 0.010161210458539164 0 0 0 0
15056100 1.0393487503794265 0.05557830009152848 -0.004188764171366458 -0.007104949607761646 0 0 0 0
15056650 1.0646248342801465 -0.02882217819610953 0.001167662156996388 -0.011070617518707556 0 0 0 0
15057200 1.0047491211790742 0.03508324937134032 0.0037794793449208008 0.006143386282690092 0 0 0 0
15057750 1.1631927643308735 0.03335436428949574 -0.00018222180237460606 0.007930997200899906 0 0 0 0
15058300 1.033003796492564 0.06615940935087408 -0.0020711492841471576 0.011795599427818295 0 0 0 0
15058850 0.9850865186328952 0.053203751783836094 0.002640404454395344 -0.012195605071515125 0 0 0 0
15059400 1.0090561393807724 0.05113266162355777 0.0028077700491431394 -0.008974414869345367 0 0 0 0
15059950 1.0594411003923598 0.05822214395095121 0.00425293078637387 0.005702796789558284 0 0 0 0
15060500 1.0248166001080865 0.06639992450388028 0.0033043666319563423 0.010052445035288057 0 0 0 0
15061050 1.0224718233863117 0.03254529295557235 -0.004165023526357015 -0.0008088447303047347 0 0 0 0
15061600 1.0421188244353778 -0.008045671932779766 0.0029601156839431093 -0.008696349653756446 0 0 0 0
15062150 1.0816017600301935 0.1155935106623482 0.0017836453300074722 -0.008679824819170954 0 0 0 0
15062700 0.9949397502815445 0.11986161601255181 0.006927045013364497 0.002982356345697008 0 0 0 0
15063250 1.2812350814312772 0.10449752754943245 -0.00032955116295926867 0.007594662355357058 0 0 0 0
15063800 1.3520990106525903 -0.0008213933289834299 0.00045013232038749887 -0.004518133144627389 0 0 0 0
15064350 0.8498554871820188 0.06885305653227038 0.0007798133155613198 -0.002912923362304887 0 0 0 0
15064900 0.9259877988887221 0.1526886998182995 0.0029283362693511387 -0.008713556450464174 0 0 0 0
15065450 0.8333839638853475 0.16849618119497686 0.005229304078774442 0.0032882732109366757 0 0 0 0
15066000 1.1707137743724423 -0.11207110575052519 0.0034454497746616926 0.0036846950959120955 0 0 0 0
15066550 0.5585366858127806 0.011975317973180341 -0.0037613358154469146 -0.00033361675969244915 0 0 0 0
15067100 1.1184953885301374 0.2729731554498051 -0.007415118829670588 -0.0013077752543884879 0 0 0 0
15067650 1.0405027105773064 -0.10701490107723015 0.005916887747391332 -0.00465066032348956 0 0 0 0
15068200 1.0108917564349575 0.10090359606900373 0.015497965866026841 -0.006623885683162958 0 0 0 0
15068750 0.8698761301815653 0.20815264648216847 0.004456021737013016 0.004544394108868604 0 0 0 0
15069300 0.8094297659628178 -0.2595868794288219 -0.0019143196254909792 0.0025313465562097686 0 0 0 0
15069850 1.1101308985323524 0.11029731041186787 -0.009485791786604471 0.0019106308722050237 0 0 0 0
15070400 0.9514729536714144 -0.06601670236311169 0.0013738779983374406 -0.002241570506834499 0 0 0 0
15070950 0.9029443800180559 0.022895458691665073 0.010859210684217982 0.003404744177021073 0 0 0 0
15071500 0.9225037839170095 0.1220744398217325 -0.0007580380168454452 0.0007795904829806523 0 0 0 0
15072050 0.7872887419451281 0.09243056458583632 -0.000567188631724596 0.0007401633118373623 0 0 0 0
15072600 1.0284287759408428 0.025196620925527487 0.0012801373442426565 0.004316998512585031 0 0 0 0
15073150 1.0164836885401412 -0.003042223456826986 -0.0058641350591858215 -0.0012843994614921926 0 0 0 0
15073700 1.0477656980153984 0.15554145372310457 0.003085954171927776 -0.002799820532762024 0 0 0 0
15074250 1.0138649498320869 -0.09341729094187018 0.0013457022343212961 0.007536326091380721 0 0 0 0
15074800 1.0506157263272806 -0.014473424856402513 0.003968805210447344 0.00340190058552447 0 0 0 0
15075350 1.024952093758559 0.08725847719827745 0.006912848204154145 -0.00037616630629614263 0 0 0 0
15075900 1.1102389219478355 0.001360662631274652 0.006263779638550447 -0.008910616084726642 0 0 0 0
15076450 1.0510815416285355 -0.08167625264399248 -0.004956337210213327 -0.00637337525339561 0 0 0 0
15077000 0.9861316248647622 0.031126976774535735 0.010482859529002872 0.005279603121086138 0 0 0 0
15077550 1.0219038061703625 0.039794547984086916 -0.001602912882268673 -0.00252653031447277 0 0 0 0
15078100 1.0274487311716392 0.05173919367700625 0.00405332800539103 -0.00040356678291171685 0 0 0 0
15078650 1.0204303687520477 0.0887776427277003 0.004034860812261074 -0.004930071385696145 0 0 0 0
15079200 1.0188483870323728 0.0449262543817676 0.0043869493608448724 0.0015631243449587906 0 0 0 0
15079750 1.002504675916525 -0.0009447343796611748 -0.005365013132413563 0.0043668362489499716 0 0 0 0
15080300 1.0322720499195788 0.09308470248423774 -0.0025671685704970145 -0.0042237829340515095 0 0 0 0
15080850 1.0360067614882118 0.03392755468396612 -0.0004055220702594879 -0.006034698744077886 0 0 0 0
15081400 1.0304291893185507 0.05145261630719379 0.00247177211688181 -0.0007537952743663152 0 0 0 0
15081950 1.0226689074758102 0.0406350373460023 0.008207368861515008 -0.0076931132863981705 0 0 0 0
15082500 1.0227420887681022 0.039701614465632105 -0.004626332554663581 0.0029314635130913438 0 0 0 0
15083050 1.0186726055695026 0.0525517384192575 -0.010959201915266944 -0.003937285062223704 0 0 0 0
15083600 1.0268465756919674 0.03267887558439604 -0.0014636140153404754 -0.005882103240353113 0 0 0 0
15084150 0.995437156607481 0.03547343764697683 0.005358863482178196 -0.009530534640366524 0 0 0 0
15084700 1.0159302445738472 0.025760238663399 0.008563349497495543 -0.0010686085044965868 0 0 0 0
15085250 1.0090507781216447 0.03984356005763596 0.0010911682742240296 0.008500080876260977 0 0 0 0
15085800 1.0301055479938679 0.03679369014096075 -0.010043815691341261 0.0030274663562758855 0 0 0 0
15086350 1.003458262563901 0.04728257233290459 -0.00415623171079029 -0.0018513753630220156 0 0 0 0
15086900 1.0103454749973093 0.04754761198159742 0.0012900367016673866 0.002381902139607041 0 0 0 0
15087450 0.99806627639014 0.03507605117260074 0.007982292936999771 -0.0012659503919065734 0 0 0 0
15088000 1.0096841797160376 0.04047130042622062 0.008670269077822035 0.006430499965836633 0 0 0 0
15088550 1.0138643892820172 0.04185602929591667 -0.0001951717851722921 0.01758907031919699 0 0 0 0
15089100 1.0037357342640225 0.055063125526382976 -0.0016696517950614276 -0.00375499991163041 0 0 0 0
15089650 1.017750676999988 0.047025409227018596 -0.0010023971141048503 0.0021988301205713955 0 0 0 0
15090200 1.0132535648422933 0.038230058507503925 0.0023385835441037815 -0.002818817609104858 0 0 0 0
15090750 1.0182926772255654 0.04142756912701677 0.009388002511732605 0.012750370880339403 0 0 0 0
15091300 1.0226334208458523 0.05565488769779392 -0.005719900130873436 0.008268165471447373 0 0 0 0
15091850 1.0338385672989812 0.04624476037341 -0.011131455802043994 0.002510586794986528 0 0 0 0
15092400 1.009261398224969 0.04404648070809771 -0.005507105377311724 -0.004067754049099561 0 0 0 0
15092950 1.013092022646858 0.03961020634702896 0.003908240721817802 -0.004003189846914272 0 0 0 0
15093500 1.016789026180874 0.040083884853246654 0.00738374436136325 -0.003591350484642466 0 0 0 0
15094050 1.0199513204976214 0.03921907790421018 -0.0028039878444519237 0.005405474201956339 0 0 0 0
15094600 1.020605290764044 0.04819166295441077 0.0007791914642012348 0.0001544064859395487 0 0 0 0
15095150 1.0158828515260547 0.061135722672131194 0.0021184033360723505 0.001689298058786742 0 0 0 0
15095700 1.0039801581530328 0.031046386480803222 -0.0008499069218219468 0.002555672088056331 0 0 0 0
15096250 1.0182524990361144 0.03929815561321194 0.004587999042988821 0.0029082340348009395 0 0 0 0
15096800 1.0235409547208973 0.04501125123956768 -0.0033166250209636884 0.003936445754716072 0 0 0 0
15097350 1.0144143681898465 0.04925224887795206 -5.2401642773069446e-06 0.0019353449304523472 0 0 0 0
15097900 1.0190965848136748 0.04615321562697192 0.002788606978095178 0.003708429742403808 0 0 0 0
15098450 1.0291073207477632 0.048490808669681196 0.01062991152844681 -0.0014680883259698446 0 0 0 0
15099000 1.0096831772051222 0.04527361034643464 0.00689096032503881 0.006025951492025937 0 0 0 0
15099550 1.0104225045610187 0.0476976147502209 0.0006081913937060723 -0.003087335700748291 0 0 0 0
15100100 1.0096426255447892 0.03875797965754102 0.004343503005823277 -0.008770699021921595 0 0 0 0
15100650 1.0093652185420294 0.07520025616656541 0.006475602508833918 -0.007457400169127575 0 0 0 0
15101200 1.0281745637915176 0.038198548962295506 0.004696131367217256 0.002133572115533152 0 0 0 0
15101750 1.0218841105246257 0.044784548980020246 0.00679921580273534 0.0017783764173582323 0 0 0 0
15102300 1.0373837487337256 0.04380023389329661 0.006432864446223193 0.008633999479836039 0 0 0 0
15102850 1.0158090640968116 0.03432779927022241 -0.0064210082128966 0.0027554268005296864 0 0 0 0
15103400 1.0181212557309447 0.05482545472650545 0.004858041039058628 -0.002022377594481223 0 0 0 0
15103950 1.0132152970588455 0.0348084491124456 0.004883162700578067 0.0021401691491348355 0 0 0 0
15104500 1.0150415365935792 0.03150476097116523 0.0026498201322058155 0.005313134457319239 0 0 0 0
15105050 1.024995861384434 0.06272890197525532 0.001133287041447444 0.011169628276638085 0 0 0 0
15105600 1.0132949541637477 0.0661804013915141 -0.010299242426481456 0.005805659965411775 0 0 0 0
15106150 1.0039933461492152 0.03808712372738365 -0.004389291705062806 -0.008573782015311997 0 0 0 0
15106700 1.0345572495348951 0.055284536683256405 -0.002765009735921618 -0.00011027975498313084 0 0 0 0
15107250 1.0184172249932744 0.03234240361053626 0.003058668102566277 0.009313057706519207 0 0 0 0
15107800 1.022772116559804 0.04113792779269954 -0.011972791881701481 0.0077595372397459 0 0 0 0
15108350 1.0263165391420126 0.06238167838841205 -0.003589750983947138 -7.128456508857307e-05 0 0 0 0
